(1705432424.252607) can0 101#84
(1705432424.252653) can0 210#00000080800000FF
(1705432424.252932) can0 308#00020242011FFF00
(1705432424.253199) can0 309#1FFFFFFF0FFF00
(1705432424.253791) can0 312#5FFF1FFF096D0748
(1705432424.254051) can0 356#3FFF3FFF0A8000
(1705432424.254351) can0 7BC#0300FF4880008000
(1705432424.258757) can0 325#081B8E77000100
(1705432424.258939) can0 212#06131FFFC8F83FFF
(1705432424.263139) can0 308#00020242011FFF00
(1705432424.263760) can0 309#1FFFFFFF0FFF00
(1705432424.264024) can0 312#5FFF1FFF096D0748
(1705432424.264166) can0 380#0001
(1705432424.272679) can0 210#00000080800000FF
(1705432424.272856) can0 308#00020202001FFF00
(1705432424.273106) can0 309#1FFFFFFF0FFF00
(1705432424.273734) can0 312#3FFF1FFF096D0748
(1705432424.273963) can0 356#3FFF3FFF0A8000
(1705432424.274261) can0 7BC#0400000000003E07
(1705432424.278913) can0 325#081B8E77000100
(1705432424.282562) can0 212#06131FFFC8F83FFF
(1705432424.283101) can0 308#00020202001FFF00
(1705432424.283837) can0 309#1FFFFFFF0FFF00
(1705432424.284061) can0 312#3FFF1FFF096D0744
(1705432424.284208) can0 380#0001
(1705432424.292571) can0 210#00000000000000FF
(1705432424.292861) can0 308#00020C02011FFF00
(1705432424.293025) can0 309#1FFFFFFF0FFF00
(1705432424.293649) can0 312#5FFF1FFF096D0744
(1705432424.293864) can0 356#3FFF3FFF0A8000
(1705432424.294137) can0 7BC#0562007A0003D820
(1705432424.298848) can0 325#081B8E77000100
(1705432424.302679) can0 212#06131FFF08F43FFF
(1705432424.303027) can0 308#00020C02011FFF00
(1705432424.303645) can0 309#1FFFFFFF0FFF00
(1705432424.303901) can0 312#5FFF1FFF096D0744
(1705432424.304111) can0 380#0001
(1705432424.304451) can0 6FE#FFEFE7E700000000
(1705432424.309003) can0 210#00000000000000FF
(1705432424.313171) can0 308#00020C42001FFF00
(1705432424.313200) can0 309#1FFFFFFF0FFF00
(1705432424.313435) can0 318#009B00009B170000
(1705432424.313665) can0 312#3FFF1FFF096D0744
(1705432424.314142) can0 356#3FFF3FFF0A8000
(1705432424.314379) can0 6FA#0235353800000000
(1705432424.314942) can0 7BC#0600030000008000
(1705432424.318934) can0 408#0000890005000000
(1705432424.319189) can0 325#081B8E77000100
(1705432424.323026) can0 212#06131FFF08F43FFF
(1705432424.323660) can0 309#1FFFFFFF0FFF00
(1705432424.323946) can0 312#3FFF1FFF096D0744
(1705432424.324092) can0 380#0001
(1705432424.328764) can0 210#00000080800000FF
(1705432424.333000) can0 308#00022542011FFF00
(1705432424.333028) can0 309#1FFFFFFF0FFF00
(1705432424.333665) can0 312#5FFF1FFF096D0748
(1705432424.334139) can0 356#3FFF3FFF0A8000
(1705432424.334367) can0 4A0#21DC32194A0B0004
(1705432424.335204) can0 7BC#0700000000000000
(1705432424.338927) can0 325#081B8E77000100
(1705432424.342497) can0 212#06131FFFC8F43FFF
(1705432424.343007) can0 308#00022542011FFF00
(1705432424.343630) can0 309#1FFFFFFF0FFF00
(1705432424.344099) can0 312#5FFF1FFF096D0748
(1705432424.344246) can0 380#0001
(1705432424.344883) can0 415#000000000000CA

