;$FILEVERSION=1.1
;$STARTTIME=45789.8610974769
;
;   Start time: 5/12/2025 20:39:58.822.0
;   Generated by PCAN-View v5.3.2.952
;
;   Message Number
;   |         Time Offset (ms)
;   |         |        Type
;   |         |        |        ID (hex)
;   |         |        |        |     Data Length
;   |         |        |        |     |   Data Bytes (hex) ...
;   |         |        |        |     |   |
;---+--   ----+----  --+--  ----+---  +  -+ -- -- -- -- -- -- --
     1)         3.8  Rx         0190  8  A0 00 55 27 00 00 00 00 
     2)         4.1  Rx         0191  8  E0 19 49 03 7F 03 BE 00 
     3)         6.4  Rx         0002  8  0C 80 26 00 00 00 00 01 
     4)        10.5  Rx         0075  8  00 00 00 00 00 08 09 A5 
     5)        10.7  Rx         0513  8  00 00 00 00 00 00 00 00 
     6)        11.0  Rx         0512  8  C0 60 00 00 80 D9 47 40 
     7)        11.2  Rx         0070  8  02 80 00 FF 96 7F 09 16 
     8)        11.5  Rx         0080  8  29 80 00 00 AC 80 09 8C 
     9)        11.7  Rx         0430  8  E3 01 15 20 17 00 00 00 
    10)        11.9  Rx         0511  8  FA FF 00 00 00 00 00 04 
    11)        12.2  Rx         0501  8  00 00 00 FF 00 DA 00 00 
    12)        12.5  Rx         0514  8  00 08 78 00 CC 2B CF 80 
    13)        12.7  Rx         0576  8  00 00 00 00 0A 12 29 5B 
    14)        12.9  Rx         0620  8  30 00 03 00 00 00 00 00 
    15)        14.1  Rx         0190  8  A0 00 55 27 00 00 00 00 
    16)        14.3  Rx         0191  8  E1 19 49 03 7F 03 BE 00 
    17)        14.8  Rx         0410  8  18 86 20 0C 01 E3 00 C1 
    18)        15.1  Rx         0411  8  01 31 00 00 01 00 00 3D 
    19)        15.4  Rx         0412  8  86 01 01 01 01 09 02 00 
    20)        15.6  Rx         0601  8  00 D4 00 01 86 64 00 00 
    21)        15.8  Rx         0600  8  00 0B 01 6B 68 2A 38 00 
    22)        16.5  Rx         0002  8  0C 80 37 00 00 00 00 01 
    23)        24.3  Rx         0190  8  A0 00 55 27 00 00 00 00 
    24)        24.5  Rx         0191  8  E5 19 44 03 7F 03 BE 00 
    25)        24.8  Rx         0410  8  18 87 20 0C 01 E3 00 C1 
    26)        25.1  Rx         0411  8  01 31 00 00 01 00 00 3D 
    27)        25.3  Rx         0412  8  87 01 01 01 01 09 02 00 
    28)        25.6  Rx         0601  8  00 D4 00 01 87 64 00 00 
    29)        26.5  Rx         0002  8  0C 80 C8 00 00 00 00 01 
    30)        26.7  Rx     0EF50000  2  8B 01 
    31)        30.5  Rx         0075  8  00 00 00 00 00 08 0A 82 
    32)        30.8  Rx         0513  8  00 00 00 00 00 00 00 00 
    33)        31.1  Rx         0070  8  09 80 00 FF BE 7F 0A 38 
    34)        31.3  Rx         0080  8  FB 7F 00 00 AA 80 0A DB 
    35)        31.5  Rx         0512  8  C0 60 00 00 80 DA 47 40 
    36)        31.8  Rx         0430  8  E4 01 15 FF 7F 00 00 00 
    37)        32.0  Rx         0511  8  FA FF 00 00 00 00 00 04 
    38)        32.3  Rx         0501  8  00 00 00 FF 00 DB 00 00 
    39)        32.5  Rx         0514  8  00 08 78 00 8C 2B C1 80 
    40)        32.7  Rx         0576  8  00 00 00 00 0C 14 2A CC 
    41)        33.0  Rx         0620  8  30 00 03 00 00 00 00 00 
    42)        34.6  Rx         0190  8  A0 00 56 27 00 00 00 00 
    43)        34.8  Rx         0191  8  E9 19 44 03 7F 03 BB 00 
    44)        36.5  Rx         0002  8  0C 80 D9 00 00 00 00 01 
    45)        44.8  Rx         0410  8  18 84 20 0C 00 E3 00 C1 
    46)        45.1  Rx         0190  8  A0 00 55 27 00 00 00 00 
    47)        45.3  Rx         0191  8  E9 19 44 03 7F 03 BB 00 
    48)        45.5  Rx         0411  8  01 31 00 00 01 00 00 3D 
    49)        45.8  Rx         0412  8  84 00 01 00 01 09 02 00 
    50)        46.0  Rx         0601  8  00 D4 00 00 84 64 00 00 
    51)        46.5  Rx         0002  8  0C 80 EA 00 00 00 00 01 
    52)        50.5  Rx         0075  8  00 00 00 00 00 08 0B 9F 
    53)        50.8  Rx         0513  8  00 00 00 00 00 00 00 00 
    54)        51.0  Rx         0070  8  07 80 00 FF 81 7F 0B 8A 
    55)        51.2  Rx         0080  8  05 80 00 00 A5 80 0B E1 
    56)        51.5  Rx         0512  8  C0 60 00 00 80 DB 47 40 
    57)        51.8  Rx         0511  8  FA FF 00 00 00 00 00 04 
    58)        52.0  Rx         0430  8  E5 01 15 FF BF 00 00 00 
    59)        52.2  Rx         0501  8  00 00 00 FF 00 DC 00 00 
    60)        52.5  Rx         0514  8  00 08 78 00 8C 2B C3 80 
    61)        52.7  Rx         0576  8  00 00 00 00 0E 33 2B 5E 
    62)        52.9  Rx         0620  8  30 00 03 00 00 00 00 00 
    63)        55.1  Rx         0190  8  A0 00 55 27 00 00 00 00 
    64)        55.3  Rx         0191  8  E6 19 48 03 7F 03 BB 00 
    65)        56.4  Rx         0002  8  0C 80 FB 00 00 00 00 01 
    66)        64.9  Rx         0410  8  18 86 20 0C 01 E3 00 C1 
    67)        65.1  Rx         0411  8  01 31 00 00 01 00 00 3D 
    68)        65.3  Rx         0412  8  86 01 01 01 01 09 02 00 
    69)        65.6  Rx         0190  8  A0 00 55 27 00 00 00 00 
    70)        65.8  Rx         0191  8  E2 19 4B 03 7F 03 BB 00 
    71)        66.0  Rx         0601  8  00 D4 00 01 86 64 00 00 
    72)        66.4  Rx         0002  8  0C 80 8C 00 00 00 00 01 
    73)        70.5  Rx         0075  8  00 00 00 00 00 08 0C CC 
    74)        70.7  Rx         0513  8  00 00 00 00 00 00 00 00 
    75)        71.0  Rx         0070  8  01 80 00 FF B1 7F 0C 22 
    76)        71.3  Rx         0080  8  EE 7F 00 00 AC 80 0C 1D 
    77)        71.5  Rx         0512  8  C0 60 00 00 80 DC 47 40 
    78)        71.7  Rx         0511  8  FA FF 00 00 00 00 00 04 
    79)        72.0  Rx         0430  8  E6 01 15 FF FF 00 00 00 
    80)        72.2  Rx         0501  8  00 00 00 FF 00 DD 00 00 
    81)        72.4  Rx         0514  8  00 08 78 00 8C 2B C5 80 
    82)        72.7  Rx         0576  8  00 00 00 00 10 02 2C 91 
    83)        72.9  Rx         0620  8  30 00 03 00 00 00 00 00 
    84)        75.6  Rx         0190  8  A0 00 55 27 00 00 00 00 
    85)        75.8  Rx         0191  8  E2 19 48 03 7F 03 BB 00 
    86)        76.5  Rx         0002  8  0C 80 9D 00 00 00 00 01 
    87)        76.6  Rx     0EF50000  2  8C 01 
    88)        84.8  Rx         0410  8  18 84 20 0C 00 E3 00 C1 
    89)        85.0  Rx         0411  8  01 31 00 00 01 00 00 3D 
    90)        85.3  Rx         0412  8  84 00 01 00 01 09 02 00 
    91)        85.5  Rx         0601  8  00 D4 00 00 84 64 00 00 
    92)        85.8  Rx         0190  8  A0 00 55 27 00 00 00 00 
    93)        86.1  Rx         0191  8  E4 19 45 03 7F 03 BE 00 
    94)        86.3  Rx         0600  8  00 0B 01 6B 69 2A 38 00 
    95)        86.6  Rx         0002  8  0C 80 AE 00 00 00 00 01 
    96)        90.5  Rx         0075  8  00 00 00 00 00 08 0D D1 
    97)        90.8  Rx         0513  8  00 00 00 00 00 00 00 00 
    98)        91.0  Rx         0070  8  02 80 00 FF 96 7F 0D 62 
    99)        91.3  Rx         0080  8  05 80 00 00 B9 80 0D BD 
   100)        91.5  Rx         0512  8  C0 60 00 00 80 DD 47 40 
   101)        91.8  Rx         0511  8  FA FF 00 00 00 00 00 04 
   102)        92.0  Rx         0430  8  E7 01 15 20 17 00 00 00 
   103)        92.2  Rx         0501  8  00 00 00 FF 00 DE 00 00 
   104)        92.5  Rx         0514  8  00 08 78 00 8C 2B C7 80 
   105)        92.7  Rx         0576  8  00 00 00 00 12 0F 2D B4 
   106)        93.0  Rx         0620  8  30 00 03 00 00 00 00 00 
   107)        95.8  Rx         0410  8  18 87 20 0C 00 E3 00 C1 
   108)        96.0  Rx         0190  8  A0 00 55 27 00 00 00 00 
   109)        96.3  Rx         0191  8  E3 19 4A 03 7F 03 BE 00 
   110)        96.6  Rx         0002  8  0C 80 BF 00 00 00 00 01 
   111)        96.8  Rx         0411  8  01 31 00 00 01 00 00 3D 
   112)        97.0  Rx         0412  8  87 00 01 00 01 09 02 00 
   113)        97.3  Rx         0601  8  00 D4 00 00 87 64 00 00 
   114)       106.3  Rx         0190  8  A0 00 55 27 00 00 00 00 
   115)       106.5  Rx         0002  8  0C 80 40 00 00 00 00 01 
   116)       106.8  Rx         0191  8  E5 19 49 03 7F 03 BE 00 
   117)       110.5  Rx         0075  8  00 00 00 00 00 08 0E F6 
   118)       110.8  Rx         0513  8  00 00 00 00 00 00 00 00 
   119)       111.0  Rx         0070  8  F5 7F 00 FF AE 7F 0E 4F 
   120)       111.3  Rx         0080  8  DB 7F 00 00 AD 80 0E 4A 
   121)       111.5  Rx         0512  8  C0 60 00 00 80 DE 47 40 
   122)       111.8  Rx         0511  8  FA FF 00 00 00 00 00 04 
   123)       112.0  Rx         0501  8  00 00 00 FF 00 DF 00 00 
   124)       112.2  Rx         0430  8  E8 01 15 FF 7F 00 00 00 
   125)       112.5  Rx         0514  8  00 08 78 00 8C 2B C9 80 
   126)       112.7  Rx         0576  8  00 00 00 00 14 13 2E 55 
   127)       112.9  Rx         0620  8  30 00 03 00 00 00 00 00 
   128)       115.8  Rx         0410  8  18 86 20 0C 01 E3 00 C1 
   129)       116.1  Rx         0411  8  01 31 00 00 01 00 00 3D 
   130)       116.3  Rx         0412  8  86 01 01 01 01 09 02 00 
   131)       116.5  Rx         0002  8  0C 80 51 00 00 00 00 01 
   132)       116.8  Rx         0190  8  A0 00 55 27 00 00 00 00 
   133)       117.0  Rx         0191  8  E5 19 47 03 7F 03 BE 00 
   134)       117.3  Rx         0601  8  00 D4 00 01 86 64 00 00 
   135)       125.8  Rx         0410  8  18 88 20 0C 01 E3 00 C1 
   136)       126.0  Rx         0411  8  01 31 00 00 01 00 00 3D 
   137)       126.3  Rx         0412  8  88 01 01 01 01 09 02 00 
   138)       126.6  Rx         0002  8  0C 80 62 00 00 00 00 01 
   139)       126.8  Rx         0601  8  00 D4 00 01 88 64 00 00 
   140)       127.0  Rx         0190  8  A0 00 55 27 00 00 00 00 
   141)       127.3  Rx         0191  8  E5 19 43 03 7F 03 BE 00 
   142)       127.5  Rx     0EF50000  2  8B 01 
   143)       130.5  Rx         0075  8  00 00 00 00 00 08 0F EB 
   144)       130.8  Rx         0513  8  00 00 00 00 00 00 00 00 
   145)       131.0  Rx         0070  8  E7 7F 00 FF B1 7F 0F CF 
   146)       131.2  Rx         0080  8  EE 7F 00 00 AD 80 0F B5 
   147)       131.5  Rx         0512  8  C0 60 00 00 80 DF 47 40 
   148)       131.7  Rx         0511  8  FA FF 00 00 00 00 00 04 
   149)       132.0  Rx         0501  8  00 00 00 FF 00 E0 00 00 
   150)       132.2  Rx         0430  8  E9 01 15 FF BF 00 00 00 
   151)       132.4  Rx         0514  8  00 08 78 00 8C 2B CB 80 
   152)       132.7  Rx         0576  8  00 00 00 00 16 03 2F FF 
   153)       133.0  Rx         0620  8  30 00 03 00 00 00 00 00 
   154)       136.5  Rx         0002  8  0C 80 73 00 00 00 00 01 
   155)       137.1  Rx         0190  8  A0 00 55 27 00 00 00 00 
   156)       137.3  Rx         0191  8  E4 19 49 03 7F 03 BB 00 
   157)       145.8  Rx         0410  8  18 83 20 0C 00 E3 00 C1 
   158)       146.1  Rx         0411  8  01 31 00 00 01 00 00 3D 
   159)       146.3  Rx         0412  8  83 00 01 00 01 09 02 00 
   160)       146.6  Rx         0002  8  0C 80 04 00 00 00 00 01 
   161)       146.8  Rx         0601  8  00 D4 00 00 83 64 00 00 
   162)       147.0  Rx         0600  8  00 0B 01 6B 6A 2A 38 00 
   163)       147.3  Rx         0190  8  A0 00 56 27 00 00 00 00 
   164)       147.5  Rx         0191  8  E5 19 45 03 7F 03 BB 00 
   165)       150.5  Rx         0075  8  00 00 00 00 00 08 00 50 
   166)       150.8  Rx         0513  8  00 00 00 00 00 00 00 00 
   167)       151.0  Rx         0070  8  FD 7F 00 FF B2 7F 00 29 
   168)       151.3  Rx         0080  8  37 80 00 00 9F 80 00 65 
   169)       151.5  Rx         0512  8  C0 60 00 00 80 E0 47 40 
   170)       151.8  Rx         0511  8  FA FF 00 00 00 00 00 04 
   171)       152.0  Rx         0501  8  00 00 00 FF 00 E1 00 00 
   172)       152.2  Rx         0430  8  EA 01 15 FF FF 00 00 00 
   173)       152.5  Rx         0514  8  00 08 78 00 8C 2B CD 80 
   174)       152.7  Rx         0576  8  00 00 00 00 18 08 20 C3 
   175)       153.0  Rx         0620  8  30 00 03 00 00 00 00 00 
   176)       156.5  Rx         0002  8  0C 80 15 00 00 00 00 01 
   177)       156.7  Rx         0410  8  18 87 20 0C 00 E0 00 C1 
   178)       156.9  Rx         0411  8  01 31 00 00 01 00 00 3D 
   179)       157.2  Rx         0412  8  86 00 01 00 01 08 02 00 
   180)       157.4  Rx         0601  8  00 D4 00 00 86 64 00 00 
   181)       157.7  Rx         0190  8  A0 00 55 27 00 00 00 00 
   182)       157.9  Rx         0191  8  E7 19 44 03 7F 03 BB 00 
   183)       166.4  Rx         0002  8  0C 80 26 00 00 00 00 01 
   184)       166.8  Rx         0410  8  18 85 20 0C 01 E0 00 C1 
   185)       167.1  Rx         0411  8  01 FF 7F 00 01 00 00 3D 
   186)       167.3  Rx         0412  8  85 01 01 01 01 08 02 00 
   187)       167.6  Rx         0601  8  00 D4 00 01 85 64 00 00 
   188)       167.8  Rx         0190  8  A0 00 56 27 00 00 00 00 
   189)       168.1  Rx         0191  8  EB 19 47 03 7F 03 BB 00 
   190)       170.5  Rx         0075  8  00 00 00 00 00 08 01 4D 
   191)       170.8  Rx         0513  8  00 00 00 00 00 00 00 00 
   192)       171.0  Rx         0512  8  C0 60 00 00 80 E1 47 40 
   193)       171.2  Rx         0070  8  07 80 00 FF BD 7F 01 7A 
   194)       171.5  Rx         0080  8  09 80 00 00 87 80 01 BB 
   195)       171.7  Rx         0511  8  FA FF 00 00 00 00 00 04 
   196)       172.0  Rx         0501  8  00 00 00 FF 00 E2 00 00 
   197)       172.2  Rx         0430  8  EB 01 15 20 17 00 00 00 
   198)       172.5  Rx         0514  8  00 08 78 00 8C 2B CF 80 
   199)       172.7  Rx         0576  8  00 00 00 00 1A 33 21 92 
   200)       172.9  Rx         0620  8  30 00 03 00 00 00 00 00 
   201)       176.4  Rx         0002  8  0C 80 37 00 00 00 00 01 
   202)       176.6  Rx     0EF50000  2  8C 01 
   203)       178.1  Rx         0190  8  A0 00 55 27 00 00 00 00 
   204)       178.3  Rx         0191  8  E6 19 47 03 7F 03 BB 00 
   205)       186.5  Rx         0002  8  0C 80 C8 00 00 00 00 01 
   206)       186.8  Rx         0410  8  18 87 20 0C 00 E0 00 C1 
   207)       187.1  Rx         0411  8  01 FF BF 00 01 00 00 3D 
   208)       187.3  Rx         0412  8  87 00 01 00 01 08 02 00 
   209)       187.6  Rx         0601  8  00 D4 00 00 87 64 00 00 
   210)       188.3  Rx         0190  8  A0 00 55 27 00 00 00 00 
   211)       188.5  Rx         0191  8  E4 19 4A 03 7F 03 BB 00 
   212)       190.5  Rx         0075  8  00 00 00 00 00 08 02 6A 
   213)       190.8  Rx         0513  8  00 00 00 00 00 00 00 00 
   214)       191.0  Rx         0512  8  C0 60 00 00 80 E2 57 80 
   215)       191.2  Rx         0070  8  0B 80 00 FF 9F 7F 02 D5 
   216)       191.5  Rx         0080  8  00 80 00 00 94 80 02 87 
   217)       191.7  Rx         0511  8  FA FF 00 00 00 00 00 04 
   218)       192.0  Rx         0501  8  00 00 00 FF 00 E3 00 00 
   219)       192.2  Rx         0514  8  00 08 78 00 CC 2B C1 80 
   220)       192.4  Rx         0430  8  EC 01 15 FF 7F 00 00 00 
   221)       192.7  Rx         0576  8  00 00 00 00 1C 07 22 5C 
   222)       192.9  Rx         0620  8  30 00 03 00 00 00 00 00 
   223)       196.5  Rx         0002  8  0C 80 D9 00 00 00 00 01 
   224)       198.5  Rx         0190  8  A0 00 55 27 00 00 00 00 
   225)       198.7  Rx         0191  8  E0 19 4A 03 7F 03 BB 00 
   226)       206.4  Rx         0002  8  0C 80 EA 00 00 00 00 01 
   227)       206.9  Rx         0410  8  18 83 20 0C 00 E0 00 C1 
   228)       207.1  Rx         0411  8  01 FF FF 00 01 00 00 3D 
   229)       207.3  Rx         0412  8  83 00 01 00 01 08 02 00 
   230)       207.6  Rx         0601  8  00 D4 00 00 83 64 00 00 
   231)       207.9  Rx         0600  8  00 0B 01 6B 6B 2A 38 00 
   232)       208.7  Rx         0190  8  A0 00 55 27 00 00 00 00 
   233)       208.9  Rx         0191  8  E0 19 44 03 7F 03 BB 00 
   234)       210.5  Rx         0075  8  00 00 00 00 00 08 03 77 
   235)       210.7  Rx         0513  8  00 00 00 00 00 00 00 00 
   236)       211.0  Rx         0512  8  C0 60 00 00 80 E3 57 80 
   237)       211.2  Rx         0070  8  01 80 00 FF AE 7F 03 07 
   238)       211.5  Rx         0080  8  EE 7F 00 00 A5 80 03 25 
   239)       211.7  Rx         0511  8  FA FF 00 00 00 00 00 04 
   240)       212.0  Rx         0501  8  00 00 00 FF 00 E4 00 00 
   241)       212.2  Rx         0514  8  00 08 78 00 CC 2B C3 80 
   242)       212.4  Rx         0430  8  ED 01 15 FF BF 00 00 00 
   243)       212.7  Rx         0576  8  00 00 00 00 1E 0D 23 80 
   244)       213.0  Rx         0620  8  30 00 03 00 00 00 00 00 
   245)       216.5  Rx         0002  8  0C 80 FB 00 00 00 00 01 
   246)       217.8  Rx         0410  8  18 87 20 0C 01 E0 00 C1 
   247)       218.0  Rx         0411  8  01 FF 7F 00 01 00 00 3D 
   248)       218.3  Rx         0412  8  87 01 01 01 01 08 02 00 
   249)       218.5  Rx         0601  8  00 D4 00 01 87 64 00 00 
   250)       218.9  Rx         0190  8  A0 00 55 27 00 00 00 00 
   251)       219.2  Rx         0191  8  E5 19 41 03 7F 03 BB 00 
   252)       226.4  Rx         0002  8  0C 80 8C 00 00 00 00 01 
   253)       226.7  Rx     0EF50000  2  8B 01 
   254)       229.3  Rx         0190  8  A0 00 55 27 00 00 00 00 
   255)       229.5  Rx         0191  8  E9 19 4A 03 7F 03 BE 00 
   256)       230.5  Rx         0075  8  00 00 00 00 00 08 04 24 
   257)       230.7  Rx         0513  8  00 00 00 00 00 00 00 00 
   258)       231.0  Rx         0512  8  C0 60 00 00 80 E4 57 80 
   259)       231.2  Rx         0070  8  F9 7F 00 FF A7 7F 04 A5 
   260)       231.4  Rx         0080  8  E5 7F 00 00 BA 80 04 DD 
   261)       231.7  Rx         0511  8  FA FF 00 00 00 00 00 04 
   262)       231.9  Rx         0501  8  00 00 00 FF 00 E5 00 00 
   263)       232.2  Rx         0514  8  00 08 78 00 8C 2B C5 80 
   264)       232.4  Rx         0430  8  EE 01 15 FF FF 00 00 00 
   265)       232.7  Rx         0576  8  00 00 00 00 20 02 24 51 
   266)       232.9  Rx         0620  8  30 00 03 00 00 00 00 00 
   267)       236.5  Rx         0002  8  0C 80 9D 00 00 00 00 01 
   268)       237.8  Rx         0410  8  18 83 20 0C 01 E0 00 C1 
   269)       238.0  Rx         0411  8  01 FF BF 00 01 00 00 3D 
   270)       238.3  Rx         0412  8  83 01 01 01 01 08 02 00 
   271)       238.6  Rx         0601  8  00 D4 00 01 83 64 00 00 
   272)       239.5  Rx         0190  8  A0 00 55 27 00 00 00 00 
   273)       239.8  Rx         0191  8  EB 19 46 03 7F 03 BE 00 
   274)       246.5  Rx         0002  8  0C 80 AE 00 00 00 00 01 
   275)       249.7  Rx         0190  8  A0 00 55 27 00 00 00 00 
   276)       250.0  Rx         0191  8  EC 19 45 03 7F 03 BE 00 
   277)       250.5  Rx         0075  8  00 00 00 00 00 08 05 39 
   278)       250.7  Rx         0513  8  00 00 00 00 00 00 00 00 
   279)       250.9  Rx         0512  8  C0 60 00 00 80 E5 57 80 
   280)       251.2  Rx         0070  8  E7 7F 00 FF 97 7F 05 28 
   281)       251.4  Rx         0080  8  E5 7F 00 00 C2 80 05 84 
   282)       251.7  Rx         0511  8  FA FF 00 00 00 00 00 04 
   283)       251.9  Rx         0501  8  00 00 00 FF 00 E6 00 00 
   284)       252.2  Rx         0514  8  00 08 78 00 8C 2B C7 80 
   285)       252.4  Rx         0576  8  00 00 00 00 22 08 25 8D 
   286)       252.6  Rx         0430  8  EF 01 15 20 17 00 00 00 
   287)       252.9  Rx         0620  8  30 00 03 00 00 00 00 00 
   288)       256.4  Rx         0002  8  0C 80 BF 00 00 00 00 01 
   289)       257.8  Rx         0410  8  18 88 20 0C 00 E0 00 C1 
   290)       258.1  Rx         0411  8  01 FF FF 00 01 00 00 3D 
   291)       258.4  Rx         0412  8  88 00 01 00 01 08 02 00 
   292)       258.6  Rx         0601  8  00 D4 00 00 88 64 00 00 
   293)       258.8  Rx         0600  8  00 0B 01 6B 6C 2A 38 00 
   294)       260.0  Rx         0190  8  A0 00 55 27 00 00 00 00 
   295)       260.2  Rx         0191  8  F2 19 46 03 7F 03 BE 00 
   296)       266.5  Rx         0002  8  0C 80 40 00 00 00 00 01 
   297)       270.2  Rx         0190  8  A0 00 55 27 00 00 00 00 
   298)       270.4  Rx         0191  8  F6 19 44 03 7F 03 BE 00 
   299)       270.6  Rx         0075  8  00 00 00 00 00 08 06 1E 
   300)       270.9  Rx         0513  8  00 00 00 00 00 00 00 00 
   301)       271.2  Rx         0070  8  F0 7F 00 FF AF 7F 06 1C 
   302)       271.4  Rx         0080  8  1B 80 00 00 A4 80 06 57 
   303)       271.6  Rx         0512  8  C0 60 00 00 80 E6 57 80 
   304)       271.9  Rx         0511  8  FA FF 00 00 00 00 00 04 
   305)       272.1  Rx         0501  8  00 00 00 FF 00 E7 00 00 
   306)       272.3  Rx         0514  8  00 08 78 00 4C 2B C9 80 
   307)       272.6  Rx         0430  8  F0 01 15 FF 7F 00 00 00 
   308)       272.9  Rx         0576  8  00 00 00 00 24 00 26 F5 
   309)       273.1  Rx         0620  8  30 00 03 00 00 00 00 00 
   310)       276.4  Rx         0002  8  0C 80 51 00 00 00 00 01 
   311)       276.7  Rx     0EF50000  2  8B 01 
   312)       277.8  Rx         0410  8  18 84 20 0C 00 E0 00 C1 
   313)       278.1  Rx         0411  8  01 FF 7F 00 01 00 00 3D 
   314)       278.3  Rx         0412  8  84 00 01 00 01 08 02 00 
   315)       278.5  Rx         0601  8  00 D4 00 00 84 64 00 00 
   316)       280.4  Rx         0190  8  A0 00 55 27 00 00 00 00 
   317)       280.7  Rx         0191  8  F9 19 44 03 7F 03 BE 00 
   318)       286.4  Rx         0002  8  0C 80 62 00 00 00 00 01 
   319)       287.9  Rx         0410  8  18 87 20 0C 01 E0 00 C1 
   320)       288.1  Rx         0411  8  01 FF BF 00 01 00 00 3D 
   321)       288.3  Rx         0412  8  87 01 01 01 01 08 02 00 
   322)       288.6  Rx         0601  8  00 D4 00 01 87 64 00 00 
   323)       290.5  Rx         0075  8  00 00 00 00 00 09 07 4F 
   324)       290.7  Rx         0190  8  A0 00 55 27 00 00 00 00 
   325)       291.0  Rx         0191  8  FA 19 45 03 7F 03 BE 00 
   326)       291.2  Rx         0070  8  FE 7F 00 FF C7 7F 07 5C 
   327)       291.5  Rx         0080  8  17 80 00 00 96 80 07 DA 
   328)       291.7  Rx         0513  8  00 00 00 00 00 00 00 00 
   329)       291.9  Rx         0512  8  C0 60 00 00 80 E7 57 80 
   330)       292.2  Rx         0511  8  FA FF 00 00 00 00 00 04 
   331)       292.4  Rx         0501  8  00 00 00 FF 00 E8 00 00 
   332)       292.7  Rx         0430  8  F1 01 15 FF BF 00 00 00 
   333)       292.9  Rx         0514  8  00 08 78 00 4C 2B CB 80 
   334)       293.2  Rx         0576  8  00 00 00 00 02 27 27 51 
   335)       293.4  Rx         0620  8  30 00 03 00 00 00 00 00 
   336)       296.5  Rx         0002  8  0C 80 73 00 00 00 00 01 
   337)       300.9  Rx         0190  8  A0 00 55 27 00 00 00 00 
   338)       301.2  Rx         0191  8  FD 19 47 03 7F 03 BE 00 
   339)       306.5  Rx         0002  8  0C 80 04 00 00 00 00 01 
   340)       307.8  Rx         0410  8  18 82 20 0C 00 E0 00 C1 
   341)       308.1  Rx         0411  8  01 FF FF 00 01 00 00 3D 
   342)       308.3  Rx         0412  8  82 00 01 00 01 08 02 00 
   343)       308.5  Rx         0601  8  00 D4 00 00 82 64 00 00 
   344)       310.5  Rx         0075  8  00 00 00 00 00 09 08 F4 
   345)       310.7  Rx         0513  8  00 00 00 00 00 00 00 00 
   346)       311.0  Rx         0512  8  C0 60 00 00 80 E8 57 80 
   347)       311.2  Rx         0070  8  06 80 00 FF 9F 7F 08 E1 
   348)       311.5  Rx         0080  8  17 80 00 00 93 80 08 E8 
   349)       311.7  Rx         0190  8  A0 00 55 27 00 00 00 00 
   350)       311.9  Rx         0191  8  FE 19 46 03 7F 03 BE 00 
   351)       312.2  Rx         0511  8  FA FF 00 00 00 00 00 04 
   352)       312.5  Rx         0501  8  00 00 00 FF 00 E9 00 00 
   353)       312.7  Rx         0430  8  F2 01 15 FF FF 00 00 00 
   354)       312.9  Rx         0514  8  00 08 78 00 8C 2B CD 80 
   355)       313.2  Rx         0576  8  00 00 00 00 04 20 28 16 
   356)       313.4  Rx         0620  8  30 00 03 00 00 00 00 00 
   357)       316.5  Rx         0002  8  0C 80 15 00 00 00 00 01 
   358)       321.5  Rx         0190  8  A0 00 55 27 00 00 00 00 
   359)       321.7  Rx         0191  8  FA 19 45 03 7F 03 BE 00 
   360)       326.5  Rx         0002  8  0C 80 26 00 00 00 00 01 
   361)       326.6  Rx     0EF50000  2  8B 01 
   362)       327.8  Rx         0410  8  18 88 20 0C 00 E0 00 C1 
   363)       328.1  Rx         0411  8  01 FF 7F 00 01 00 00 3D 
   364)       328.3  Rx         0412  8  88 00 01 00 01 08 02 00 
   365)       328.5  Rx         0601  8  00 D4 00 00 88 64 00 00 
   366)       328.8  Rx         0600  8  00 0B 01 6B 6D 2A 38 00 
   367)       330.5  Rx         0075  8  00 00 00 00 00 09 09 E9 
   368)       330.8  Rx         0513  8  00 00 00 00 00 00 00 00 
   369)       331.0  Rx         0512  8  C0 60 00 00 80 E9 57 80 
   370)       331.2  Rx         0070  8  0A 80 00 FF C6 7F 09 BC 
   371)       331.5  Rx         0080  8  FB 7F 00 00 91 80 09 54 
   372)       331.7  Rx         0190  8  A0 00 55 27 00 00 00 00 
   373)       332.0  Rx         0191  8  F6 19 4D 03 7F 03 BE 00 
   374)       332.2  Rx         0511  8  FA FF 00 00 00 00 00 04 
   375)       332.4  Rx         0501  8  00 00 00 FF 00 EA 00 00 
   376)       332.7  Rx         0430  8  F3 01 15 20 17 00 00 00 
   377)       332.9  Rx         0514  8  00 08 78 00 8C 2B CF 80 
   378)       333.1  Rx         0576  8  00 00 00 00 06 24 29 25 
   379)       333.4  Rx         0620  8  30 00 03 00 00 00 00 00 
   380)       336.5  Rx         0002  8  0C 80 37 00 00 00 00 01 
   381)       341.9  Rx         0190  8  A0 00 55 27 00 00 00 00 
   382)       342.2  Rx         0191  8  EE 19 46 03 7F 03 BE 00 
   383)       346.5  Rx         0002  8  0C 80 C8 00 00 00 00 01 
   384)       347.8  Rx         0410  8  18 83 20 0C 00 E0 00 C1 
   385)       348.0  Rx         0411  8  01 FF BF 00 01 00 00 3D 
   386)       348.3  Rx         0412  8  83 00 01 00 01 08 02 00 
   387)       348.6  Rx         0601  8  00 D4 00 00 83 64 00 00 
   388)       350.5  Rx         0075  8  00 00 00 00 00 09 0A CE 
   389)       350.8  Rx         0513  8  00 00 00 00 00 00 00 00 
   390)       351.0  Rx         0512  8  C0 60 00 00 80 EA 57 80 
   391)       351.2  Rx         0070  8  03 80 00 FF A1 7F 0A CE 
   392)       351.5  Rx         0080  8  FB 7F 00 00 9D 80 0A 79 
   393)       351.7  Rx         0511  8  FA FF 00 00 00 00 00 04 
   394)       352.0  Rx         0501  8  00 00 00 FF 00 EB 00 00 
   395)       352.2  Rx         0190  8  A0 00 55 27 00 00 00 00 
   396)       352.4  Rx         0191  8  EC 19 49 03 7F 03 BE 00 
   397)       352.7  Rx         0514  8  00 08 78 00 8C 2B C1 80 
   398)       352.9  Rx         0430  8  F4 01 15 FF 7F 00 00 00 
   399)       353.2  Rx         0576  8  00 00 00 00 08 27 2A DF 
   400)       353.4  Rx         0620  8  30 00 03 00 00 00 00 00 
   401)       356.4  Rx         0002  8  0C 80 D9 00 00 00 00 01 
   402)       358.2  Rx         0410  8  18 88 20 0C 00 E0 00 C1 
   403)       358.5  Rx         0411  8  01 FF FF 00 01 00 00 3D 
   404)       358.7  Rx         0412  8  88 00 01 00 01 08 02 00 
   405)       359.0  Rx         0601  8  00 D4 00 00 88 64 00 00 
   406)       362.4  Rx         0190  8  A0 00 55 27 00 00 00 00 
   407)       362.6  Rx         0191  8  EC 19 43 03 7F 03 BE 00 
   408)       366.4  Rx         0002  8  0C 80 EA 00 00 00 00 01 
   409)       370.5  Rx         0075  8  00 00 00 00 00 09 0B D3 
   410)       370.7  Rx         0513  8  00 00 00 00 00 00 00 00 
   411)       371.0  Rx         0512  8  C0 60 00 00 80 EB 57 80 
   412)       371.2  Rx         0070  8  F5 7F 00 FF A7 7F 0B A5 
   413)       371.5  Rx         0080  8  D2 7F 00 00 96 80 0B 04 
   414)       371.7  Rx         0511  8  FA FF 00 00 00 00 00 04 
   415)       372.0  Rx         0501  8  00 00 00 FF 00 EC 00 00 
   416)       372.2  Rx         0514  8  00 08 78 00 8C 2B C3 80 
   417)       372.4  Rx         0576  8  00 00 00 00 0A 29 2B 2E 
   418)       372.7  Rx         0190  8  A0 00 55 27 00 00 00 00 
   419)       372.9  Rx         0191  8  EC 19 46 03 7F 03 BE 00 
   420)       373.2  Rx         0430  8  F5 01 15 FF BF 00 00 00 
   421)       373.4  Rx         0620  8  30 00 03 00 00 00 00 00 
   422)       376.5  Rx         0002  8  0C 80 FB 00 00 00 00 01 
   423)       376.6  Rx     0EF50000  2  8B 01 
   424)       377.8  Rx         0410  8  18 85 20 0C 01 E0 00 C1 
   425)       378.0  Rx         0411  8  01 FF 7F 00 01 00 00 3D 
   426)       378.3  Rx         0412  8  85 01 01 01 01 08 02 00 
   427)       378.5  Rx         0601  8  00 D4 00 01 85 64 00 00 
   428)       382.8  Rx         0190  8  A0 00 55 27 00 00 00 00 
   429)       383.1  Rx         0191  8  EF 19 46 03 7F 03 BE 00 
   430)       386.4  Rx         0002  8  0C 80 8C 00 00 00 00 01 
   431)       387.8  Rx         0410  8  18 84 20 0C 01 E0 00 C1 
   432)       388.1  Rx         0411  8  01 FF BF 00 01 00 00 3D 
   433)       388.3  Rx         0412  8  84 01 01 01 01 08 02 00 
   434)       388.6  Rx         0601  8  00 D4 00 01 84 64 00 00 
   435)       388.8  Rx         0600  8  00 0B 01 6B 6E 2A 38 00 
   436)       390.5  Rx         0075  8  00 00 00 00 00 09 0C 80 
   437)       390.8  Rx         0513  8  00 00 00 00 00 00 00 00 
   438)       391.0  Rx         0512  8  C0 60 00 00 80 EC 75 00 
   439)       391.3  Rx         0070  8  E3 7F 00 FF 98 7F 0C 32 
   440)       391.5  Rx         0080  8  EE 7F 00 00 BC 80 0C 05 
   441)       391.7  Rx         0511  8  FA FF 00 00 00 00 00 04 
   442)       392.0  Rx         0501  8  00 00 00 FF 00 ED 00 00 
   443)       392.2  Rx         0514  8  00 08 78 00 8C 2B C5 80 
   444)       392.5  Rx         0576  8  00 00 00 00 0C 23 2C BA 
   445)       392.7  Rx         0620  8  30 00 03 00 00 00 00 00 
   446)       392.9  Rx         0430  8  F6 01 15 FF FF 00 00 00 
   447)       393.2  Rx         0190  8  A0 00 55 27 00 00 00 00 
   448)       393.4  Rx         0191  8  EC 19 46 03 7F 03 BE 00 
   449)       396.5  Rx         0002  8  0C 80 9D 00 00 00 00 01 
   450)       403.4  Rx         0190  8  A0 00 55 27 00 00 00 00 
   451)       403.6  Rx         0191  8  E6 19 4A 03 7F 03 BE 00 
   452)       406.5  Rx         0002  8  0C 80 AE 00 00 00 00 01 
   453)       407.8  Rx         0410  8  18 83 20 0C 00 E0 00 C1 
   454)       408.0  Rx         0411  8  01 FF FF 00 01 00 00 3D 
   455)       408.3  Rx         0412  8  83 00 01 00 01 08 02 00 
   456)       408.5  Rx         0601  8  00 D4 00 00 83 64 00 00 
   457)       410.5  Rx         0075  8  00 00 00 00 00 09 0D 9D 
   458)       410.8  Rx         0513  8  00 00 00 00 00 00 00 00 
   459)       411.0  Rx         0512  8  C0 60 00 00 80 ED 75 00 
   460)       411.2  Rx         0070  8  F5 7F 00 FF 9E 7F 0D 40 
   461)       411.5  Rx         0080  8  32 80 00 00 A8 80 0D 72 
   462)       411.7  Rx         0511  8  FA FF 00 00 00 00 00 04 
   463)       412.0  Rx         0501  8  00 00 00 FF 00 EE 00 00 
   464)       412.2  Rx         0514  8  00 08 78 00 8C 2B C7 80 
   465)       412.4  Rx         0576  8  00 00 00 00 0E 25 2D 11 
   466)       412.7  Rx         0620  8  30 00 03 00 00 00 00 00 
   467)       412.9  Rx         0430  8  F7 01 15 20 17 00 00 00 
   468)       413.6  Rx         0190  8  A0 00 55 27 00 00 00 00 
   469)       413.9  Rx         0191  8  E0 19 48 03 7F 03 BE 00 
   470)       416.4  Rx         0002  8  0C 80 BF 00 00 00 00 01 
   471)       423.9  Rx         0190  8  A0 00 55 27 00 00 00 00 
   472)       424.1  Rx         0191  8  DA 19 4A 03 7F 03 BE 00 
   473)       426.5  Rx         0002  8  0C 80 40 00 00 00 00 01 
   474)       426.6  Rx     0EF50000  2  8A 01 
   475)       427.8  Rx         0410  8  18 88 20 0C 01 DC 00 C1 
   476)       428.0  Rx         0411  8  01 FF 7F 00 01 00 00 3D 
   477)       428.3  Rx         0412  8  88 01 01 01 01 08 02 00 
   478)       428.5  Rx         0601  8  00 D4 00 01 88 64 00 00 
   479)       430.5  Rx         0075  8  00 00 00 00 00 09 0E BA 
   480)       430.8  Rx         0513  8  00 00 00 00 00 00 00 00 
   481)       431.0  Rx         0512  8  C0 60 00 00 80 EE 75 00 
   482)       431.2  Rx         0070  8  06 80 00 FF D6 7F 0E 4C 
   483)       431.5  Rx         0080  8  0E 80 00 00 A6 80 0E 31 
   484)       431.7  Rx         0511  8  FA FF 00 00 00 00 00 04 
   485)       432.0  Rx         0501  8  00 00 00 FF 00 EF 00 00 
   486)       432.2  Rx         0514  8  00 08 78 00 8C 2B C9 80 
   487)       432.4  Rx         0576  8  00 00 00 00 10 33 2E 26 
   488)       432.7  Rx         0620  8  30 00 03 00 00 00 00 00 
   489)       432.9  Rx         0430  8  F8 01 15 FF 7F 00 00 00 
   490)       434.1  Rx         0190  8  A0 00 55 27 00 00 00 00 
   491)       434.4  Rx         0191  8  DB 19 48 03 7F 03 C0 00 
   492)       436.4  Rx         0002  8  0C 80 51 00 00 00 00 01 
   493)       444.3  Rx         0190  8  A0 00 55 27 00 00 00 00 
   494)       444.6  Rx         0191  8  DC 19 45 03 7F 03 C0 00 
   495)       446.5  Rx         0002  8  0C 80 62 00 00 00 00 01 
   496)       447.8  Rx         0410  8  18 84 20 0C 00 DC 00 C1 
   497)       448.1  Rx         0411  8  01 FF BF 00 01 00 00 3D 
   498)       448.4  Rx         0412  8  84 00 01 00 01 08 02 00 
   499)       448.6  Rx         0601  8  00 D4 00 00 84 64 00 00 
   500)       448.8  Rx         0600  8  00 0B 01 6B 6F 2A 38 00 
   501)       450.5  Rx         0075  8  00 00 00 00 00 09 0F A7 
   502)       450.7  Rx         0513  8  00 00 00 00 00 00 00 00 
   503)       451.0  Rx         0512  8  C0 60 00 00 80 EF 75 00 
   504)       451.3  Rx         0070  8  0E 80 00 FF 8D 7F 0F 7B 
   505)       451.5  Rx         0080  8  1B 80 00 00 A7 80 0F 2E 
   506)       451.7  Rx         0511  8  FA FF 00 00 00 00 00 04 
   507)       452.0  Rx         0501  8  00 00 00 FF 00 F0 00 00 
   508)       452.2  Rx         0514  8  00 08 78 00 8C 2B CB 80 
   509)       452.4  Rx         0576  8  00 00 00 00 12 23 2F 8C 
   510)       452.7  Rx         0620  8  30 00 03 00 00 00 00 00 
   511)       453.0  Rx         0430  8  F9 01 15 FF BF 00 00 00 
   512)       454.6  Rx         0190  8  A0 00 55 27 00 00 00 00 
   513)       454.8  Rx         0191  8  E0 19 48 03 7F 03 C0 00 
   514)       456.5  Rx         0002  8  0C 80 73 00 00 00 00 01 
   515)       464.8  Rx         0190  8  A0 00 55 27 00 00 00 00 
   516)       465.0  Rx         0191  8  E3 19 48 03 7F 03 C0 00 
   517)       466.4  Rx         0002  8  0C 80 04 00 00 00 00 01 
   518)       467.8  Rx         0410  8  18 89 20 0C 00 DC 00 C1 
   519)       468.0  Rx         0411  8  01 FF FF 00 01 00 00 3D 
   520)       468.3  Rx         0412  8  89 00 01 00 01 08 02 00 
   521)       468.5  Rx         0601  8  00 D4 00 00 89 64 00 00 
   522)       470.5  Rx         0075  8  00 00 00 00 00 09 00 1C 
   523)       470.8  Rx         0513  8  00 00 00 00 00 00 00 00 
   524)       471.0  Rx         0070  8  0A 80 00 FF CC 7F 00 46 
   525)       471.3  Rx         0080  8  E9 7F 00 00 A6 80 00 00 
   526)       471.5  Rx         0512  8  C0 60 00 00 80 F0 75 00 
   527)       471.7  Rx         0511  8  FA FF 00 00 00 00 00 04 
   528)       472.0  Rx         0501  8  00 00 00 FF 00 F1 00 00 
   529)       472.2  Rx         0514  8  00 08 78 00 8C 2B CD 80 
   530)       472.5  Rx         0576  8  00 00 00 00 14 20 20 E6 
   531)       472.7  Rx         0620  8  30 00 03 00 00 00 00 00 
   532)       473.1  Rx         0430  8  FA 01 15 FF FF 00 00 00 
   533)       475.1  Rx         0190  8  A0 00 55 27 00 00 00 00 
   534)       475.3  Rx         0191  8  E4 19 49 03 7F 03 C0 00 
   535)       476.5  Rx         0002  8  0C 80 15 00 00 00 00 01 
   536)       476.6  Rx     0EF50000  2  8B 01 
   537)       485.3  Rx         0190  8  A0 00 55 27 00 00 00 00 
   538)       485.5  Rx         0191  8  E6 19 44 03 7F 03 BE 00 
   539)       486.5  Rx         0002  8  0C 80 26 00 00 00 00 01 
   540)       487.8  Rx         0410  8  18 85 20 0C 01 DC 00 C1 
   541)       488.0  Rx         0411  8  01 FF 7F 00 01 00 00 3D 
   542)       488.3  Rx         0412  8  85 01 01 01 01 08 02 00 
   543)       488.5  Rx         0601  8  00 D4 00 01 85 64 00 00 
   544)       490.5  Rx         0075  8  00 00 00 00 00 09 01 01 
   545)       490.8  Rx         0513  8  00 00 00 00 00 00 00 00 
   546)       491.0  Rx         0512  8  C0 60 00 00 80 F1 75 00 
   547)       491.2  Rx         0070  8  FF 7F 00 FF B9 7F 01 0E 
   548)       491.5  Rx         0080  8  EE 7F 00 00 C5 80 01 4F 
   549)       491.7  Rx         0511  8  FA FF 00 00 00 00 00 04 
   550)       492.0  Rx         0501  8  00 00 00 FF 00 F2 00 00 
   551)       492.2  Rx         0514  8  00 08 78 00 8C 2B CF 80 
   552)       492.5  Rx         0576  8  00 00 00 00 16 24 21 D5 
   553)       492.7  Rx         0620  8  30 00 03 00 00 00 00 00 
   554)       493.1  Rx         0430  8  FB 01 15 20 17 00 00 00 
   555)       495.5  Rx         0190  8  A0 00 56 27 00 00 00 00 
   556)       495.7  Rx         0191  8  E7 19 46 03 7F 03 BE 00 
   557)       496.5  Rx         0002  8  0C 80 37 00 00 00 00 01 
   558)       505.8  Rx         0190  8  A0 00 55 27 00 00 00 00 
   559)       506.0  Rx         0191  8  E7 19 48 03 7F 03 BE 00 
   560)       506.5  Rx         0002  8  0C 80 C8 00 00 00 00 01 
   561)       507.8  Rx         0410  8  18 83 20 0C 00 DC 00 C1 
   562)       508.1  Rx         0411  8  01 FF BF 00 01 00 00 3D 
   563)       508.3  Rx         0412  8  83 00 01 00 01 08 02 00 
   564)       508.6  Rx         0601  8  00 D4 00 00 83 64 00 00 
   565)       508.8  Rx         0600  8  00 0B 01 6B 70 2A 38 00 
   566)       510.5  Rx         0075  8  00 00 00 00 00 09 02 26 
   567)       510.8  Rx         0513  8  00 00 00 00 00 00 00 00 
   568)       511.0  Rx         0070  8  FA 7F 00 FF AB 7F 02 06 
   569)       511.3  Rx         0080  8  FB 7F 00 00 AB 80 02 BC 
   570)       511.5  Rx         0512  8  C0 60 00 00 80 F2 75 00 
   571)       511.8  Rx         0511  8  FA FF 00 00 00 00 00 04 
   572)       512.0  Rx         0501  8  00 00 00 FF 00 F3 00 00 
   573)       512.2  Rx         0514  8  00 08 78 00 8C 2B C1 80 
   574)       512.5  Rx         0576  8  00 00 00 00 18 24 22 FB 
   575)       512.7  Rx         0620  8  30 00 03 00 00 00 00 00 
   576)       513.2  Rx         0430  8  FC 01 15 FF 7F 00 00 00 
   577)       516.1  Rx         0190  8  A0 00 55 27 00 00 00 00 
   578)       516.3  Rx         0191  8  E6 19 47 03 7F 03 BE 00 
   579)       516.5  Rx         0002  8  0C 80 D9 00 00 00 00 01 
   580)       526.3  Rx         0190  8  A0 00 56 27 00 00 00 00 
   581)       526.5  Rx         0002  8  0C 80 EA 00 00 00 00 01 
   582)       526.8  Rx         0191  8  E5 19 48 03 7F 03 BE 00 
   583)       526.9  Rx     0EF50000  2  8B 01 
   584)       527.8  Rx         0410  8  18 87 20 0C 00 DC 00 C1 
   585)       528.1  Rx         0411  8  01 FF FF 00 01 00 00 3D 
   586)       528.3  Rx         0412  8  87 00 01 00 01 08 02 00 
   587)       528.5  Rx         0601  8  00 D4 00 00 87 64 00 00 
   588)       530.5  Rx         0075  8  00 00 00 00 00 09 03 3B 
   589)       530.7  Rx         0513  8  00 00 00 00 00 00 00 00 
   590)       531.0  Rx         0512  8  C0 60 00 00 80 F3 75 00 
   591)       531.3  Rx         0070  8  F5 7F 00 FF 9A 7F 03 E0 
   592)       531.5  Rx         0080  8  EE 7F 00 00 AB 80 03 2C 
   593)       531.7  Rx         0511  8  FA FF 00 00 00 00 00 04 
   594)       532.0  Rx         0501  8  00 00 00 FF 00 F4 00 00 
   595)       532.2  Rx         0514  8  00 08 78 00 8C 2B C3 80 
   596)       532.4  Rx         0576  8  00 00 00 00 1A 00 23 BD 
   597)       532.7  Rx         0620  8  30 00 03 00 00 00 00 00 
   598)       533.3  Rx         0430  8  FD 01 15 FF BF 00 00 00 
   599)       536.4  Rx         0002  8  0C 80 FB 00 00 00 00 01 
   600)       536.7  Rx         0190  8  A0 00 55 27 00 00 00 00 
   601)       536.9  Rx         0191  8  E2 19 4B 03 7F 03 BE 00 
   602)       546.5  Rx         0002  8  0C 80 8C 00 00 00 00 01 
   603)       546.7  Rx         0190  8  A0 00 55 27 00 00 00 00 
   604)       547.0  Rx         0191  8  DE 19 49 03 7F 03 BE 00 
   605)       547.8  Rx         0410  8  18 85 20 0C 00 DC 00 C1 
   606)       548.0  Rx         0411  8  01 FF 7F 00 01 00 00 3D 
   607)       548.3  Rx         0412  8  85 00 01 00 01 08 02 00 
   608)       548.5  Rx         0601  8  00 D4 00 00 85 64 00 00 
   609)       550.5  Rx         0075  8  00 00 00 00 00 0A 04 BC 
   610)       550.8  Rx         0513  8  00 00 00 00 00 00 00 00 
   611)       551.0  Rx         0512  8  C0 60 00 00 80 F4 75 00 
   612)       551.2  Rx         0070  8  F6 7F 00 FF 8F 7F 04 C5 
   613)       551.5  Rx         0080  8  12 80 00 00 9F 80 04 4A 
   614)       551.7  Rx         0511  8  FA FF 00 00 00 00 00 04 
   615)       551.9  Rx         0501  8  00 00 00 FF 00 F5 00 00 
   616)       552.2  Rx         0514  8  00 08 78 00 8C 2B C5 80 
   617)       552.5  Rx         0576  8  00 00 00 00 02 20 24 8F 
   618)       552.7  Rx         0620  8  30 00 03 00 00 00 00 00 
   619)       553.3  Rx         0430  8  FE 01 15 FF FF 00 00 00 
   620)       556.5  Rx         0002  8  0C 80 9D 00 00 00 00 01 
   621)       557.0  Rx         0190  8  A0 00 55 27 00 00 00 00 
   622)       557.2  Rx         0191  8  DA 19 49 03 7F 03 BE 00 
   623)       566.5  Rx         0002  8  0C 80 AE 00 00 00 00 01 
   624)       567.3  Rx         0190  8  A0 00 55 27 00 00 00 00 
   625)       567.5  Rx         0191  8  D8 19 43 03 7F 03 BE 00 
   626)       567.9  Rx         0410  8  18 86 20 0C 00 E0 00 C1 
   627)       568.1  Rx         0411  8  01 FF BF 00 01 00 00 3D 
   628)       568.3  Rx         0412  8  86 00 01 00 01 08 02 00 
   629)       568.6  Rx         0601  8  00 D4 00 00 86 64 00 00 
   630)       568.8  Rx         0600  8  00 0B 01 6B 71 2A 38 00 
   631)       570.5  Rx         0075  8  00 00 00 00 00 0A 05 A1 
   632)       570.8  Rx         0513  8  00 00 00 00 00 00 00 00 
   633)       571.0  Rx         0512  8  C0 60 00 00 80 F5 75 00 
   634)       571.2  Rx         0070  8  01 80 00 FF BD 7F 05 DD 
   635)       571.5  Rx         0080  8  12 80 00 00 A0 80 05 F9 
   636)       571.7  Rx         0511  8  FA FF 00 00 00 00 00 04 
   637)       572.0  Rx         0501  8  00 00 00 FF 00 F6 00 00 
   638)       572.2  Rx         0514  8  00 08 78 00 8C 2B C7 80 
   639)       572.5  Rx         0576  8  00 00 00 00 04 00 25 E2 
   640)       572.7  Rx         0620  8  30 00 03 00 00 00 00 00 
   641)       573.4  Rx         0430  8  FF 01 15 20 17 00 00 00 
   642)       576.4  Rx         0002  8  0C 80 BF 00 00 00 00 01 
   643)       576.6  Rx     0EF50000  2  8B 01 
   644)       577.5  Rx         0190  8  A0 00 55 27 00 00 00 00 
   645)       577.8  Rx         0191  8  DB 19 48 03 7F 03 BE 00 
   646)       586.4  Rx         0002  8  0C 80 40 00 00 00 00 01 
   647)       587.7  Rx         0190  8  A0 00 55 27 00 00 00 00 
   648)       588.0  Rx         0191  8  DD 19 44 03 7F 03 BE 00 
   649)       588.2  Rx         0410  8  18 84 20 0C 01 E0 00 C1 
   650)       588.5  Rx         0411  8  01 FF FF 00 01 00 00 3D 
   651)       588.7  Rx         0412  8  84 01 01 01 01 08 02 00 
   652)       588.9  Rx         0601  8  00 D4 00 01 84 64 00 00 
   653)       590.5  Rx         0075  8  00 00 00 00 00 00 06 44 
   654)       590.8  Rx         0513  8  00 00 00 00 00 00 00 00 
   655)       591.0  Rx         0070  8  11 80 00 FF 97 7F 06 7C 
   656)       591.3  Rx         0080  8  20 80 00 00 BE 80 06 A3 
   657)       591.5  Rx         0512  8  C0 60 00 00 80 F6 47 40 
   658)       591.8  Rx         0511  8  FA FF 00 00 00 00 00 04 
   659)       592.0  Rx         0501  8  00 00 00 FF 00 F7 00 00 
   660)       592.2  Rx         0514  8  00 08 78 00 8C 2B C9 80 
   661)       592.5  Rx         0576  8  00 00 00 00 02 22 26 2D 
   662)       592.7  Rx         0620  8  30 00 03 00 00 00 00 00 
   663)       593.4  Rx         0430  8  00 01 15 FF 7F 00 00 00 
   664)       596.4  Rx         0002  8  0C 80 51 00 00 00 00 01 
   665)       598.0  Rx         0190  8  A0 00 55 27 00 00 00 00 
   666)       598.2  Rx         0191  8  D6 19 4E 03 7F 03 BE 00 
   667)       606.5  Rx         0002  8  0C 80 62 00 00 00 00 01 
   668)       607.8  Rx         0410  8  18 84 20 0C 01 E0 00 C1 
   669)       608.1  Rx         0411  8  01 FF 7F 00 01 00 00 3D 
   670)       608.3  Rx         0190  8  A0 00 55 27 00 00 00 00 
   671)       608.5  Rx         0191  8  D4 19 49 03 7F 03 BE 00 
   672)       608.8  Rx         0412  8  84 01 01 01 01 08 02 00 
   673)       609.0  Rx         0601  8  00 D4 00 01 84 64 00 00 
   674)       610.5  Rx         0075  8  00 00 00 00 00 00 07 59 
   675)       610.8  Rx         0513  8  00 00 00 00 00 00 00 00 
   676)       611.0  Rx         0512  8  C0 60 00 00 80 F7 47 40 
   677)       611.3  Rx         0070  8  08 80 00 FF AC 7F 07 FF 
   678)       611.5  Rx         0080  8  E5 7F 00 00 BA 80 07 FA 
   679)       611.8  Rx         0511  8  FA FF 00 00 00 00 00 04 
   680)       612.0  Rx         0501  8  00 00 00 FF 00 F8 00 00 
   681)       612.2  Rx         0514  8  00 08 78 00 8C 2B CB 80 
   682)       612.5  Rx         0576  8  00 00 00 00 04 27 27 54 
   683)       612.7  Rx         0620  8  30 00 03 00 00 00 00 00 
   684)       613.5  Rx         0430  8  01 01 15 FF BF 00 00 00 
   685)       616.5  Rx         0002  8  0C 80 73 00 00 00 00 01 
   686)       618.5  Rx         0190  8  A0 00 55 27 00 00 00 00 
   687)       618.7  Rx         0191  8  D6 19 47 03 7F 03 BE 00 
   688)       626.4  Rx         0002  8  0C 80 04 00 00 00 00 01 
   689)       626.6  Rx     0EF50000  2  8B 01 
   690)       627.8  Rx         0410  8  18 87 20 0C 00 E0 00 C1 
   691)       628.0  Rx         0411  8  01 FF BF 00 01 00 00 3D 
   692)       628.3  Rx         0412  8  87 00 01 00 01 08 02 00 
   693)       628.5  Rx         0601  8  00 D4 00 00 87 64 00 00 
   694)       628.7  Rx         0190  8  A0 00 55 27 00 00 00 00 
   695)       629.0  Rx         0191  8  D9 19 47 03 7F 03 BE 00 
   696)       629.2  Rx         0600  8  00 0B 01 6B 72 2A 38 00 
   697)       630.5  Rx         0075  8  00 00 00 00 00 00 08 E2 
   698)       630.8  Rx         0513  8  00 00 00 00 00 00 00 00 
   699)       631.0  Rx         0070  8  FD 7F 00 FF AE 7F 08 D3 
   700)       631.3  Rx         0080  8  EE 7F 00 00 C7 80 08 B9 
   701)       631.5  Rx         0512  8  C0 60 00 00 80 F8 47 40 
   702)       631.7  Rx         0511  8  FA FF 00 00 00 00 00 04 
   703)       632.0  Rx         0501  8  00 00 00 FF 00 F9 00 00 
   704)       632.2  Rx         0514  8  00 08 78 00 8C 2B CD 80 
   705)       632.5  Rx         0576  8  00 00 00 00 06 25 28 74 
   706)       632.7  Rx         0620  8  30 00 03 00 00 00 00 00 
   707)       633.5  Rx         0430  8  02 01 15 FF FF 00 00 00 
   708)       636.4  Rx         0002  8  0C 80 15 00 00 00 00 01 
   709)       638.9  Rx         0190  8  A0 00 55 27 00 00 00 00 
   710)       639.2  Rx         0191  8  DA 19 48 03 7F 03 BE 00 
   711)       646.4  Rx         0002  8  0C 80 26 00 00 00 00 01 
   712)       647.8  Rx         0410  8  18 85 20 0C 00 E0 00 C1 
   713)       648.0  Rx         0411  8  01 FF FF 00 01 00 00 3D 
   714)       648.3  Rx         0412  8  85 00 01 00 01 08 02 00 
   715)       648.5  Rx         0601  8  00 D4 00 00 85 64 00 00 
   716)       649.1  Rx         0190  8  A0 00 55 27 00 00 00 00 
   717)       649.4  Rx         0191  8  DB 19 48 03 7F 03 BE 00 
   718)       650.5  Rx         0075  8  00 00 00 00 00 00 09 FF 
   719)       650.8  Rx         0513  8  00 00 00 00 00 00 00 00 
   720)       651.0  Rx         0512  8  C0 60 00 00 80 F9 47 40 
   721)       651.2  Rx         0070  8  F0 7F 00 FF B2 7F 09 3A 
   722)       651.5  Rx         0080  8  E9 7F 00 00 AD 80 09 75 
   723)       651.7  Rx         0511  8  FA FF 00 00 00 00 00 04 
   724)       652.0  Rx         0501  8  00 00 00 FF 00 FA 00 00 
   725)       652.2  Rx         0514  8  00 08 78 00 8C 2B CF 80 
   726)       652.4  Rx         0576  8  00 00 00 00 08 24 29 2C 
   727)       652.7  Rx         0620  8  30 00 03 00 00 00 00 00 
   728)       653.6  Rx         0430  8  03 01 15 20 17 00 00 00 
   729)       656.4  Rx         0002  8  0C 80 37 00 00 00 00 01 
   730)       659.5  Rx         0190  8  A0 00 55 27 00 00 00 00 
   731)       659.7  Rx         0191  8  DF 19 44 03 7F 03 BE 00 
   732)       666.5  Rx         0002  8  0C 80 C8 00 00 00 00 01 
   733)       667.8  Rx         0410  8  18 86 20 0C 00 E0 00 C1 
   734)       668.0  Rx         0411  8  01 FF 7F 00 01 00 00 3D 
   735)       668.3  Rx         0412  8  86 00 01 00 01 08 02 00 
   736)       668.5  Rx         0601  8  00 D4 00 00 86 64 00 00 
   737)       669.7  Rx         0190  8  A0 00 55 27 00 00 00 00 
   738)       669.9  Rx         0191  8  E4 19 45 03 7F 03 BE 00 
   739)       670.5  Rx         0075  8  00 00 00 00 00 00 0A D8 
   740)       670.8  Rx         0513  8  00 00 00 00 00 00 00 00 
   741)       671.0  Rx         0512  8  C0 60 00 00 80 FA 47 40 
   742)       671.2  Rx         0070  8  F1 7F 00 FF A4 7F 0A 5D 
   743)       671.5  Rx         0080  8  09 80 00 00 A8 80 0A C2 
   744)       671.8  Rx         0511  8  FA FF 00 00 00 00 00 04 
   745)       672.0  Rx         0501  8  00 00 00 FF 00 FB 00 00 
   746)       672.2  Rx         0514  8  00 08 78 00 8C 2B C1 80 
   747)       672.5  Rx         0576  8  00 00 00 00 0A 22 2A BD 
   748)       672.7  Rx         0620  8  30 00 03 00 00 00 00 00 
   749)       673.7  Rx         0430  8  04 01 15 FF 7F 00 00 00 
   750)       676.4  Rx         0002  8  0C 80 D9 00 00 00 00 01 
   751)       676.6  Rx     0EF50000  2  8C 01 
   752)       679.9  Rx         0190  8  A0 00 55 27 00 00 00 00 
   753)       680.2  Rx         0191  8  E7 19 48 03 7F 03 BE 00 
   754)       686.4  Rx         0002  8  0C 80 EA 00 00 00 00 01 
   755)       687.8  Rx         0410  8  18 85 20 0C 00 E1 00 C1 
   756)       688.1  Rx         0411  8  01 FF BF 00 01 00 00 3D 
   757)       688.3  Rx         0412  8  85 00 01 00 01 09 02 00 
   758)       688.6  Rx         0601  8  00 D4 00 00 85 64 00 00 
   759)       688.8  Rx         0600  8  00 0B 01 6B 73 2A 38 00 
   760)       690.2  Rx         0190  8  A0 00 55 27 00 00 00 00 
   761)       690.4  Rx         0191  8  E6 19 49 03 7F 03 BB 00 
   762)       690.7  Rx         0075  8  00 00 00 00 00 00 0B C5 
   763)       690.9  Rx         0513  8  00 00 00 00 00 00 00 00 
   764)       691.1  Rx         0070  8  F6 7F 00 FF AC 7F 0B C2 
   765)       691.4  Rx         0080  8  09 80 00 00 A1 80 0B 5C 
   766)       691.6  Rx         0512  8  C0 60 00 00 80 FB 47 40 
   767)       691.9  Rx         0511  8  FA FF 00 00 00 00 00 04 
   768)       692.1  Rx         0501  8  00 00 00 FF 00 FC 00 00 
   769)       692.3  Rx         0514  8  00 08 78 00 8C 2B C3 80 
   770)       692.6  Rx         0576  8  00 00 00 00 0C 06 2B FD 
   771)       692.8  Rx         0620  8  30 00 03 00 00 00 00 00 
   772)       693.7  Rx         0430  8  05 01 15 FF BF 00 00 00 
   773)       696.4  Rx         0002  8  0C 80 FB 00 00 00 00 01 
   774)       697.8  Rx         0410  8  18 87 20 0C 01 E1 00 C1 
   775)       698.0  Rx         0411  8  01 FF FF 00 01 00 00 3D 
   776)       698.3  Rx         0412  8  87 01 01 01 01 09 02 00 
   777)       698.5  Rx         0601  8  00 D4 00 01 87 64 00 00 
   778)       700.4  Rx         0190  8  A0 00 55 27 00 00 00 00 
   779)       700.6  Rx         0191  8  E6 19 43 03 7F 03 BB 00 
   780)       706.4  Rx         0002  8  0C 80 8C 00 00 00 00 01 
   781)       710.5  Rx         0075  8  00 00 00 00 00 00 0C 96 
   782)       710.7  Rx         0190  8  A0 00 55 27 00 00 00 00 
   783)       710.9  Rx         0191  8  E8 19 44 03 7F 03 BB 00 
   784)       711.2  Rx         0070  8  01 80 00 FF 9A 7F 0C 92 
   785)       711.4  Rx         0080  8  20 80 00 00 89 80 0C D3 
   786)       711.7  Rx         0513  8  00 00 00 00 00 00 00 00 
   787)       711.9  Rx         0512  8  C0 60 00 00 80 FC 47 40 
   788)       712.2  Rx         0511  8  FA FF 00 00 00 00 00 04 
   789)       712.4  Rx         0501  8  00 00 00 FF 00 FD 00 00 
   790)       712.6  Rx         0514  8  00 08 78 00 8C 2B C5 80 
   791)       712.9  Rx         0576  8  00 00 00 00 0E 07 2C E1 
   792)       713.1  Rx         0620  8  30 00 03 00 00 00 00 00 
   793)       713.8  Rx         0430  8  06 01 15 FF FF 00 00 00 
   794)       716.5  Rx         0002  8  0C 80 9D 00 00 00 00 01 
   795)       717.8  Rx         0410  8  18 85 20 0C 00 E1 00 C1 
   796)       718.1  Rx         0411  8  01 FF 7F 00 01 00 00 3D 
   797)       718.3  Rx         0412  8  85 00 01 00 01 09 02 00 
   798)       718.6  Rx         0601  8  00 D4 00 00 85 64 00 00 
   799)       720.9  Rx         0190  8  A0 00 55 27 00 00 00 00 
   800)       721.1  Rx         0191  8  E9 19 46 03 7F 03 BB 00 
   801)       726.4  Rx         0002  8  0C 80 AE 00 00 00 00 01 
   802)       726.6  Rx     0EF50000  2  8B 01 
   803)       727.8  Rx         0410  8  18 88 20 0C 00 E1 00 C1 
   804)       728.0  Rx         0411  8  01 FF BF 00 01 00 00 3D 
   805)       728.3  Rx         0412  8  88 00 01 00 01 09 02 00 
   806)       728.5  Rx         0601  8  00 D4 00 00 88 64 00 00 
   807)       730.5  Rx         0075  8  00 00 00 00 00 00 0D 8B 
   808)       730.8  Rx         0513  8  00 00 00 00 00 00 00 00 
   809)       731.0  Rx         0512  8  C0 60 00 00 80 FD 47 40 
   810)       731.3  Rx         0070  8  09 80 00 FF A7 7F 0D F0 
   811)       731.5  Rx         0080  8  F7 7F 00 00 9F 80 0D 92 
   812)       731.7  Rx         0190  8  A0 00 55 27 00 00 00 00 
   813)       732.0  Rx         0191  8  E8 19 44 03 7F 03 BB 00 
   814)       732.2  Rx         0511  8  FA FF 00 00 00 00 00 04 
   815)       732.5  Rx         0501  8  00 00 00 FF 00 FE 00 00 
   816)       732.7  Rx         0514  8  00 08 78 00 8C 2B C7 80 
   817)       732.9  Rx         0576  8  00 00 00 00 10 20 2D 61 
   818)       733.2  Rx         0620  8  30 00 03 00 00 00 00 00 
   819)       733.8  Rx         0430  8  07 01 15 20 17 00 00 00 
   820)       736.4  Rx         0002  8  0C 80 BF 00 00 00 00 01 
   821)       741.3  Rx         0190  8  A0 00 55 27 00 00 00 00 
   822)       741.6  Rx         0191  8  E6 19 46 03 7F 03 BE 00 
   823)       746.4  Rx         0002  8  0C 80 40 00 00 00 00 01 
   824)       747.8  Rx         0410  8  18 85 20 0C 00 E1 00 C1 
   825)       748.0  Rx         0411  8  01 FF FF 00 01 00 00 3D 
   826)       748.3  Rx         0412  8  85 00 01 00 01 09 02 00 
   827)       748.5  Rx         0601  8  00 D4 00 00 85 64 00 00 
   828)       748.7  Rx         0600  8  00 0B 01 6B 74 2A 38 00 
   829)       750.5  Rx         0075  8  00 00 00 00 00 00 0E AC 
   830)       750.8  Rx         0513  8  00 00 00 00 00 00 00 00 
   831)       751.0  Rx         0070  8  F9 7F 00 FF 98 7F 0E D9 
   832)       751.2  Rx         0080  8  E5 7F 00 00 A8 80 0E 14 
   833)       751.5  Rx         0512  8  C0 60 00 00 80 FE 47 40 
   834)       751.8  Rx         0190  8  A0 00 55 27 00 00 00 00 
   835)       752.0  Rx         0191  8  E5 19 4A 03 7F 03 BE 00 
   836)       752.2  Rx         0511  8  FA FF 00 00 00 00 00 04 
   837)       752.5  Rx         0501  8  00 00 00 FF 00 FF 00 00 
   838)       752.7  Rx         0514  8  00 08 78 00 8C 2B C9 80 
   839)       752.9  Rx         0576  8  00 00 00 00 12 20 2E 45 
   840)       753.2  Rx         0620  8  30 00 03 00 00 00 00 00 
   841)       753.9  Rx         0430  8  08 01 15 FF 7F 00 00 00 
   842)       756.4  Rx         0002  8  0C 80 51 00 00 00 00 01 
   843)       761.8  Rx         0190  8  A0 00 55 27 00 00 00 00 
   844)       762.0  Rx         0191  8  E2 19 47 03 7F 03 BE 00 
   845)       766.5  Rx         0002  8  0C 80 62 00 00 00 00 01 
   846)       767.8  Rx         0410  8  18 87 20 0C 00 E1 00 C1 
   847)       768.1  Rx         0411  8  01 FF 7F 00 01 00 00 3D 
   848)       768.3  Rx         0412  8  87 00 01 00 01 09 02 00 
   849)       768.6  Rx         0601  8  00 D4 00 00 87 64 00 00 
   850)       770.5  Rx         0075  8  00 00 00 00 00 00 0F B1 
   851)       770.7  Rx         0513  8  00 00 00 00 00 00 00 00 
   852)       771.0  Rx         0512  8  C0 60 00 00 80 FF 47 40 
   853)       771.2  Rx         0070  8  F0 7F 00 FF AE 7F 0F 66 
   854)       771.5  Rx         0080  8  EE 7F 00 00 99 80 0F 9B 
   855)       771.7  Rx         0511  8  FA FF 00 00 00 00 00 04 
   856)       771.9  Rx         0501  8  00 00 00 FF 00 00 00 00 
   857)       772.2  Rx         0190  8  A0 00 56 27 00 00 00 00 
   858)       772.4  Rx         0191  8  E2 19 49 03 7F 03 BE 00 
   859)       772.7  Rx         0514  8  00 08 78 00 8C 2B CB 80 
   860)       772.9  Rx         0576  8  00 00 00 00 14 21 2F 11 
   861)       773.2  Rx         0620  8  30 00 03 00 00 00 00 00 
   862)       773.9  Rx         0430  8  09 01 15 FF BF 00 00 00 
   863)       776.5  Rx         0002  8  0C 80 73 00 00 00 00 01 
   864)       776.7  Rx     0EF50000  2  8B 01 
   865)       782.3  Rx         0190  8  A0 00 55 27 00 00 00 00 
   866)       782.6  Rx         0191  8  DF 19 4A 03 7F 03 BE 00 
   867)       786.4  Rx         0002  8  0C 80 04 00 00 00 00 01 
   868)       787.8  Rx         0410  8  18 85 20 0C 01 E1 00 C1 
   869)       788.0  Rx         0411  8  01 FF BF 00 01 00 00 3D 
   870)       788.2  Rx         0412  8  85 01 01 01 01 09 02 00 
   871)       788.5  Rx         0601  8  00 D4 00 01 85 64 00 00 
   872)       790.5  Rx         0075  8  00 00 00 00 00 00 00 0A 
   873)       790.8  Rx         0513  8  00 00 00 00 00 00 00 00 
   874)       791.0  Rx         0512  8  C0 60 00 00 80 00 57 80 
   875)       791.2  Rx         0070  8  F3 7F 00 FF AB 7F 00 B3 
   876)       791.5  Rx         0080  8  0E 80 00 00 A8 80 00 9E 
   877)       791.7  Rx         0511  8  FA FF 00 00 00 00 00 04 
   878)       791.9  Rx         0501  8  00 00 00 FF 00 01 00 00 
   879)       792.2  Rx         0514  8  00 08 78 00 4C 2B CD 80 
   880)       792.5  Rx         0576  8  00 00 00 00 16 00 20 90 
   881)       792.7  Rx         0190  8  A0 00 55 27 00 00 00 00 
   882)       792.9  Rx         0191  8  DD 19 48 03 7F 03 BE 00 
   883)       793.2  Rx         0620  8  30 00 03 00 00 00 00 00 
   884)       794.0  Rx         0430  8  0A 01 15 FF FF 00 00 00 
   885)       796.4  Rx         0002  8  0C 80 15 00 00 00 00 01 
   886)       802.8  Rx         0190  8  A0 00 55 27 00 00 00 00 
   887)       803.1  Rx         0191  8  E0 19 45 03 7F 03 BE 00 
   888)       806.5  Rx         0002  8  0C 80 26 00 00 00 00 01 
   889)       807.8  Rx         0410  8  18 85 20 0C 01 E1 00 C1 
   890)       808.0  Rx         0411  8  01 FF FF 00 01 00 00 3D 
   891)       808.3  Rx         0412  8  85 01 01 01 01 09 02 00 
   892)       808.5  Rx         0601  8  00 D4 00 01 85 64 00 00 
   893)       808.8  Rx         0600  8  00 0B 01 6B 75 2A 38 00 
   894)       810.5  Rx         0075  8  00 00 00 00 00 01 01 5B 
   895)       810.7  Rx         0513  8  00 00 00 00 00 00 00 00 
   896)       811.0  Rx         0512  8  C0 60 00 00 80 01 57 80 
   897)       811.2  Rx         0070  8  FD 7F 00 FF 96 7F 01 02 
   898)       811.4  Rx         0080  8  1B 80 00 00 93 80 01 A6 
   899)       811.7  Rx         0511  8  FA FF 00 00 00 00 00 04 
   900)       812.0  Rx         0501  8  00 00 00 FF 00 02 00 00 
   901)       812.2  Rx         0514  8  00 08 78 00 4C 2B CF 80 
   902)       812.4  Rx         0576  8  00 00 00 00 02 20 21 E6 
   903)       812.7  Rx         0620  8  30 00 03 00 00 00 00 00 
   904)       813.1  Rx         0190  8  A0 00 55 27 00 00 00 00 
   905)       813.3  Rx         0191  8  E0 19 41 03 7F 03 BE 00 
   906)       814.1  Rx         0430  8  0B 01 15 20 17 00 00 00 
   907)       816.4  Rx         0002  8  0C 80 37 00 00 00 00 01 
   908)       817.8  Rx         0410  8  18 86 20 0C 00 E0 00 C1 
   909)       818.1  Rx         0411  8  01 FF 7F 00 01 00 00 3D 
   910)       818.4  Rx         0412  8  86 00 01 00 01 08 02 00 
   911)       818.6  Rx         0601  8  00 D4 00 00 86 64 00 00 
   912)       823.3  Rx         0190  8  A0 00 55 27 00 00 00 00 
   913)       823.6  Rx         0191  8  E1 19 44 03 7F 03 BE 00 
   914)       826.4  Rx         0002  8  0C 80 C8 00 00 00 00 01 
   915)       826.6  Rx     0EF50000  2  8B 01 
   916)       830.5  Rx         0075  8  00 00 00 00 00 01 02 7C 
   917)       830.7  Rx         0513  8  00 00 00 00 00 00 00 00 
   918)       830.9  Rx         0512  8  C0 60 00 00 80 02 57 80 
   919)       831.2  Rx         0070  8  F5 7F 00 FF B9 7F 02 41 
   920)       831.4  Rx         0080  8  DB 7F 00 00 A4 80 02 55 
   921)       831.7  Rx         0511  8  FA FF 00 00 00 00 00 04 
   922)       831.9  Rx         0501  8  00 00 00 FF 00 03 00 00 
   923)       832.2  Rx         0514  8  00 08 78 00 8C 2B C1 80 
   924)       832.4  Rx         0576  8  00 00 00 00 04 22 22 5C 
   925)       832.7  Rx         0620  8  30 00 03 00 00 00 00 00 
   926)       833.7  Rx         0190  8  A0 00 55 27 00 00 00 00 
   927)       833.9  Rx         0191  8  E4 19 42 03 7F 03 BE 00 
   928)       834.1  Rx         0430  8  0C 01 15 FF 7F 00 00 00 
   929)       836.4  Rx         0002  8  0C 80 D9 00 00 00 00 01 
   930)       837.8  Rx         0410  8  18 89 20 0C 01 E0 00 C1 
   931)       838.0  Rx         0411  8  01 FF BF 00 01 00 00 3D 
   932)       838.2  Rx         0412  8  89 01 01 01 01 08 02 00 
   933)       838.5  Rx         0601  8  00 D4 00 01 89 64 00 00 
   934)       843.9  Rx         0190  8  A0 00 55 27 00 00 00 00 
   935)       844.1  Rx         0191  8  EA 19 43 03 7F 03 BE 00 
   936)       846.4  Rx         0002  8  0C 80 EA 00 00 00 00 01 
   937)       850.4  Rx         0075  8  00 00 00 00 00 01 03 61 
   938)       850.7  Rx         0513  8  00 00 00 00 00 00 00 00 
   939)       851.0  Rx         0512  8  C0 60 00 00 80 03 57 80 
   940)       851.2  Rx         0070  8  FD 7F 00 FF 9E 7F 03 34 
   941)       851.4  Rx         0080  8  32 80 00 00 AE 80 03 D1 
   942)       851.7  Rx         0511  8  FA FF 00 00 00 00 00 04 
   943)       851.9  Rx         0501  8  00 00 00 FF 00 04 00 00 
   944)       852.2  Rx         0514  8  00 08 78 00 8C 2B C3 80 
   945)       852.4  Rx         0576  8  00 00 00 00 06 26 23 6F 
   946)       852.6  Rx         0620  8  30 00 03 00 00 00 00 00 
   947)       854.2  Rx         0190  8  A0 00 55 27 00 00 00 00 
   948)       854.4  Rx         0191  8  EE 19 44 03 7F 03 BE 00 
   949)       854.6  Rx         0430  8  0D 01 15 FF BF 00 00 00 
   950)       856.4  Rx         0002  8  0C 80 FB 00 00 00 00 01 
   951)       857.8  Rx         0410  8  18 8A 20 0C 00 E0 00 C1 
   952)       858.0  Rx         0411  8  01 FF FF 00 01 00 00 3D 
   953)       858.3  Rx         0412  8  8A 00 01 00 01 08 02 00 
   954)       858.5  Rx         0601  8  00 D4 00 00 8A 64 00 00 
   955)       864.4  Rx         0190  8  A0 00 55 27 00 00 00 00 
   956)       864.6  Rx         0191  8  EC 19 49 03 7F 03 BE 00 
   957)       866.4  Rx         0002  8  0C 80 8C 00 00 00 00 01 
   958)       867.8  Rx         0410  8  18 85 20 0C 00 E0 00 C1 
   959)       868.1  Rx         0411  8  01 31 00 00 01 00 00 3D 
   960)       868.3  Rx         0412  8  85 00 01 00 01 08 02 00 
   961)       868.5  Rx         0601  8  00 D4 00 00 85 64 00 00 
   962)       869.0  Rx         0600  8  00 0B 01 6B 76 2A 38 00 
   963)       870.5  Rx         0075  8  00 00 00 00 00 01 04 32 
   964)       870.8  Rx         0513  8  00 00 00 00 00 00 00 00 
   965)       871.0  Rx         0512  8  C0 60 00 00 80 04 57 80 
   966)       871.2  Rx         0070  8  0B 80 00 FF D1 7F 04 F2 
   967)       871.4  Rx         0080  8  05 80 00 00 AE 80 04 DA 
   968)       871.7  Rx         0511  8  FA FF 00 00 00 00 00 04 
   969)       871.9  Rx         0501  8  00 00 00 FF 00 05 00 00 
   970)       872.2  Rx         0514  8  00 08 78 00 8C 2B C5 80 
   971)       872.4  Rx         0576  8  00 00 00 00 08 25 24 E1 
   972)       872.7  Rx         0620  8  30 00 03 00 00 00 00 00 
   973)       874.3  Rx         0430  8  0E 01 15 FF FF 00 00 00 
   974)       874.6  Rx         0190  8  A0 00 55 27 00 00 00 00 
   975)       874.8  Rx         0191  8  EA 19 45 03 7F 03 BE 00 
   976)       876.5  Rx         0002  8  0C 80 9D 00 00 00 00 01 
   977)       876.6  Rx     0EF50000  2  8C 01 
   978)       879.2  Rx         0410  8  18 84 20 0C 00 E0 00 C1 
   979)       879.5  Rx         0411  8  01 31 00 00 01 00 00 3D 
   980)       879.7  Rx         0412  8  84 00 01 00 01 08 02 00 
   981)       879.9  Rx         0601  8  00 D4 00 00 84 64 00 00 
   982)       884.8  Rx         0190  8  A0 00 55 27 00 00 00 00 
   983)       885.0  Rx         0191  8  EB 19 47 03 7F 03 BB 00 
   984)       886.4  Rx         0002  8  0C 80 AE 00 00 00 00 01 
   985)       890.5  Rx         0075  8  00 00 00 00 00 01 05 2F 
   986)       890.7  Rx         0513  8  00 00 00 00 00 00 00 00 
   987)       890.9  Rx         0512  8  C0 60 00 00 80 05 57 80 
   988)       891.2  Rx         0070  8  FE 7F 00 FF AB 7F 05 3C 
   989)       891.4  Rx         0080  8  E0 7F 00 00 D7 80 05 21 
   990)       891.7  Rx         0511  8  FA FF 00 00 00 00 00 04 
   991)       891.9  Rx         0501  8  00 00 00 FF 00 06 00 00 
   992)       892.2  Rx         0514  8  00 08 78 00 8C 2B C7 80 
   993)       892.4  Rx         0576  8  00 00 00 00 0A 20 25 9E 
   994)       892.6  Rx         0620  8  30 00 03 00 00 00 00 00 
   995)       894.3  Rx         0430  8  0F 01 15 20 17 00 00 00 
   996)       895.0  Rx         0190  8  A0 00 55 27 00 00 00 00 
   997)       895.3  Rx         0191  8  EC 19 44 03 7F 03 BB 00 
   998)       896.4  Rx         0002  8  0C 80 BF 00 00 00 00 01 
   999)       899.0  Rx         0410  8  18 88 20 0C 01 E0 00 C1 
  1000)       899.2  Rx         0411  8  01 31 00 00 01 00 00 3D 
  1001)       899.5  Rx         0412  8  88 01 01 01 01 08 02 00 
  1002)       899.7  Rx         0601  8  00 D4 00 01 88 64 00 00 
  1003)       905.4  Rx         0190  8  A0 00 55 27 00 00 00 00 
  1004)       905.6  Rx         0191  8  EB 19 47 03 7F 03 BB 00 
  1005)       906.4  Rx         0002  8  0C 80 40 00 00 00 00 01 
  1006)       909.0  Rx         0410  8  18 86 20 0C 01 E0 00 C1 
  1007)       909.3  Rx         0411  8  01 31 00 00 01 00 00 3D 
  1008)       909.5  Rx         0412  8  86 01 01 01 01 08 02 00 
  1009)       909.8  Rx         0601  8  00 D4 00 01 86 64 00 00 
  1010)       910.5  Rx         0075  8  00 00 00 00 00 01 06 08 
  1011)       910.7  Rx         0513  8  00 00 00 00 00 00 00 00 
  1012)       910.9  Rx         0512  8  C0 60 00 00 80 06 57 80 
  1013)       911.2  Rx         0070  8  EF 7F 00 FF B6 7F 06 62 
  1014)       911.4  Rx         0080  8  EE 7F 00 00 B9 80 06 5E 
  1015)       911.7  Rx         0511  8  FA FF 00 00 00 00 00 04 
  1016)       911.9  Rx         0501  8  00 00 00 FF 00 07 00 00 
  1017)       912.2  Rx         0514  8  00 08 78 00 8C 2B C9 80 
  1018)       912.4  Rx         0576  8  00 00 00 00 0C 20 26 BC 
  1019)       912.7  Rx         0620  8  30 00 03 00 00 00 00 00 
  1020)       914.4  Rx         0430  8  10 01 15 FF 7F 00 00 00 
  1021)       915.6  Rx         0190  8  A0 00 56 27 00 00 00 00 
  1022)       915.9  Rx         0191  8  EA 19 44 03 7F 03 BB 00 
  1023)       916.4  Rx         0002  8  0C 80 51 00 00 00 00 01 
  1024)       925.8  Rx         0190  8  A0 00 55 27 00 00 00 00 
  1025)       926.1  Rx         0191  8  EB 19 49 03 7F 03 BB 00 
  1026)       926.5  Rx         0002  8  0C 80 62 00 00 00 00 01 
  1027)       926.6  Rx     0EF50000  2  8B 01 
  1028)       929.2  Rx         0410  8  18 88 20 0C 00 E0 00 C1 
  1029)       929.4  Rx         0411  8  01 31 00 00 01 00 00 3D 
  1030)       929.7  Rx         0412  8  88 00 01 00 01 08 02 00 
  1031)       929.9  Rx         0601  8  00 D4 00 00 88 64 00 00 
  1032)       930.1  Rx         0600  8  00 0B 01 6B 77 2A 38 00 
  1033)       930.5  Rx         0075  8  00 00 00 00 00 01 07 15 
  1034)       930.7  Rx         0513  8  00 00 00 00 00 00 00 00 
  1035)       931.0  Rx         0512  8  C0 60 00 00 80 07 57 80 
  1036)       931.3  Rx         0070  8  EF 7F 00 FF AE 7F 07 6B 
  1037)       931.5  Rx         0080  8  05 80 00 00 A7 80 07 7E 
  1038)       931.7  Rx         0511  8  FA FF 00 00 00 00 00 04 
  1039)       932.0  Rx         0501  8  00 00 00 FF 00 08 00 00 
  1040)       932.2  Rx         0514  8  00 08 78 00 8C 2B CB 80 
  1041)       932.4  Rx         0576  8  00 00 00 00 0E 25 27 C3 
  1042)       932.7  Rx         0620  8  30 00 03 00 00 00 00 00 
  1043)       934.5  Rx         0430  8  11 01 15 FF BF 00 00 00 
  1044)       936.1  Rx         0190  8  A0 00 55 27 00 00 00 00 
  1045)       936.3  Rx         0191  8  EB 19 4A 03 7F 03 BE 00 
  1046)       936.6  Rx         0002  8  0C 80 73 00 00 00 00 01 
  1047)       939.7  Rx         0410  8  18 86 20 0C 01 E0 00 C1 
  1048)       940.0  Rx         0411  8  01 31 00 00 01 00 00 3D 
  1049)       940.3  Rx         0412  8  86 01 01 01 01 08 02 00 
  1050)       940.5  Rx         0601  8  00 D4 00 01 86 64 00 00 
  1051)       946.3  Rx         0190  8  A0 00 55 27 00 00 00 00 
  1052)       946.5  Rx         0002  8  0C 80 04 00 00 00 00 01 
  1053)       946.8  Rx         0191  8  ED 19 46 03 7F 03 BE 00 
  1054)       949.8  Rx         0410  8  18 86 20 0C 01 E0 00 C1 
  1055)       950.1  Rx         0411  8  01 31 00 00 01 00 00 3D 
  1056)       950.3  Rx         0412  8  86 01 01 01 01 08 02 00 
  1057)       950.5  Rx         0075  8  00 00 00 00 00 01 08 AE 
  1058)       950.8  Rx         0513  8  00 00 00 00 00 00 00 00 
  1059)       951.1  Rx         0070  8  FE 7F 00 FF A5 7F 08 B4 
  1060)       951.3  Rx         0080  8  29 80 00 00 98 80 08 BF 
  1061)       951.5  Rx         0512  8  C0 60 00 00 80 08 57 80 
  1062)       951.8  Rx         0511  8  FA FF 00 00 00 00 00 04 
  1063)       952.0  Rx         0501  8  00 00 00 FF 00 09 00 00 
  1064)       952.2  Rx         0514  8  00 08 78 00 8C 2B CD 80 
  1065)       952.5  Rx         0576  8  00 00 00 00 10 28 28 52 
  1066)       952.7  Rx         0601  8  00 D4 00 01 86 64 00 00 
  1067)       953.0  Rx         0620  8  30 00 03 00 00 00 00 00 
  1068)       954.5  Rx         0430  8  12 01 15 FF FF 00 00 00 
  1069)       956.4  Rx         0002  8  0C 80 15 00 00 00 00 01 
  1070)       956.7  Rx         0190  8  A0 00 55 27 00 00 00 00 
  1071)       956.9  Rx         0191  8  F2 19 47 03 7F 03 BE 00 
  1072)       966.5  Rx         0002  8  0C 80 26 00 00 00 00 01 
  1073)       966.8  Rx         0190  8  A0 00 56 27 00 00 00 00 
  1074)       967.0  Rx         0191  8  F2 19 4A 03 7F 03 BE 00 
  1075)       969.7  Rx         0410  8  18 87 20 0C 00 E0 00 C1 
  1076)       970.0  Rx         0411  8  01 31 00 00 01 00 00 3D 
  1077)       970.3  Rx         0412  8  87 00 01 00 01 08 02 00 
  1078)       970.5  Rx         0075  8  00 00 00 00 00 01 09 B3 
  1079)       970.8  Rx         0513  8  00 00 00 00 00 00 00 00 
  1080)       971.0  Rx         0512  8  C0 60 00 00 80 09 57 80 
  1081)       971.2  Rx         0070  8  08 80 00 FF B2 7F 09 48 
  1082)       971.4  Rx         0080  8  09 80 00 00 89 80 09 5A 
  1083)       971.7  Rx         0511  8  FA FF 00 00 00 00 00 04 
  1084)       972.0  Rx         0501  8  00 00 00 FF 00 0A 00 00 
  1085)       972.2  Rx         0514  8  00 08 78 00 8C 2B CF 80 
  1086)       972.4  Rx         0576  8  00 00 00 00 12 21 29 5A 
  1087)       972.7  Rx         0601  8  00 D4 00 00 87 64 00 00 
  1088)       972.9  Rx         0620  8  30 00 03 00 00 00 00 00 
  1089)       974.6  Rx         0430  8  13 01 15 20 17 00 00 00 
  1090)       976.4  Rx         0002  8  0C 80 37 00 00 00 00 01 
  1091)       976.7  Rx     0EF50000  2  8C 01 
  1092)       977.0  Rx         0190  8  A0 00 55 27 00 00 00 00 
  1093)       977.3  Rx         0191  8  F2 19 47 03 7F 03 BE 00 
  1094)       986.5  Rx         0002  8  0C 80 C8 00 00 00 00 01 
  1095)       987.2  Rx         0190  8  A0 00 55 27 00 00 00 00 
  1096)       987.4  Rx         0191  8  F4 19 47 03 7F 03 BB 00 
  1097)       989.8  Rx         0410  8  18 87 20 0C 00 E0 00 C1 
  1098)       990.1  Rx         0411  8  01 31 00 00 01 00 00 3D 
  1099)       990.3  Rx         0412  8  87 00 01 00 01 08 02 00 
  1100)       990.5  Rx         0075  8  00 00 00 00 00 01 0A 94 
  1101)       990.8  Rx         0513  8  00 00 00 00 00 00 00 00 
  1102)       991.0  Rx         0512  8  C0 60 00 00 80 0A 75 00 
  1103)       991.2  Rx         0070  8  12 80 00 FF 8B 7F 0A 15 
  1104)       991.5  Rx         0080  8  12 80 00 00 A4 80 0A 44 
  1105)       991.8  Rx         0511  8  FA FF 00 00 00 00 00 04 
  1106)       992.0  Rx         0501  8  00 00 00 FF 00 0B 00 00 
  1107)       992.2  Rx         0514  8  00 08 78 00 4C 2B C1 80 
  1108)       992.5  Rx         0576  8  00 00 00 00 14 24 2A 19 
  1109)       992.7  Rx         0601  8  00 D4 00 00 87 64 00 00 
  1110)       993.0  Rx         0600  8  00 0B 01 6B 78 2A 38 00 
  1111)       993.2  Rx         0620  8  30 00 03 00 00 00 00 00 
  1112)       994.6  Rx         0430  8  14 01 15 FF 7F 00 00 00 
  1113)       996.4  Rx         0002  8  0C 80 D9 00 00 00 00 01 
  1114)       997.5  Rx         0190  8  A0 00 55 27 00 00 00 00 
  1115)       997.7  Rx         0191  8  F4 19 48 03 7F 03 BB 00 
  1116)      1006.4  Rx         0002  8  0C 80 EA 00 00 00 00 01 
  1117)      1007.8  Rx         0190  8  A0 00 55 27 00 00 00 00 
  1118)      1008.0  Rx         0191  8  F7 19 49 03 7F 03 BB 00 
  1119)      1009.8  Rx         0410  8  18 85 20 0C 01 E0 00 C1 
  1120)      1010.0  Rx         0411  8  01 31 00 00 01 00 00 3D 
  1121)      1010.2  Rx         0412  8  85 01 01 01 01 08 02 00 
  1122)      1010.5  Rx         0601  8  00 D4 00 01 85 64 00 00 
  1123)      1010.7  Rx         0075  8  00 00 00 00 00 01 0B 89 
  1124)      1011.0  Rx         0513  8  00 00 00 00 00 00 00 00 
  1125)      1011.2  Rx         0070  8  00 80 00 FF AB 7F 0B 3B 
  1126)      1011.5  Rx         0080  8  CE 7F 00 00 AD 80 0B AE 
  1127)      1011.7  Rx         0512  8  C0 60 00 00 80 0B 75 00 
  1128)      1011.9  Rx         0511  8  FA FF 00 00 00 00 00 04 
  1129)      1012.2  Rx         0501  8  00 00 00 FF 00 0C 00 00 
  1130)      1012.5  Rx         0514  8  00 08 78 00 4C 2B C3 80 
  1131)      1012.7  Rx         0576  8  00 00 00 00 16 00 2B 5F 
  1132)      1012.9  Rx         0620  8  30 00 03 00 00 00 00 00 
  1133)      1014.7  Rx         0430  8  15 01 15 FF BF 00 00 00 
  1134)      1016.4  Rx         0002  8  0C 80 FB 00 00 00 00 01 
  1135)      1018.0  Rx         0190  8  A0 00 56 27 00 00 00 00 
  1136)      1018.3  Rx         0191  8  FB 19 49 03 7F 03 BB 00 
  1137)      1026.4  Rx         0002  8  0C 80 8C 00 00 00 00 01 
  1138)      1026.6  Rx     0EF50000  2  8B 01 
  1139)      1028.3  Rx         0190  8  A0 00 55 27 00 00 00 00 
  1140)      1028.5  Rx         0191  8  FC 19 4C 03 7F 03 BB 00 
  1141)      1029.8  Rx         0410  8  18 87 20 0C 00 E0 00 C1 
  1142)      1030.0  Rx         0411  8  01 31 00 00 01 00 00 3D 
  1143)      1030.2  Rx         0412  8  87 00 01 00 01 08 02 00 
  1144)      1030.5  Rx         0075  8  00 00 00 00 00 02 0C 0E 
  1145)      1030.8  Rx         0513  8  00 00 00 00 00 00 00 00 
  1146)      1031.0  Rx         0512  8  C0 60 00 00 80 0C 75 00 
  1147)      1031.2  Rx         0070  8  EB 7F 00 FF A5 7F 0C 4D 
  1148)      1031.5  Rx         0080  8  D7 7F 00 00 BC 80 0C 5C 
  1149)      1031.7  Rx         0511  8  FA FF 00 00 00 00 00 04 
  1150)      1031.9  Rx         0501  8  00 00 00 FF 00 0D 00 00 
  1151)      1032.2  Rx         0514  8  00 08 78 00 8C 2B C5 80 
  1152)      1032.5  Rx         0576  8  00 00 00 00 02 20 2C 67 
  1153)      1032.7  Rx         0601  8  00 D4 00 00 87 64 00 00 
  1154)      1032.9  Rx         0620  8  30 00 03 00 00 00 00 00 
  1155)      1034.7  Rx         0430  8  16 01 15 FF FF 00 00 00 
  1156)      1036.5  Rx         0002  8  0C 80 9D 00 00 00 00 01 
  1157)      1038.5  Rx         0190  8  A0 00 55 27 00 00 00 00 
  1158)      1038.7  Rx         0191  8  F8 19 49 03 7F 03 BE 00 
  1159)      1046.4  Rx         0002  8  0C 80 AE 00 00 00 00 01 
  1160)      1048.7  Rx         0190  8  A0 00 55 27 00 00 00 00 
  1161)      1048.9  Rx         0191  8  F5 19 44 03 7F 03 BE 00 
  1162)      1049.7  Rx         0410  8  18 84 20 0C 00 E0 00 C1 
  1163)      1050.0  Rx         0411  8  01 31 00 00 01 00 00 3D 
  1164)      1050.3  Rx         0412  8  84 00 01 00 01 08 02 00 
  1165)      1050.5  Rx         0075  8  00 00 00 00 00 02 0D 13 
  1166)      1050.8  Rx         0513  8  00 00 00 00 00 00 00 00 
  1167)      1051.0  Rx         0512  8  C0 60 00 00 80 0D 75 00 
  1168)      1051.2  Rx         0070  8  E9 7F 00 FF C5 7F 0D BA 
  1169)      1051.4  Rx         0080  8  12 80 00 00 C3 80 0D CD 
  1170)      1051.7  Rx         0511  8  FA FF 00 00 00 00 00 04 
  1171)      1052.0  Rx         0501  8  00 00 00 FF 00 0E 00 00 
  1172)      1052.2  Rx         0514  8  00 08 78 00 8C 2B C7 80 
  1173)      1052.4  Rx         0576  8  00 00 00 00 04 00 2D 0A 
  1174)      1052.7  Rx         0601  8  00 D4 00 00 84 64 00 00 
  1175)      1052.9  Rx         0600  8  00 0B 01 6B 79 2A 38 00 
  1176)      1053.2  Rx         0620  8  30 00 03 00 00 00 00 00 
  1177)      1054.8  Rx         0430  8  17 01 15 20 17 00 00 00 
  1178)      1056.4  Rx         0002  8  0C 80 BF 00 00 00 00 01 
  1179)      1059.0  Rx         0190  8  A0 00 55 27 00 00 00 00 
  1180)      1059.2  Rx         0191  8  F1 19 49 03 7F 03 BE 00 
  1181)      1066.4  Rx         0002  8  0C 80 40 00 00 00 00 01 
  1182)      1069.2  Rx         0190  8  A0 00 55 27 00 00 00 00 
  1183)      1069.5  Rx         0191  8  F0 19 49 03 7F 03 BE 00 
  1184)      1069.8  Rx         0410  8  18 85 20 0C 00 E0 00 C1 
  1185)      1070.1  Rx         0411  8  01 31 00 00 01 00 00 3D 
  1186)      1070.3  Rx         0412  8  85 00 01 00 01 08 02 00 
  1187)      1070.5  Rx         0075  8  00 00 00 00 00 03 0E 78 
  1188)      1070.8  Rx         0513  8  00 00 00 00 00 00 00 00 
  1189)      1071.0  Rx         0512  8  C0 60 00 00 80 0E 75 00 
  1190)      1071.2  Rx         0070  8  F9 7F 00 FF C3 7F 0E 21 
  1191)      1071.5  Rx         0080  8  1B 80 00 00 A5 80 0E 30 
  1192)      1071.8  Rx         0511  8  FA FF 00 00 00 00 00 04 
  1193)      1072.0  Rx         0501  8  00 00 00 FF 00 0F 00 00 
  1194)      1072.2  Rx         0514  8  00 08 78 00 8C 2B C9 80 
  1195)      1072.5  Rx         0576  8  00 00 00 00 02 13 2E 48 
  1196)      1072.7  Rx         0601  8  00 D4 00 00 85 64 00 00 
  1197)      1073.0  Rx         0620  8  30 00 03 00 00 00 00 00 
  1198)      1074.8  Rx         0430  8  18 01 15 FF 7F 00 00 00 
  1199)      1076.5  Rx         0002  8  0C 80 51 00 00 00 00 01 
  1200)      1076.6  Rx     0EF50000  2  8C 01 
  1201)      1079.5  Rx         0190  8  A0 00 55 27 00 00 00 00 
  1202)      1079.7  Rx         0191  8  EE 19 4B 03 7F 03 BE 00 
  1203)      1079.9  Rx         0410  8  18 84 20 0C 00 E0 00 C1 
  1204)      1080.2  Rx         0411  8  01 FF 7F 00 01 00 00 3D 
  1205)      1080.5  Rx         0412  8  84 00 01 00 01 08 02 00 
  1206)      1080.7  Rx         0601  8  00 D4 00 00 84 64 00 00 
  1207)      1086.5  Rx         0002  8  0C 80 62 00 00 00 00 01 
  1208)      1089.7  Rx         0190  8  A0 00 55 27 00 00 00 00 
  1209)      1090.0  Rx         0191  8  EA 19 45 03 7F 03 BB 00 
  1210)      1090.4  Rx         0075  8  00 00 00 00 00 03 0F 65 
  1211)      1090.7  Rx         0513  8  00 00 00 00 00 00 00 00 
  1212)      1091.0  Rx         0512  8  C0 60 00 00 80 0F 75 00 
  1213)      1091.2  Rx         0070  8  06 80 00 FF C0 7F 0F 4C 
  1214)      1091.4  Rx         0080  8  12 80 00 00 A6 80 0F 2E 
  1215)      1091.7  Rx         0511  8  FA FF 00 00 00 00 00 04 
  1216)      1091.9  Rx         0501  8  00 00 00 FF 00 10 00 00 
  1217)      1092.2  Rx         0514  8  00 08 78 00 8C 2B CB 80 
  1218)      1092.4  Rx         0576  8  00 00 00 00 04 03 2F E4 
  1219)      1092.7  Rx         0620  8  30 00 03 00 00 00 00 00 
  1220)      1094.9  Rx         0430  8  19 01 15 FF BF 00 00 00 
  1221)      1096.4  Rx         0002  8  0C 80 73 00 00 00 00 01 
  1222)      1099.7  Rx         0410  8  18 86 20 0C 01 E4 00 C1 
  1223)      1100.0  Rx         0190  8  A0 00 55 27 00 00 00 00 
  1224)      1100.3  Rx         0191  8  E8 19 46 03 7F 03 BB 00 
  1225)      1100.5  Rx         0411  8  01 FF BF 00 01 00 00 3D 
  1226)      1100.7  Rx         0412  8  86 01 01 01 01 09 02 00 
  1227)      1101.0  Rx         0601  8  00 D4 00 01 86 64 00 00 
  1228)      1106.4  Rx         0002  8  0C 80 04 00 00 00 00 01 
  1229)      1110.2  Rx         0190  8  A0 00 55 27 00 00 00 00 
  1230)      1110.4  Rx         0191  8  E9 19 48 03 7F 03 BB 00 
  1231)      1110.7  Rx         0075  8  00 00 00 00 00 03 00 DE 
  1232)      1110.9  Rx         0513  8  00 00 00 00 00 00 00 00 
  1233)      1111.2  Rx         0070  8  03 80 00 FF 9C 7F 00 B1 
  1234)      1111.4  Rx         0080  8  05 80 00 00 97 80 00 05 
  1235)      1111.7  Rx         0512  8  C0 60 00 00 80 10 75 00 
  1236)      1111.9  Rx         0511  8  FA FF 00 00 00 00 00 04 
  1237)      1112.1  Rx         0501  8  00 00 00 FF 00 11 00 00 
  1238)      1112.4  Rx         0514  8  00 08 78 00 8C 2B CD 80 
  1239)      1112.7  Rx         0576  8  00 00 00 00 06 33 20 9D 
  1240)      1112.9  Rx         0620  8  30 00 03 00 00 00 00 00 
  1241)      1115.0  Rx         0430  8  1A 01 15 FF FF 00 00 00 
  1242)      1116.5  Rx         0002  8  0C 80 15 00 00 00 00 01 
  1243)      1119.8  Rx         0410  8  18 87 20 0C 01 E4 00 C1 
  1244)      1120.0  Rx         0411  8  01 FF FF 00 01 00 00 3D 
  1245)      1120.2  Rx         0412  8  87 01 01 01 01 09 02 00 
  1246)      1120.5  Rx         0190  8  A0 00 55 27 00 00 00 00 
  1247)      1120.8  Rx         0191  8  EC 19 43 03 7F 03 BB 00 
  1248)      1121.0  Rx         0601  8  00 D4 00 01 87 64 00 00 
  1249)      1121.2  Rx         0600  8  00 0B 01 6B 7A 2A 38 00 
  1250)      1126.4  Rx         0002  8  0C 80 26 00 00 00 00 01 
  1251)      1126.6  Rx     0EF50000  2  8B 01 
  1252)      1130.5  Rx         0075  8  00 00 00 00 00 03 01 C3 
  1253)      1130.7  Rx         0190  8  A0 00 55 27 00 00 00 00 
  1254)      1131.0  Rx         0191  8  ED 19 49 03 7F 03 BB 00 
  1255)      1131.3  Rx         0070  8  05 80 00 FF B9 7F 01 C6 
  1256)      1131.5  Rx         0080  8  F7 7F 00 00 9D 80 01 0D 
  1257)      1131.7  Rx         0513  8  00 00 00 00 00 00 00 00 
  1258)      1132.0  Rx         0512  8  C0 60 00 00 80 11 75 00 
  1259)      1132.2  Rx         0511  8  FA FF 00 00 00 00 00 04 
  1260)      1132.5  Rx         0501  8  00 00 00 FF 00 12 00 00 
  1261)      1132.7  Rx         0514  8  00 08 78 00 8C 2B CF 80 
  1262)      1132.9  Rx         0576  8  00 00 00 00 08 22 21 71 
  1263)      1133.2  Rx         0620  8  30 00 03 00 00 00 00 00 
  1264)      1135.1  Rx         0430  8  1B 01 15 20 17 00 00 00 
  1265)      1136.5  Rx         0002  8  0C 80 37 00 00 00 00 01 
  1266)      1139.8  Rx         0410  8  18 85 20 0C 00 E4 00 C1 
  1267)      1140.0  Rx         0411  8  01 FF 7F 00 01 00 00 3D 
  1268)      1140.3  Rx         0412  8  85 00 01 00 01 09 02 00 
  1269)      1140.6  Rx         0601  8  00 D4 00 00 85 64 00 00 
  1270)      1140.9  Rx         0190  8  A0 00 55 27 00 00 00 00 
  1271)      1141.2  Rx         0191  8  EE 19 44 03 7F 03 BE 00 
  1272)      1146.4  Rx         0002  8  0C 80 C8 00 00 00 00 01 
  1273)      1150.5  Rx         0075  8  00 00 00 00 00 03 02 E4 
  1274)      1150.8  Rx         0513  8  00 00 00 00 00 00 00 00 
  1275)      1151.0  Rx         0512  8  C0 60 00 00 80 12 75 00 
  1276)      1151.3  Rx         0070  8  01 80 00 FF BE 7F 02 02 
  1277)      1151.5  Rx         0080  8  00 80 00 00 C2 80 02 FA 
  1278)      1151.7  Rx         0190  8  A0 00 56 27 00 00 00 00 
  1279)      1152.0  Rx         0191  8  EE 19 46 03 7F 03 BE 00 
  1280)      1152.2  Rx         0511  8  FA FF 00 00 00 00 00 04 
  1281)      1152.5  Rx         0501  8  00 00 00 FF 00 13 00 00 
  1282)      1152.7  Rx         0514  8  00 08 78 00 8C 2B C1 80 
  1283)      1153.0  Rx         0576  8  00 00 00 00 0A 21 22 81 
  1284)      1153.2  Rx         0620  8  30 00 03 00 00 00 00 00 
  1285)      1155.1  Rx         0430  8  1C 01 15 FF 7F 00 00 00 
  1286)      1156.4  Rx         0002  8  0C 80 D9 00 00 00 00 01 
  1287)      1159.8  Rx         0410  8  18 87 20 0C 01 E4 00 C1 
  1288)      1160.1  Rx         0411  8  01 FF BF 00 01 00 00 3D 
  1289)      1160.3  Rx         0412  8  87 01 01 01 01 09 02 00 
  1290)      1160.5  Rx         0601  8  00 D4 00 01 87 64 00 00 
  1291)      1161.5  Rx         0190  8  A0 00 55 27 00 00 00 00 
  1292)      1161.7  Rx         0191  8  EE 19 46 03 7F 03 BE 00 
  1293)      1166.5  Rx         0002  8  0C 80 EA 00 00 00 00 01 
  1294)      1169.8  Rx         0410  8  18 86 20 0C 01 E4 00 C1 
  1295)      1170.0  Rx         0411  8  01 FF FF 00 01 00 00 3D 
  1296)      1170.3  Rx         0412  8  86 01 01 01 01 09 02 00 
  1297)      1170.5  Rx         0601  8  00 D4 00 01 86 64 00 00 
  1298)      1170.8  Rx         0075  8  00 00 00 00 00 03 03 F9 
  1299)      1171.0  Rx         0513  8  00 00 00 00 00 00 00 00 
  1300)      1171.2  Rx         0070  8  FF 7F 00 FF AE 7F 03 A6 
  1301)      1171.5  Rx         0080  8  F7 7F 00 00 C0 80 03 CA 
  1302)      1171.7  Rx         0190  8  A0 00 55 27 00 00 00 00 
  1303)      1172.0  Rx         0191  8  F3 19 43 03 7F 03 BE 00 
  1304)      1172.2  Rx         0512  8  C0 60 00 00 80 13 75 00 
  1305)      1172.5  Rx         0511  8  FA FF 00 00 00 00 00 04 
  1306)      1172.7  Rx         0501  8  00 00 00 FF 00 14 00 00 
  1307)      1172.9  Rx         0514  8  00 08 78 00 8C 2B C3 80 
  1308)      1173.2  Rx         0576  8  00 00 00 00 0C 23 23 01 
  1309)      1173.4  Rx         0620  8  30 00 03 00 00 00 00 00 
  1310)      1175.2  Rx         0430  8  1D 01 15 FF BF 00 00 00 
  1311)      1176.4  Rx         0002  8  0C 80 FB 00 00 00 00 01 
  1312)      1176.6  Rx     0EF50000  2  8C 01 
  1313)      1181.9  Rx         0190  8  A0 00 56 27 00 00 00 00 
  1314)      1182.2  Rx         0191  8  F4 19 48 03 7F 03 BE 00 
  1315)      1186.5  Rx         0002  8  0C 80 8C 00 00 00 00 01 
  1316)      1190.0  Rx         0410  8  18 87 20 0C 00 E4 00 C1 
  1317)      1190.3  Rx         0411  8  01 FF 7F 00 01 00 00 3D 
  1318)      1190.5  Rx         0075  8  00 00 00 00 00 03 04 AA 
  1319)      1190.7  Rx         0412  8  87 00 01 00 01 09 02 00 
  1320)      1191.0  Rx         0513  8  00 00 00 00 00 00 00 00 
  1321)      1191.2  Rx         0070  8  F6 7F 00 FF 9A 7F 04 54 
  1322)      1191.5  Rx         0080  8  EE 7F 00 00 C5 80 04 26 
  1323)      1191.7  Rx         0512  8  C0 60 00 00 80 14 47 40 
  1324)      1192.0  Rx         0511  8  FA FF 00 00 00 00 00 04 
  1325)      1192.2  Rx         0190  8  A0 00 56 27 00 00 00 00 
  1326)      1192.4  Rx         0191  8  F2 19 48 03 7F 03 BB 00 
  1327)      1192.7  Rx         0501  8  00 00 00 FF 00 15 00 00 
  1328)      1192.9  Rx         0514  8  00 08 78 00 CC 2B C5 80 
  1329)      1193.2  Rx         0576  8  00 00 00 00 0E 22 24 1D 
  1330)      1193.4  Rx         0601  8  00 D4 00 00 87 64 00 00 
  1331)      1193.6  Rx         0600  8  00 0B 01 6B 7B 2A 38 00 
  1332)      1193.9  Rx         0620  8  30 00 03 00 00 00 00 00 
  1333)      1195.2  Rx         0430  8  1E 01 15 FF FF 00 00 00 
  1334)      1196.5  Rx         0002  8  0C 80 9D 00 00 00 00 01 
  1335)      1200.8  Rx         0410  8  18 87 20 0C 01 E4 00 C1 
  1336)      1201.0  Rx         0411  8  01 FF BF 00 01 00 00 3D 
  1337)      1201.2  Rx         0412  8  87 01 01 01 01 09 02 00 
  1338)      1201.5  Rx         0601  8  00 D4 00 01 87 64 00 00 
  1339)      1202.4  Rx         0190  8  A0 00 55 27 00 00 00 00 
  1340)      1202.6  Rx         0191  8  EF 19 4A 03 7F 03 BB 00 
  1341)      1206.4  Rx         0002  8  0C 80 AE 00 00 00 00 01 
  1342)      1210.5  Rx         0075  8  00 00 00 00 00 03 05 B7 
  1343)      1210.7  Rx         0513  8  00 00 00 00 00 00 00 00 
  1344)      1211.0  Rx         0512  8  C0 60 00 00 80 15 47 40 
  1345)      1211.2  Rx         0070  8  FD 7F 00 FF 90 7F 05 73 
  1346)      1211.5  Rx         0080  8  20 80 00 00 9D 80 05 38 
  1347)      1211.7  Rx         0511  8  FA FF 00 00 00 00 00 04 
  1348)      1212.0  Rx         0501  8  00 00 00 FF 00 16 00 00 
  1349)      1212.2  Rx         0514  8  00 08 78 00 CC 2B C7 80 
  1350)      1212.5  Rx         0576  8  00 00 00 00 10 28 25 D3 
  1351)      1212.7  Rx         0190  8  A0 00 55 27 00 00 00 00 
  1352)      1212.9  Rx         0191  8  EB 19 4A 03 7F 03 BB 00 
  1353)      1213.2  Rx         0620  8  30 00 03 00 00 00 00 00 
  1354)      1215.3  Rx         0430  8  1F 01 15 20 17 00 00 00 
  1355)      1216.4  Rx         0002  8  0C 80 BF 00 00 00 00 01 
  1356)      1220.8  Rx         0410  8  18 88 20 0C 01 E4 00 C1 
  1357)      1221.0  Rx         0411  8  01 FF FF 00 01 00 00 3D 
  1358)      1221.3  Rx         0412  8  88 01 01 01 01 09 02 00 
  1359)      1221.5  Rx         0601  8  00 D4 00 01 88 64 00 00 
  1360)      1222.9  Rx         0190  8  A0 00 56 27 00 00 00 00 
  1361)      1223.1  Rx         0191  8  E5 19 4B 03 7F 03 BB 00 
  1362)      1226.4  Rx         0002  8  0C 80 40 00 00 00 00 01 
  1363)      1226.6  Rx     0EF50000  2  8B 01 
  1364)      1230.5  Rx         0075  8  00 00 00 00 00 03 06 90 
  1365)      1230.8  Rx         0513  8  00 00 00 00 00 00 00 00 
  1366)      1231.0  Rx         0512  8  C0 60 00 00 80 16 47 40 
  1367)      1231.3  Rx         0070  8  08 80 00 FF C4 7F 06 BE 
  1368)      1231.5  Rx         0080  8  09 80 00 00 9A 80 06 75 
  1369)      1231.7  Rx         0511  8  FA FF 00 00 00 00 00 04 
  1370)      1232.0  Rx         0501  8  00 00 00 FF 00 17 00 00 
  1371)      1232.2  Rx         0514  8  00 08 78 00 8C 2B C9 80 
  1372)      1232.5  Rx         0576  8  00 00 00 00 12 33 26 CD 
  1373)      1232.7  Rx         0620  8  30 00 03 00 00 00 00 00 
  1374)      1233.1  Rx         0190  8  A0 00 56 27 00 00 00 00 
  1375)      1233.4  Rx         0191  8  E4 19 46 03 7F 03 BB 00 
  1376)      1235.4  Rx         0430  8  20 01 15 FF 7F 00 00 00 
  1377)      1236.5  Rx         0002  8  0C 80 51 00 00 00 00 01 
  1378)      1240.8  Rx         0410  8  18 86 20 0C 00 E4 00 C1 
  1379)      1241.0  Rx         0411  8  01 FF 7F 00 01 00 00 3D 
  1380)      1241.3  Rx         0412  8  86 00 01 00 01 09 02 00 
  1381)      1241.5  Rx         0601  8  00 D4 00 00 86 64 00 00 
  1382)      1241.8  Rx         0600  8  00 0B 01 6B 7C 2A 38 00 
  1383)      1243.3  Rx         0190  8  A0 00 55 27 00 00 00 00 
  1384)      1243.6  Rx         0191  8  E7 19 47 03 7F 03 BE 00 
  1385)      1246.5  Rx         0002  8  0C 80 62 00 00 00 00 01 
  1386)      1250.5  Rx         0075  8  00 00 00 00 00 03 07 8D 
  1387)      1250.8  Rx         0513  8  00 00 00 00 00 00 00 00 
  1388)      1251.0  Rx         0512  8  C0 60 00 00 80 17 47 40 
  1389)      1251.3  Rx         0070  8  11 80 00 FF 8B 7F 07 73 
  1390)      1251.5  Rx         0080  8  17 80 00 00 A7 80 07 7D 
  1391)      1251.7  Rx         0511  8  FA FF 00 00 00 00 00 04 
  1392)      1252.0  Rx         0501  8  00 00 00 FF 00 18 00 00 
  1393)      1252.2  Rx         0514  8  00 08 78 00 8C 2B CB 80 
  1394)      1252.5  Rx         0576  8  00 00 00 00 14 20 27 B5 
  1395)      1252.7  Rx         0620  8  30 00 03 00 00 00 00 00 
  1396)      1253.6  Rx         0190  8  A0 00 55 27 00 00 00 00 
  1397)      1253.8  Rx         0191  8  E9 19 4A 03 7F 03 BE 00 
  1398)      1255.4  Rx         0430  8  21 01 15 FF BF 00 00 00 
  1399)      1256.4  Rx         0002  8  0C 80 73 00 00 00 00 01 
  1400)      1260.8  Rx         0410  8  18 87 20 0C 00 E4 00 C1 
  1401)      1261.0  Rx         0411  8  01 FF BF 00 01 00 00 3D 
  1402)      1261.3  Rx         0412  8  87 00 01 00 01 09 02 00 
  1403)      1261.5  Rx         0601  8  00 D4 00 00 87 64 00 00 
  1404)      1263.9  Rx         0190  8  A0 00 56 27 00 00 00 00 
  1405)      1264.1  Rx         0191  8  E9 19 4B 03 7F 03 BE 00 
  1406)      1266.4  Rx         0002  8  0C 80 04 00 00 00 00 01 
  1407)      1270.5  Rx         0075  8  00 00 00 00 00 03 08 36 
  1408)      1270.8  Rx         0513  8  00 00 00 00 00 00 00 00 
  1409)      1271.0  Rx         0410  8  18 85 20 0C 01 E4 00 C1 
  1410)      1271.2  Rx         0070  8  03 80 00 FF AC 7F 08 71 
  1411)      1271.5  Rx         0080  8  D2 7F 00 00 96 80 08 23 
  1412)      1271.8  Rx         0411  8  01 FF FF 00 01 00 00 3D 
  1413)      1272.0  Rx         0412  8  85 01 01 01 01 09 02 00 
  1414)      1272.2  Rx         0512  8  C0 60 00 00 80 18 47 40 
  1415)      1272.5  Rx         0511  8  FA FF 00 00 00 00 00 04 
  1416)      1272.7  Rx         0501  8  00 00 00 FF 00 19 00 00 
  1417)      1273.0  Rx         0514  8  00 08 78 00 8C 2B CD 80 
  1418)      1273.2  Rx         0576  8  00 00 00 00 16 20 28 0D 
  1419)      1273.4  Rx         0601  8  00 D4 00 01 85 64 00 00 
  1420)      1273.7  Rx         0620  8  30 00 03 00 00 00 00 00 
  1421)      1274.1  Rx         0190  8  A0 00 55 27 00 00 00 00 
  1422)      1274.4  Rx         0191  8  E7 19 45 03 7F 03 BE 00 
  1423)      1275.5  Rx         0430  8  22 01 15 FF FF 00 00 00 
  1424)      1276.5  Rx         0002  8  0C 80 15 00 00 00 00 01 
  1425)      1276.6  Rx     0EF50000  2  8C 01 
  1426)      1284.3  Rx         0190  8  A0 00 55 27 00 00 00 00 
  1427)      1284.6  Rx         0191  8  E3 19 4A 03 7F 03 BE 00 
  1428)      1286.5  Rx         0002  8  0C 80 26 00 00 00 00 01 
  1429)      1290.5  Rx         0075  8  00 00 00 00 00 03 09 2B 
  1430)      1290.7  Rx         0513  8  00 00 00 00 00 00 00 00 
  1431)      1291.0  Rx         0410  8  18 88 20 0C 00 E4 00 C1 
  1432)      1291.2  Rx         0070  8  F8 7F 00 FF 8B 7F 09 43 
  1433)      1291.4  Rx         0080  8  F7 7F 00 00 AF 80 09 CE 
  1434)      1291.7  Rx         0411  8  01 FF 7F 00 01 00 00 3D 
  1435)      1291.9  Rx         0412  8  88 00 01 00 01 09 02 00 
  1436)      1292.2  Rx         0512  8  C0 60 00 00 80 19 47 40 
  1437)      1292.4  Rx         0511  8  FA FF 00 00 00 00 00 04 
  1438)      1292.7  Rx         0501  8  00 00 00 FF 00 1A 00 00 
  1439)      1292.9  Rx         0514  8  00 08 78 00 8C 2B CF 80 
  1440)      1293.1  Rx         0576  8  00 00 00 00 18 24 29 34 
  1441)      1293.4  Rx         0601  8  00 D4 00 00 88 64 00 00 
  1442)      1293.6  Rx         0600  8  00 0B 01 6B 7D 2A 38 00 
  1443)      1293.9  Rx         0620  8  30 00 03 00 00 00 00 00 
  1444)      1294.6  Rx         0190  8  A0 00 55 27 00 00 00 00 
  1445)      1294.8  Rx         0191  8  E4 19 48 03 7F 03 BB 00 
  1446)      1295.5  Rx         0430  8  23 01 15 20 17 00 00 00 
  1447)      1296.5  Rx         0002  8  0C 80 37 00 00 00 00 01 
  1448)      1301.8  Rx         0410  8  18 85 20 0C 01 E4 00 C1 
  1449)      1302.0  Rx         0411  8  01 FF BF 00 01 00 00 3D 
  1450)      1302.3  Rx         0412  8  85 01 01 01 01 09 02 00 
  1451)      1302.5  Rx         0601  8  00 D4 00 01 85 64 00 00 
  1452)      1304.8  Rx         0190  8  A0 00 55 27 00 00 00 00 
  1453)      1305.1  Rx         0191  8  E6 19 46 03 7F 03 BB 00 
  1454)      1306.4  Rx         0002  8  0C 80 C8 00 00 00 00 01 
  1455)      1310.5  Rx         0075  8  00 00 00 00 00 03 0A 0C 
  1456)      1310.8  Rx         0513  8  00 00 00 00 00 00 00 00 
  1457)      1311.0  Rx         0512  8  C0 60 00 00 80 1A 47 40 
  1458)      1311.3  Rx         0070  8  F7 7F 00 FF A7 7F 0A 02 
  1459)      1311.5  Rx         0080  8  00 80 00 00 B6 80 0A 5C 
  1460)      1311.7  Rx         0511  8  FA FF 00 00 00 00 00 04 
  1461)      1312.0  Rx         0501  8  00 00 00 FF 00 1B 00 00 
  1462)      1312.2  Rx         0514  8  00 08 78 00 8C 2B C1 80 
  1463)      1312.5  Rx         0576  8  00 00 00 00 1A 00 2A 48 
  1464)      1312.7  Rx         0620  8  30 00 03 00 00 00 00 00 
  1465)      1315.1  Rx         0190  8  A0 00 55 27 00 00 00 00 
  1466)      1315.3  Rx         0191  8  E4 19 4A 03 7F 03 BB 00 
  1467)      1315.6  Rx         0430  8  24 01 15 FF 7F 00 00 00 
  1468)      1316.4  Rx         0002  8  0C 80 D9 00 00 00 00 01 
  1469)      1321.8  Rx         0410  8  18 88 20 0C 01 E4 00 C1 
  1470)      1322.0  Rx         0411  8  01 FF FF 00 01 00 00 3D 
  1471)      1322.3  Rx         0412  8  88 01 01 01 01 09 02 00 
  1472)      1322.5  Rx         0601  8  00 D4 00 01 88 64 00 00 
  1473)      1325.3  Rx         0190  8  A0 00 55 27 00 00 00 00 
  1474)      1325.5  Rx         0191  8  E4 19 49 03 7F 03 BB 00 
  1475)      1326.4  Rx         0002  8  0C 80 EA 00 00 00 00 01 
  1476)      1326.6  Rx     0EF50000  2  8B 01 
  1477)      1330.5  Rx         0075  8  00 00 00 00 00 04 0B E8 
  1478)      1330.8  Rx         0513  8  00 00 00 00 00 00 00 00 
  1479)      1331.0  Rx         0512  8  C0 60 00 00 80 1B 47 40 
  1480)      1331.2  Rx         0070  8  F8 7F 00 FF B1 7F 0B 5E 
  1481)      1331.4  Rx         0080  8  09 80 00 00 C0 80 0B 83 
  1482)      1331.7  Rx         0511  8  FA FF 00 00 00 00 00 04 
  1483)      1332.0  Rx         0501  8  00 00 00 FF 00 1C 00 00 
  1484)      1332.2  Rx         0514  8  00 08 78 00 8C 2B C3 80 
  1485)      1332.4  Rx         0576  8  00 00 00 00 02 20 2B 34 
  1486)      1332.7  Rx         0620  8  30 00 03 00 00 00 00 00 
  1487)      1335.5  Rx         0190  8  A0 00 55 27 00 00 00 00 
  1488)      1335.8  Rx         0191  8  E5 19 47 03 7F 03 BB 00 
  1489)      1336.0  Rx         0430  8  25 01 15 FF BF 00 00 00 
  1490)      1336.4  Rx         0002  8  0C 80 FB 00 00 00 00 01 
  1491)      1341.8  Rx         0410  8  18 86 20 0C 00 E4 00 C1 
  1492)      1342.0  Rx         0411  8  01 FF 7F 00 01 00 00 3D 
  1493)      1342.2  Rx         0412  8  86 00 01 00 01 09 02 00 
  1494)      1342.5  Rx         0601  8  00 D4 00 00 86 64 00 00 
  1495)      1342.8  Rx         0600  8  00 0B 01 6B 7E 2A 38 00 
  1496)      1345.8  Rx         0190  8  A0 00 55 27 00 00 00 00 
  1497)      1346.1  Rx         0191  8  E6 19 46 03 7F 03 BE 00 
  1498)      1346.5  Rx         0002  8  0C 80 8C 00 00 00 00 01 
  1499)      1350.5  Rx         0075  8  00 00 00 00 00 04 0C BB 
  1500)      1350.7  Rx         0513  8  00 00 00 00 00 00 00 00 
  1501)      1351.0  Rx         0512  8  C0 60 00 00 80 1C 47 40 
  1502)      1351.2  Rx         0070  8  09 80 00 FF BC 7F 0C 75 
  1503)      1351.5  Rx         0080  8  25 80 00 00 AA 80 0C 5B 
  1504)      1351.7  Rx         0511  8  FA FF 00 00 00 00 00 04 
  1505)      1351.9  Rx         0410  8  18 87 20 0C 00 E5 00 C1 
  1506)      1352.2  Rx         0411  8  01 FF BF 00 01 00 00 3D 
  1507)      1352.4  Rx         0412  8  87 00 01 00 01 09 02 00 
  1508)      1352.7  Rx         0501  8  00 00 00 FF 00 1D 00 00 
  1509)      1352.9  Rx         0514  8  00 08 78 00 4C 2B C5 80 
  1510)      1353.2  Rx         0576  8  00 00 00 00 04 20 2C 62 
  1511)      1353.4  Rx         0601  8  00 D4 00 00 87 64 00 00 
  1512)      1353.6  Rx         0620  8  30 00 03 00 00 00 00 00 
  1513)      1355.7  Rx         0430  8  26 01 15 FF FF 00 00 00 
  1514)      1356.1  Rx         0190  8  A0 00 55 27 00 00 00 00 
  1515)      1356.3  Rx         0191  8  E3 19 4A 03 7F 03 BE 00 
