(1701998281.317190) can0 200#0003C000C000C000
(1701998281.317416) can0 208#00200000C000C000
(1701998281.317649) can0 215#00000000000000
(1701998281.318232) can0 248#0008000800004101
(1701998281.320550) can0 210#00000000000000FF
(1701998281.320800) can0 308#00000046011FFF00
(1701998281.321073) can0 309#1FFFFFFF0FFF00
(1701998281.321688) can0 312#679D079D09AF078A
(1701998281.321896) can0 356#3FFF3FFF086C00
(1701998281.322141) can0 236#0FFD1000900000E5
(1701998281.322412) can0 7BC#4000000000000000
(1701998281.323187) can0 315#0C100000007B00
(1701998281.327313) can0 2F1#00807D0000000000
(1701998281.327345) can0 300#001B80FF9FFF7FFB
(1701998281.327643) can0 328#00008000D880FFFF
(1701998281.327845) can0 330#1CFCFCFFFFFF3FFF
(1701998281.328131) can0 325#081B7FAF000100
(1701998281.330751) can0 212#02C7079D69563FFF
(1701998281.330796) can0 255#3FFF3FFF3FFFFFFF
(1701998281.331102) can0 308#00000046011FFF00
(1701998281.331682) can0 309#1FFFFFFF0FFF00
(1701998281.331915) can0 312#679D079D09AF078A
(1701998281.332139) can0 236#0FFD1000A00000CD
(1701998281.332227) can0 380#0001
(1701998281.333060) can0 412#2000A3008E00
(1701998281.337406) can0 200#0003C000C000C000
(1701998281.337431) can0 208#00203000C000C000
(1701998281.337706) can0 215#00000000000003
(1701998281.338265) can0 3D3#0A00000000000000
(1701998281.338484) can0 248#0008000800004101
(1701998281.340742) can0 210#00000000000000FF
(1701998281.340768) can0 308#00000006001FFF00
(1701998281.341130) can0 309#1FFFFFFF0FFF00
(1701998281.341727) can0 312#079D079D09AF078A
(1701998281.341797) can0 356#3FFF3FFF086C00
(1701998281.342048) can0 236#0FFD1000B00000D5
(1701998281.342346) can0 7BC#4100000000000000
(1701998281.343230) can0 318#00A30002A3220000
(1701998281.343360) can0 315#50100000007B00
(1701998281.347216) can0 2F1#00807D0000000000
(1701998281.347355) can0 300#001B80FF9FFF7FFA
(1701998281.347641) can0 328#00008000D880FFFF
(1701998281.347839) can0 330#1CFCFCFFFFFF3FFF
(1701998281.348099) can0 408#0000810008000000
(1701998281.348357) can0 325#081B7FAF000100
(1701998281.350521) can0 212#02C7079D69563FFF
(1701998281.350767) can0 255#3FFF3FFF3FFFFFFF
(1701998281.351001) can0 308#00000006001FFF00
(1701998281.351609) can0 309#1FFFFFFF0FFF00
(1701998281.351855) can0 312#079D079D09AF078A
(1701998281.352108) can0 236#0FFD1000C000009D
(1701998281.352145) can0 380#0001
(1701998281.352461) can0 6FE#FFEFE7E700000000
(1701998281.353106) can0 412#2000A3008E00
(1701998281.357410) can0 200#0003C000C000C000
(1701998281.357435) can0 208#00203000C000C000
(1701998281.357684) can0 215#00000000000003
(1701998281.358193) can0 248#0008000800004101
(1701998281.360580) can0 210#00000080800000FF
(1701998281.360825) can0 308#00000046011FFF00
(1701998281.361032) can0 309#1FFFFFFF0FFF00
(1701998281.361615) can0 312#679D079D09AF078A
(1701998281.361770) can0 356#3FFF3FFF086C00
(1701998281.362009) can0 236#0FFD1000D0000085
(1701998281.362259) can0 6FA#0235353800000000
(1701998281.362905) can0 7BC#01BE3FA813000000
(1701998281.363127) can0 5FE#00000000000007DF
(1701998281.363397) can0 315#14100000007B00
(1701998281.367104) can0 2F1#00807D0000000000
(1701998281.367341) can0 300#009B80FF1FFF7FFA
(1701998281.367664) can0 328#00008000D880FFFF
(1701998281.367835) can0 330#04FCFCFFFFFF3FFF
(1701998281.368043) can0 325#081B7FAF000100
(1701998281.370593) can0 212#02C7079DA9563FFF
(1701998281.370718) can0 255#3FFF3FFF3FFFFFFF
(1701998281.371086) can0 308#00000046011FFF00
(1701998281.371616) can0 309#1FFFFFFF0FFF00
(1701998281.371812) can0 312#679D079D09AF078A
(1701998281.372060) can0 236#0FFD1000E00000AD
(1701998281.372137) can0 380#0001
(1701998281.372430) can0 608#FF49000000000000
(1701998281.373081) can0 6FB#8104040009010080
(1701998281.373190) can0 412#2000A3008E00
(1701998281.377299) can0 200#0003C000C000C000
(1701998281.377444) can0 208#00200000C000C000
(1701998281.377722) can0 215#00000000000000
(1701998281.378225) can0 248#0008000800004101
(1701998281.380656) can0 210#00000080800000FF
(1701998281.380681) can0 308#00000006001FFF00
(1701998281.381054) can0 309#1FFFFFFF0FFF00
(1701998281.381547) can0 312#079D079D09AF078A
(1701998281.381760) can0 356#3FFF3FFF086C00
(1701998281.381995) can0 236#0FFD1000F00000B5
(1701998281.382256) can0 4A0#25D832197F0C0044
(1701998281.382901) can0 7BC#028107E5E5000004
(1701998281.382991) can0 6FD#018B004010060800
(1701998281.383230) can0 315#18100000007B00
(1701998281.387288) can0 2F1#00807D0000000000
(1701998281.387332) can0 300#009B80FF1FFF7FFD
(1701998281.387667) can0 328#00008000D880FFFF
(1701998281.387896) can0 330#04FCFCFFFFFF3FFF
(1701998281.388126) can0 325#081B7FAF000100
(1701998281.390632) can0 212#02C7079DA9563FFF
(1701998281.390677) can0 255#3FFF3FFF3FFFFFFF
(1701998281.390960) can0 308#00000006001FFF00
(1701998281.391569) can0 309#1FFFFFFF0FFF00
(1701998281.391739) can0 312#079D079D09AF078A
(1701998281.392016) can0 236#0FFD10000000003D
(1701998281.392109) can0 380#0001
(1701998281.392338) can0 415#000000000002CB
(1701998281.393052) can0 6FF#3980026000000000
(1701998281.393256) can0 412#2000A3008E00
(1701998281.397405) can0 200#0003C000C000C000
(1701998281.397430) can0 208#00200000C000C000
(1701998281.397693) can0 215#00000000000000
(1701998281.398090) can0 248#0008000800004101
(1701998281.400392) can0 101#04
(1701998281.400537) can0 210#00000000000000FF
(1701998281.400775) can0 308#00000046011FFF00
(1701998281.401023) can0 309#1FFFFFFF0FFF00
(1701998281.401571) can0 312#679D079D09AF078A
(1701998281.401710) can0 356#3FFF3FFF086C00
(1701998281.401955) can0 236#0FFD100010000025
(1701998281.402165) can0 7BC#0300000080008000
(1701998281.403013) can0 315#5C100000007B00
(1701998281.407297) can0 2F1#00807D0000000000
(1701998281.407342) can0 300#001B80FF9FFF7FFF
(1701998281.407680) can0 328#00008000D880FFFF
(1701998281.407831) can0 330#1CFCFCFFFFFF3FFF
(1701998281.408102) can0 325#081B7FAF000100
(1701998281.410968) can0 212#02C7079D69563FFF
(1701998281.410993) can0 255#3FFF3FFF3FFFFFFF
(1701998281.410995) can0 308#00000046011FFF00
(1701998281.411492) can0 309#1FFFFFFF0FFF00
(1701998281.411680) can0 312#679D079D09AF078A
(1701998281.411920) can0 236#0FFD10002000000D
(1701998281.412067) can0 380#0001
(1701998281.413369) can0 412#2000A3008E00
(1701998281.417164) can0 200#0003C000C000C000
(1701998281.417407) can0 208#00203000C000C000
(1701998281.417630) can0 215#00000000000003
(1701998281.418053) can0 248#0008000800004101
(1701998281.420361) can0 210#00000000000000FF
(1701998281.420633) can0 308#00000006001FFF00
(1701998281.420895) can0 309#1FFFFFFF0FFF00
(1701998281.421432) can0 312#079D079D09AF078A
(1701998281.421678) can0 356#3FFF3FFF086C00
(1701998281.421926) can0 236#0FFD100030000015
(1701998281.422175) can0 7BC#0400000000006600
(1701998281.422884) can0 315#60100000007B00
(1701998281.427109) can0 2F1#00807D0000000000
(1701998281.427372) can0 300#001B80FF9FFF7FFD
(1701998281.427641) can0 328#00008000D880FFFF
(1701998281.427897) can0 330#1CFCFCFFFFFF3FFF
(1701998281.428099) can0 325#081B7FAF000100
(1701998281.430376) can0 212#02C7079D69563FFF
(1701998281.430663) can0 255#3FFF3FFF3FFFFFFF
(1701998281.430865) can0 308#00000006001FFF00
(1701998281.431394) can0 309#1FFFFFFF0FFF00
(1701998281.431627) can0 312#079D079D09AF078A
(1701998281.431876) can0 236#0FFD10004000005D
(1701998281.432012) can0 380#0001
(1701998281.432887) can0 412#2000A3008E00
(1701998281.437441) can0 200#0003C000C000C000
(1701998281.437466) can0 208#00203000C000C000
(1701998281.437696) can0 215#00000000000003
(1701998281.438048) can0 3D3#0A00000000000000
(1701998281.438371) can0 248#0008000800004101
(1701998281.440911) can0 210#00000080800000FF
(1701998281.440936) can0 308#00000046011FFF00
(1701998281.440939) can0 309#1FFFFFFF0FFF00
(1701998281.441466) can0 312#679D079D09AF078A
(1701998281.441671) can0 356#3FFF3FFF086C00
(1701998281.441942) can0 7BC#050000FA49000024
(1701998281.442188) can0 236#0FFD100050000045
(1701998281.443402) can0 318#00A30002A3220000
(1701998281.443425) can0 315#24100000007B00
(1701998281.447460) can0 2F1#00807D0000000000
(1701998281.447484) can0 300#009B80FF1FFF7FFC
(1701998281.447648) can0 328#00008000D880FFFF
(1701998281.447916) can0 330#04FCFCFFFFFF3FFF
(1701998281.448140) can0 408#0000810008000000
(1701998281.448362) can0 325#081B7FAF000100
(1701998281.450681) can0 212#02C7079DA9563FFF
(1701998281.450706) can0 255#3FFF3FFF3FFFFFFF
(1701998281.450870) can0 308#00000046011FFF00
(1701998281.451442) can0 309#1FFFFFFF0FFF00
(1701998281.451664) can0 312#679D079D09AF078A
(1701998281.451817) can0 380#0001
(1701998281.452053) can0 236#0FFD10006000006D
(1701998281.452277) can0 6FE#FFEFE7E700000000
(1701998281.452958) can0 412#2000A3008E00
(1701998281.457731) can0 200#0003C000C000C000
(1701998281.457756) can0 208#00200000C000C000
(1701998281.457759) can0 215#00000000000000
(1701998281.458032) can0 248#0008000800004101
(1701998281.460904) can0 210#00000080800000FF
(1701998281.460929) can0 308#00000006001FFF00
(1701998281.460932) can0 309#1FFFFFFF0FFF00
(1701998281.461413) can0 312#079D079D09AF078A
(1701998281.461626) can0 356#3FFF3FFF086C00
(1701998281.461881) can0 6FA#004A413332553146
(1701998281.462106) can0 236#0FFD100070000075
(1701998281.462358) can0 7BC#0600030000008000
(1701998281.462897) can0 315#28100000007B00
(1701998281.467409) can0 2F1#00807D0000000000
(1701998281.467435) can0 300#009B80FF1FFF7FFE
(1701998281.467582) can0 328#00008000D880FFFF
(1701998281.467815) can0 330#04FCFCFFFFFF3FFF
(1701998281.468040) can0 325#081B7FAF000100
(1701998281.470464) can0 212#02C7079DA9563FFF
(1701998281.470514) can0 255#3FFF3FFF3FFFFFFF
(1701998281.470855) can0 308#00000006001FFF00
(1701998281.471420) can0 309#1FFFFFFF0FFF00
(1701998281.471626) can0 312#079D079D09AF078A
(1701998281.471790) can0 380#0001
(1701998281.472004) can0 236#0FFD1000800000FD
(1701998281.472257) can0 608#FF49000000000000
(1701998281.473226) can0 412#2000A3008E00
(1701998281.477266) can0 200#0003C000C000C000
(1701998281.477416) can0 208#00200000C000C000
(1701998281.477651) can0 215#00000000000000
(1701998281.477981) can0 248#0008000800004101
(1701998281.480822) can0 210#00000000000000FF
(1701998281.480847) can0 308#00000046011FFF00
(1701998281.480849) can0 309#1FFFFFFF0FFF00
(1701998281.481324) can0 312#679D079D09AF078A
(1701998281.481609) can0 356#3FFF3FFF086C00
(1701998281.481799) can0 4A0#25D833197F0C0044
(1701998281.482047) can0 236#0FFD1000900000E5
(1701998281.482290) can0 7BC#0700000000000000
(1701998281.483319) can0 315#6C100000007B00
(1701998281.487148) can0 2F1#00807D0000000000
(1701998281.487357) can0 300#001B80FF9FFF7FF8
(1701998281.487643) can0 328#00008000D880FFFF
(1701998281.487861) can0 325#081B7FAF000100
(1701998281.488132) can0 330#1CFCFCFFFFFF3FFF
(1701998281.490314) can0 212#02C7079D69563FFF
(1701998281.490573) can0 255#3FFF3FFF3FFFFFFF
(1701998281.490830) can0 308#00000046011FFF00
(1701998281.491379) can0 309#1FFFFFFF0FFF00
(1701998281.491587) can0 312#679D079D09AF078A
(1701998281.491727) can0 380#0001
(1701998281.491970) can0 236#0FFD1000A00000CD
(1701998281.492189) can0 415#000000000002CB
(1701998281.492855) can0 412#2000A2008E00
(1701998281.497445) can0 200#0003C000C000C000
(1701998281.497471) can0 208#00203000C000C000
(1701998281.497647) can0 215#00000000000003
(1701998281.497891) can0 248#0008000800004101
(1701998281.500660) can0 101#04
(1701998281.500685) can0 210#00000000000000FF
(1701998281.500687) can0 308#00000006001FFF00
(1701998281.500892) can0 309#1FFFFFFF0FFF00
(1701998281.501475) can0 312#079D079D09AF078A
(1701998281.501500) can0 356#3FFF3FFF086C00
(1701998281.501850) can0 7BC#0800000000010000
(1701998281.502039) can0 236#0FFD1000B00000D5
(1701998281.503178) can0 315#30100000007B00
(1701998281.507694) can0 2F1#00807D0000000000
(1701998281.507719) can0 300#001B80FF9FFF7FFE
(1701998281.507721) can0 328#00008000D880FFFF
(1701998281.507867) can0 325#081B7FAF000100
(1701998281.508120) can0 330#1CFCFCFFFFFF3FFF
(1701998281.510781) can0 212#02C7079D69563FFF
(1701998281.510807) can0 255#3FFF3FFF3FFFFFFF
(1701998281.510809) can0 308#00000006001FFF00
(1701998281.511372) can0 309#1FFFFFFF0FFF00
(1701998281.511540) can0 312#079D079D09AF078A
(1701998281.511691) can0 380#0001
(1701998281.511950) can0 236#0FFD1000C000009D
(1701998281.513181) can0 412#2000A2008E00
(1701998281.517196) can0 200#0003C000C000C000
(1701998281.517419) can0 208#00203000C000C000
(1701998281.517633) can0 215#00000000000003
(1701998281.517881) can0 248#0008000800004101
(1701998281.520278) can0 210#00000080800000FF
(1701998281.520475) can0 308#00000046011FFF00
(1701998281.520733) can0 309#1FFFFFFF0FFF00
(1701998281.521375) can0 312#679D079D09AF078A
(1701998281.521535) can0 356#3FFF3FFF086C00
(1701998281.521784) can0 7BC#0900000000000000
(1701998281.522002) can0 236#0FFD1000D0000085
(1701998281.522938) can0 315#74100000007B00
(1701998281.527575) can0 2F1#00807D0000000000
(1701998281.527588) can0 300#009B80FF1FFF7FFF
(1701998281.527591) can0 328#00008000D880FFFF
(1701998281.527843) can0 325#081B7FAF000100
(1701998281.528099) can0 330#04FCFCFFFFFF3FFF
(1701998281.530244) can0 212#02C7079DA9563FFF
(1701998281.530485) can0 255#3FFF3FFF3FFFFFFF
(1701998281.530769) can0 308#00000046011FFF00
(1701998281.531247) can0 309#1FFFFFFF0FFF00
(1701998281.531493) can0 312#679D079D09AF078A
(1701998281.531610) can0 380#0001
(1701998281.531844) can0 236#0FFD1000E00000AD
(1701998281.532600) can0 412#2000A2008E00
(1701998281.537699) can0 200#0003C000C000C000
(1701998281.537724) can0 208#00200000C000C000
(1701998281.537727) can0 215#00000000000000
(1701998281.537884) can0 3D3#0A00000000000000
(1701998281.538158) can0 248#0008000800004101
(1701998281.540319) can0 210#00000080800000FF
(1701998281.540367) can0 308#00000006001FFF00
(1701998281.540767) can0 309#1FFFFFFF0FFF00
(1701998281.541306) can0 312#079D079D09AF078A
(1701998281.541479) can0 356#3FFF3FFF086C00
(1701998281.541740) can0 7BC#0A9017E001000000
(1701998281.541957) can0 236#0FFD1000F00000B5
(1701998281.543197) can0 318#00A30002A3220000
(1701998281.543221) can0 315#78100000007B00
(1701998281.547676) can0 2F1#00807D0000000000
(1701998281.547701) can0 300#009B80FF1FFF8000
(1701998281.547703) can0 328#00008000D880FFFF
(1701998281.547868) can0 330#04FCFCFFFFFF3FFF
(1701998281.548110) can0 408#0000810008000000
(1701998281.548373) can0 325#081B7FAF000100
(1701998281.550630) can0 212#02C7079DA9563FFF
(1701998281.550653) can0 255#3FFF3FFF3FFFFFFF
(1701998281.550657) can0 308#00000006001FFF00
(1701998281.551247) can0 309#1FFFFFFF0FFF00
(1701998281.551471) can0 312#079D079D09AF078A
(1701998281.551622) can0 380#0001
(1701998281.551890) can0 6FE#FFEFE7E700000000
(1701998281.552099) can0 236#0FFD10000000003D
(1701998281.552693) can0 412#2000A2008E00
(1701998281.557684) can0 200#0003C000C000C000
(1701998281.557710) can0 208#00200000C000C000
(1701998281.557712) can0 215#00000000000000
(1701998281.557879) can0 248#0008000800004101
(1701998281.560668) can0 210#00000000000000FF
(1701998281.560693) can0 308#00000046011FFF00
(1701998281.560696) can0 309#1FFFFFFF0FFF00
(1701998281.561282) can0 312#679D079D09AF078A
(1701998281.561446) can0 356#3FFF3FFF086C00
(1701998281.561699) can0 6FA#0155374555303038
(1701998281.561926) can0 236#0FFD100010000025
(1701998281.562169) can0 7BC#0B00000000000080
(1701998281.562816) can0 315#3C100000007B00
(1701998281.567666) can0 2F1#00807D0000000000
(1701998281.567692) can0 300#001B80FF9FFF7FFF
(1701998281.567695) can0 328#00008000D880FFFF
(1701998281.567841) can0 325#081B7FAF000100
(1701998281.568120) can0 330#1CFCFCFFFFFF3FFF
(1701998281.570264) can0 212#02C7079D69563FFF
(1701998281.570316) can0 255#3FFF3FFF3FFFFFFF
(1701998281.570670) can0 308#00000046011FFF00
(1701998281.571214) can0 309#1FFFFFFF0FFF00
(1701998281.571431) can0 312#679D079D09AF078A
(1701998281.571573) can0 380#0001
(1701998281.571846) can0 608#FF49000000000000
(1701998281.572068) can0 236#0FFD10002000000D
(1701998281.572621) can0 412#2000A2008E00
(1701998281.577587) can0 200#0003C000C000C000
(1701998281.577613) can0 208#00203000C000C000
(1701998281.577618) can0 215#00000000000003
(1701998281.577849) can0 248#0008000800004101
(1701998281.580640) can0 210#00000000000000FF
(1701998281.580664) can0 308#00000006001FFF00
(1701998281.580667) can0 309#1FFFFFFF0FFF00
(1701998281.581241) can0 312#079D079D09AF078A
(1701998281.581406) can0 356#3FFF3FFF086C00
(1701998281.581659) can0 4A0#25D833197F0C0044
(1701998281.581896) can0 236#0FFD100030000015
(1701998281.582158) can0 7BC#0C0036D800000000
(1701998281.582673) can0 315#00100000007B00
(1701998281.587666) can0 2F1#00807D0000000000
(1701998281.587692) can0 300#001B80FF9FFF7FFD
(1701998281.587695) can0 328#00008000D880FFFF
(1701998281.587848) can0 325#081B7FAF000100
(1701998281.588074) can0 330#1CFCFCFFFFFF3FFF
(1701998281.590221) can0 212#02C7079D69563FFF
(1701998281.590305) can0 255#3FFF3FFF3FFFFFFF
(1701998281.590651) can0 308#00000006001FFF00
(1701998281.591608) can0 309#1FFFFFFF0FFF00
(1701998281.591631) can0 312#079D079D09AF078A
(1701998281.591634) can0 380#0001
(1701998281.591783) can0 415#000000000002CB
(1701998281.592045) can0 236#0FFD10004000005D
(1701998281.593037) can0 412#2000A3008E00
(1701998281.597649) can0 200#0003C000C000C000
(1701998281.597662) can0 208#00203000C000C000
(1701998281.597667) can0 215#00000000000003
(1701998281.597818) can0 248#0008000800004101
(1701998281.600456) can0 101#04
(1701998281.600481) can0 210#00000080800000FF
(1701998281.600484) can0 308#00000046011FFF00
(1701998281.600697) can0 309#1FFFFFFF0FFF00
(1701998281.601202) can0 312#679D079D09AF078A
(1701998281.601373) can0 356#3FFF3FFF086C00
(1701998281.601633) can0 7BC#0D00000000000000
(1701998281.601885) can0 236#0FFD100050000045
(1701998281.602594) can0 315#44100000007B00
(1701998281.607658) can0 2F1#00807D0000000000
(1701998281.607683) can0 300#009B80FF1FFF7FF6
(1701998281.607687) can0 328#00008000D880FFFF
(1701998281.607851) can0 325#081B7FAF000100
(1701998281.608092) can0 330#04FCFCFFFFFF3FFF
(1701998281.610604) can0 212#02C7079DA9563FFF
(1701998281.610629) can0 255#3FFF3FFF3FFFFFFF
(1701998281.610631) can0 308#00000046011FFF00
(1701998281.611209) can0 309#1FFFFFFF0FFF00
(1701998281.611304) can0 312#679D079D09AF078A
(1701998281.611486) can0 380#0001
(1701998281.611921) can0 236#0FFD10006000006D
(1701998281.612540) can0 412#2000A3008E00
(1701998281.617678) can0 200#0003C000C000C000
(1701998281.617703) can0 208#00200000C000C000
(1701998281.617707) can0 215#00000000000000
(1701998281.617874) can0 248#0008000800004101
(1701998281.620549) can0 210#00000080800000FF
(1701998281.620575) can0 308#00000006001FFF00
(1701998281.620577) can0 309#1FFFFFFF0FFF00
(1701998281.621234) can0 312#079D079D09AF078A
(1701998281.621278) can0 356#3FFF3FFF086C00
(1701998281.621649) can0 7BC#0E00000000000000
(1701998281.621897) can0 236#0FFD100070000075
(1701998281.622557) can0 315#48100000007B00
(1701998281.627655) can0 2F1#00807D0000000000
(1701998281.627680) can0 300#009B80FF1FFF7FF3
(1701998281.627682) can0 325#081B7FAF000100
(1701998281.627836) can0 328#00008000D880FFFF
(1701998281.628117) can0 330#04FCFCFFFFFF3FFF
(1701998281.630119) can0 212#02C7079DA9563FFF
(1701998281.630312) can0 255#3FFF3FFF3FFFFFFF
(1701998281.630546) can0 308#00000006001FFF00
(1701998281.631097) can0 309#1FFFFFFF0FFF00
(1701998281.631306) can0 312#079D079D09AF078A
(1701998281.631463) can0 380#0001
(1701998281.631966) can0 236#0FFD1000800000FD
(1701998281.632518) can0 412#2000A3008E00
(1701998281.637473) can0 200#0003C000C000C000
(1701998281.637498) can0 208#00200000C000C000
(1701998281.637542) can0 215#00000000000000
(1701998281.637787) can0 3D3#0A00000000000000
(1701998281.638063) can0 248#0008000800004101
(1701998281.640361) can0 210#00000000000000FF
(1701998281.640386) can0 308#00000046011FFF00
(1701998281.640534) can0 309#1FFFFFFF0FFF00
(1701998281.641482) can0 312#679D079D09AF078A
(1701998281.641507) can0 356#3FFF3FFF086C00
(1701998281.641525) can0 7BC#0F00000000000000
(1701998281.641907) can0 236#0FFD1000900000E5
(1701998281.642980) can0 318#00A30002A3220000
(1701998281.643003) can0 315#0C100000007B00
(1701998281.647780) can0 2F1#00807D0000000000
(1701998281.647805) can0 300#001B80FF9FFF7FFD
(1701998281.647807) can0 328#00008000D880FFFF
(1701998281.647810) can0 330#1CFCFCFFFFFF3FFF
(1701998281.648127) can0 408#0000810008000000
(1701998281.648336) can0 325#081B7FAF000100
(1701998281.650001) can0 212#02C7079D69563FFF
(1701998281.650225) can0 255#3FFF3FFF3FFFFFFF
(1701998281.650506) can0 308#00000046011FFF00
(1701998281.651095) can0 309#1FFFFFFF0FFF00
(1701998281.651301) can0 312#679D079D09AF078A
(1701998281.651447) can0 380#0001
(1701998281.651685) can0 6FE#FFEFE7E700000000
(1701998281.651927) can0 236#0FFD1000A00000CD
(1701998281.652785) can0 412#2000A3008E00
(1701998281.657754) can0 200#0003C000C000C000
(1701998281.657774) can0 208#00203000C000C000
(1701998281.657779) can0 215#00000000000003
(1701998281.657798) can0 248#0008000800004101
(1701998281.660489) can0 210#00000000000000FF
(1701998281.660514) can0 308#00000006001FFF00
(1701998281.660519) can0 309#1FFFFFFF0FFF00
(1701998281.661086) can0 312#079D079D09AF078A
(1701998281.661300) can0 356#3FFF3FFF086C00
(1701998281.661522) can0 6FA#0235353800000000
(1701998281.661781) can0 7BC#10000000000000FC
(1701998281.661999) can0 236#0FFD1000B00000D5
(1701998281.662533) can0 5FE#00000000000007DF
(1701998281.662720) can0 315#50100000007B00
(1701998281.667660) can0 2F1#00807D0000000000
(1701998281.667685) can0 300#001B80FF9FFF7FFF
(1701998281.667688) can0 325#081B7FAF000100
(1701998281.667831) can0 328#00008000D880FFFF
(1701998281.668063) can0 330#1CFCFCFFFFFF3FFF
(1701998281.669977) can0 212#02C7079D69563FFF
(1701998281.670202) can0 255#3FFF3FFF3FFFFFFF
(1701998281.670452) can0 308#00000006001FFF00
(1701998281.671034) can0 309#1FFFFFFF0FFF00
(1701998281.671311) can0 312#079D079D09AF078A
(1701998281.671342) can0 380#0001
(1701998281.671689) can0 608#FF49000000000000
(1701998281.671887) can0 236#0FFD1000C000009D
(1701998281.672441) can0 6FB#8104040009010080
(1701998281.672628) can0 412#2000A3008E00
(1701998281.677457) can0 200#0003C000C000C000
(1701998281.677490) can0 208#00203000C000C000
(1701998281.677521) can0 215#00000000000003
(1701998281.677824) can0 248#0008000800004101
(1701998281.680306) can0 210#00000080800000FF
(1701998281.680341) can0 308#00000046011FFF00
(1701998281.680376) can0 309#1FFFFFFF0FFF00
(1701998281.681369) can0 312#679D079D09AF078A
(1701998281.681393) can0 356#3FFF3FFF086C00
(1701998281.681408) can0 4A0#25D832197F0C0044
(1701998281.681734) can0 7BC#11000000FEFC6400
(1701998281.681983) can0 236#0FFD1000D0000085
(1701998281.682591) can0 6FD#018B004010060800
(1701998281.682615) can0 315#14100000007B00
(1701998281.687772) can0 2F1#00807D0000000000
(1701998281.687797) can0 300#009B80FF1FFF7FFF
(1701998281.687800) can0 325#081B7FAF000100
(1701998281.687802) can0 328#00008000D880FFFF
(1701998281.688057) can0 330#04FCFCFFFFFF3FFF
(1701998281.690372) can0 212#02C7079DA9563FFF
(1701998281.690397) can0 255#3FFF3FFF3FFFFFFF
(1701998281.690400) can0 308#00000046011FFF00
(1701998281.690996) can0 309#1FFFFFFF0FFF00
(1701998281.691124) can0 312#679D079D09AF078A
(1701998281.691283) can0 380#0001
(1701998281.691616) can0 415#000000000002CB
(1701998281.691856) can0 236#0FFD1000E00000AD
(1701998281.692863) can0 6FF#3980026000000000
(1701998281.692886) can0 412#2000A3008E00
(1701998281.697739) can0 200#0003C000C000C000
(1701998281.697765) can0 208#00200000C000C000
(1701998281.697770) can0 215#00000000000000
(1701998281.697790) can0 248#0008000800004101
(1701998281.700279) can0 101#04
(1701998281.700294) can0 210#00000080800000FF
(1701998281.700299) can0 308#00000006001FFF00
(1701998281.700505) can0 309#1FFFFFFF0FFF00
(1701998281.701030) can0 312#079D079D09AF078A
(1701998281.701123) can0 356#3FFF3FFF086C00
(1701998281.701435) can0 7BC#1200000000000000
(1701998281.701902) can0 236#0FFD1000F00000B5
(1701998281.702458) can0 315#18100000007B00
(1701998281.707650) can0 2F1#00807D0000000000
(1701998281.707674) can0 300#009B80FF1FFF7FF8
(1701998281.707677) can0 325#081B7FAF000100
(1701998281.707841) can0 328#00008000D880FFFF
(1701998281.708053) can0 330#04FCFCFFFFFF3FFF
(1701998281.710401) can0 212#02C7079DA9563FFF
(1701998281.710426) can0 255#3FFF3FFF3FFFFFFF
(1701998281.710431) can0 308#00000006001FFF00
(1701998281.710994) can0 309#1FFFFFFF0FFF00
(1701998281.711159) can0 312#079D079D09AF078A
(1701998281.711319) can0 380#0001
(1701998281.712290) can0 236#0FFD10000000003D
(1701998281.712313) can0 412#2000A3008E00
(1701998281.717641) can0 200#0003C000C000C000
(1701998281.717665) can0 208#00200000C000C000
(1701998281.717668) can0 215#00000000000000
(1701998281.717833) can0 248#0008000800004101
(1701998281.720361) can0 210#00000000000000FF
(1701998281.720386) can0 308#00000046011FFF00
(1701998281.720389) can0 309#1FFFFFFF0FFF00
(1701998281.720947) can0 312#679D079D09AF078A
(1701998281.721121) can0 356#3FFF3FFF086C00
(1701998281.721379) can0 7BC#1300000000000000
(1701998281.721972) can0 236#0FFD100010000025
(1701998281.722441) can0 315#5C100000007B00
(1701998281.727635) can0 2F1#00807D0000000000
(1701998281.727659) can0 300#001B80FF9FFF7FFD
(1701998281.727662) can0 325#081B7FAF000100
(1701998281.727826) can0 328#00008000D880FFFF
(1701998281.728088) can0 330#1CFCFCFFFFFF3FFF
(1701998281.729979) can0 212#02C7079D69563FFF
(1701998281.730018) can0 255#3FFF3FFF3FFFFFFF
(1701998281.730326) can0 308#00000046011FFF00
(1701998281.730966) can0 309#1FFFFFFF0FFF00
(1701998281.731073) can0 312#679D079D09AF078A
(1701998281.731213) can0 380#0001
(1701998281.731945) can0 236#0FFD10002000000D
(1701998281.732336) can0 412#2000A3008E00
(1701998281.737643) can0 200#0003C000C000C000
(1701998281.737668) can0 208#00203000C000C000
(1701998281.737670) can0 215#00000000000003
(1701998281.737826) can0 3D3#0A00000000000000
(1701998281.738115) can0 248#0008000800004101
(1701998281.739956) can0 210#00000000000000FF
(1701998281.739984) can0 308#00000006001FFF00
(1701998281.740406) can0 309#1FFFFFFF0FFF00
(1701998281.740921) can0 312#079D079D09AF078A
(1701998281.741094) can0 356#3FFF3FFF086C00
(1701998281.741381) can0 7BC#1400000000000000
(1701998281.742278) can0 236#0FFD100030000015
(1701998281.742417) can0 318#00A30002A3220000
(1701998281.742650) can0 315#60100000007B00
(1701998281.747658) can0 2F1#00807D0000000000
(1701998281.747683) can0 300#001B80FF9FFF7FFF
(1701998281.747685) can0 328#00008000D880FFFF
(1701998281.747847) can0 330#1CFCFCFFFFFF3FFF
(1701998281.748112) can0 408#0000810008000000
(1701998281.748337) can0 325#081B7FAF000100
(1701998281.749824) can0 212#02C7079D69563FFF
(1701998281.750039) can0 255#3FFF3FFF3FFFFFFF
(1701998281.750294) can0 308#00000006001FFF00
(1701998281.750895) can0 309#1FFFFFFF0FFF00
(1701998281.751065) can0 312#079D079D09AF078A
(1701998281.751270) can0 380#0001
(1701998281.751506) can0 6FE#FFEFE7E700000000
(1701998281.751836) can0 236#0FFD10004000005D
(1701998281.752308) can0 412#2000A3008E00
(1701998281.757477) can0 200#0003C000C000C000
(1701998281.757501) can0 208#00203000C000C000
(1701998281.757504) can0 215#00000000000003
(1701998281.757841) can0 248#0008000800004101
(1701998281.759831) can0 210#00000080800000FF
(1701998281.760018) can0 308#00000046011FFF00
(1701998281.760295) can0 309#1FFFFFFF0FFF00
(1701998281.761254) can0 312#679D079D09AF078A
(1701998281.761277) can0 356#3FFF3FFF086C00
(1701998281.761280) can0 6FA#004A413332553146
(1701998281.761570) can0 7BC#1500000000000000
(1701998281.761842) can0 236#0FFD100050000045
(1701998281.762325) can0 315#24100000007B00
(1701998281.767778) can0 2F1#00807D0000000000
(1701998281.767803) can0 300#009B80FF1FFF7FFB
(1701998281.767805) can0 325#081B7FAF000100
(1701998281.767808) can0 328#00008000D880FFFF
(1701998281.768062) can0 330#04FCFCFFFFFF3FFF
(1701998281.770398) can0 212#02C7079DA9563FFF
(1701998281.770422) can0 255#3FFF3FFF3FFFFFFF
(1701998281.770425) can0 308#00000046011FFF00
(1701998281.770864) can0 309#1FFFFFFF0FFF00
(1701998281.771048) can0 312#679D079D09AF078A
(1701998281.771191) can0 380#0001
(1701998281.771480) can0 608#FF49000000000000
(1701998281.771845) can0 236#0FFD10006000006D
(1701998281.772300) can0 412#2000A3008E00
(1701998281.777716) can0 200#0003C000C000C000
(1701998281.777741) can0 208#00200000C000C000
(1701998281.777746) can0 215#00000000000000
(1701998281.777749) can0 248#0008000800004101
(1701998281.779784) can0 210#00000080800000FF
(1701998281.779985) can0 308#00000006001FFF00
(1701998281.780263) can0 309#1FFFFFFF0FFF00
(1701998281.780901) can0 312#079D079D09AF078A
(1701998281.780943) can0 356#3FFF3FFF086C00
(1701998281.781261) can0 4A0#25D832197F0C0044
(1701998281.781550) can0 7BC#1600000000000000
(1701998281.781834) can0 236#0FFD100070000075
(1701998281.782296) can0 315#28100000007B00
(1701998281.787205) can0 300#009B80FF1FFF7FF9
(1701998281.787305) can0 2F1#00807D0000000000
(1701998281.787581) can0 325#081B7FAF000100
(1701998281.787812) can0 328#00008000D880FFFF
(1701998281.788070) can0 330#04FCFCFFFFFF3FFF
(1701998281.789965) can0 212#02C7079DA9563FFF
(1701998281.789988) can0 255#3FFF3FFF3FFFFFFF
(1701998281.790276) can0 308#00000006001FFF00
(1701998281.791186) can0 309#1FFFFFFF0FFF00
(1701998281.791210) can0 312#079D079D09AF078A
(1701998281.791212) can0 380#0001
(1701998281.791396) can0 415#000000000002CB
(1701998281.791923) can0 236#0FFD1000800000FD
(1701998281.792354) can0 412#2000A3008E00
(1701998281.797725) can0 200#0003C000C000C000
(1701998281.797749) can0 208#00200000C000C000
(1701998281.797752) can0 215#00000000000000
(1701998281.797771) can0 248#0008000800004101
(1701998281.800180) can0 101#04
(1701998281.800204) can0 210#00000000000000FF
(1701998281.800209) can0 308#00000046011FFF00
(1701998281.800344) can0 309#1FFFFFFF0FFF00
(1701998281.800831) can0 312#679D079D09AF078A
(1701998281.801004) can0 356#3FFF3FFF086C00
(1701998281.801260) can0 7BC#1700000000000000
(1701998281.802266) can0 236#0FFD1000900000E5
(1701998281.802289) can0 315#6C100000007B00
(1701998281.807754) can0 300#001B80FF9FFF7FFB
(1701998281.807778) can0 2F1#00807D0000000000
(1701998281.807782) can0 325#081B7FAF000100
(1701998281.807786) can0 328#00008000D880FFFF
(1701998281.808020) can0 330#1CFCFCFFFFFF3FFF
(1701998281.810209) can0 212#02C7079D69563FFF
(1701998281.810234) can0 255#3FFF3FFF3FFFFFFF
(1701998281.810236) can0 308#00000046011FFF00
(1701998281.810783) can0 309#1FFFFFFF0FFF00
(1701998281.810973) can0 312#679D079D09AF078A
(1701998281.811127) can0 380#0001
(1701998281.812255) can0 236#0FFD1000A00000CD
(1701998281.812278) can0 412#2000A3008E00
(1701998281.817586) can0 200#0003C000C000C000
(1701998281.817610) can0 208#00203000C000C000
(1701998281.817614) can0 215#00000000000003
(1701998281.817791) can0 248#0008000800004101
(1701998281.820186) can0 210#00000000000000FF
(1701998281.820210) can0 308#00000006001FFF00
(1701998281.820213) can0 309#1FFFFFFF0FFF00
(1701998281.820819) can0 312#079D079D09AF078A
(1701998281.820908) can0 356#3FFF3FFF086C00
(1701998281.821259) can0 7BC#18FED00040000000
(1701998281.822242) can0 236#0FFD1000B00000D5
(1701998281.822265) can0 315#30100000007B00
(1701998281.827617) can0 300#001B80FF9FFF7FFF
(1701998281.827642) can0 2F1#00807D0000000000
(1701998281.827644) can0 325#081B7FAF000100
(1701998281.827802) can0 328#00008000D880FFFF
(1701998281.828015) can0 330#1CFCFCFFFFFF3FFF
(1701998281.829694) can0 212#02C7079D69563FFF
(1701998281.829896) can0 255#3FFF3FFF3FFFFFFF
(1701998281.830138) can0 308#00000006001FFF00
(1701998281.830712) can0 309#1FFFFFFF0FFF00
(1701998281.830900) can0 312#079D079D09AF078A
(1701998281.831051) can0 380#0001
(1701998281.831920) can0 236#0FFD1000C000009D
(1701998281.832091) can0 412#2000A3008E00
(1701998281.837703) can0 200#0003C000C000C000
(1701998281.837728) can0 208#00203000C000C000
(1701998281.837731) can0 215#00000000000003
(1701998281.837733) can0 3D3#0A00000000000000
(1701998281.838080) can0 248#0008000800004101
(1701998281.839979) can0 210#00000080800000FF
(1701998281.840004) can0 308#00000046011FFF00
(1701998281.840142) can0 309#1FFFFFFF0FFF00
(1701998281.840828) can0 312#679D079D09AF078A
(1701998281.840853) can0 356#3FFF3FFF086C00
(1701998281.841195) can0 7BC#19000765E52FC700
(1701998281.842242) can0 236#0FFD1000D0000085
(1701998281.842266) can0 318#00A30002A3220000
(1701998281.842436) can0 315#74100000007B00
(1701998281.847722) can0 300#009B80FF1FFF7FFF
(1701998281.847748) can0 2F1#00807D0000000000
(1701998281.847752) can0 328#00008000D880FFFF
(1701998281.847772) can0 330#04FCFCFFFFFF3FFF
(1701998281.848077) can0 408#0000810008000000
(1701998281.848327) can0 325#081B7FAF000100
(1701998281.849733) can0 212#02C7079DA9563FFF
(1701998281.849920) can0 255#3FFF3FFF3FFFFFFF
(1701998281.850107) can0 308#00000046011FFF00
(1701998281.850746) can0 309#1FFFFFFF0FFF00
(1701998281.850918) can0 312#679D079D09AF078A
(1701998281.851069) can0 380#0001
(1701998281.851316) can0 6FE#FFEFE7E700000000
(1701998281.852249) can0 236#0FFD1000E00000AD
(1701998281.852273) can0 412#2000A3008E00
(1701998281.857692) can0 200#0003C000C000C000
(1701998281.857716) can0 208#00200000C000C000
(1701998281.857719) can0 215#00000000000000
(1701998281.857721) can0 248#0008000800004101
(1701998281.860240) can0 210#00000080800000FF
(1701998281.860266) can0 308#00000006001FFF00
(1701998281.860269) can0 309#1FFFFFFF0FFF00
(1701998281.860671) can0 312#079D079D09AF078A
(1701998281.860859) can0 356#3FFF3FFF086C00
(1701998281.861139) can0 6FA#0155374555303038
(1701998281.861372) can0 7BC#1A0080000F492800
(1701998281.861963) can0 236#0FFD1000F00000B5
(1701998281.862114) can0 315#78100000007B00
(1701998281.867718) can0 300#009B80FF1FFF7FFB
(1701998281.867742) can0 2F1#00807D0000000000
(1701998281.867746) can0 325#081B7FAF000100
(1701998281.867751) can0 328#00008000D880FFFF
(1701998281.868009) can0 330#04FCFCFFFFFF3FFF
(1701998281.870214) can0 212#02C7079DA9563FFF
(1701998281.870240) can0 255#3FFF3FFF3FFFFFFF
(1701998281.870245) can0 308#00000006001FFF00
(1701998281.870664) can0 309#1FFFFFFF0FFF00
(1701998281.870796) can0 312#079D079D09AF078A
(1701998281.870943) can0 380#0001
(1701998281.871208) can0 608#FF49000000000000
(1701998281.871891) can0 236#0FFD10000000003D
(1701998281.871957) can0 412#2000A3008E00
(1701998281.877244) can0 200#0003C000C000C000
(1701998281.877270) can0 208#00200000C000C000
(1701998281.877536) can0 215#00000000000000
(1701998281.877798) can0 248#0008000800004101
(1701998281.879964) can0 210#00000000000000FF
(1701998281.879990) can0 308#00000046011FFF00
(1701998281.880011) can0 309#1FFFFFFF0FFF00
(1701998281.880680) can0 312#679D079D09AF078A
(1701998281.880859) can0 356#3FFF3FFF086C00
(1701998281.881092) can0 4A0#25D833197F0C0044
(1701998281.881339) can0 7BC#1B3218000F000000
(1701998281.882269) can0 236#0FFD100010000025
(1701998281.882294) can0 315#3C100000007B00
(1701998281.887080) can0 325#081B7FAF000100
(1701998281.887270) can0 2F1#00807D0000000000
(1701998281.887551) can0 300#001B80FF9FFF7FFA
(1701998281.887775) can0 328#00008000D880FFFF
(1701998281.888031) can0 330#1CFCFCFFFFFF3FFF
(1701998281.889908) can0 212#02C7079D69563FFF
(1701998281.889932) can0 255#3FFF3FFF3FFFFFFF
(1701998281.890055) can0 308#00000046011FFF00
(1701998281.890685) can0 309#1FFFFFFF0FFF00
(1701998281.890762) can0 312#679D079D09AF078A
(1701998281.890955) can0 380#0001
(1701998281.891237) can0 415#000000000002CB
(1701998281.892229) can0 236#0FFD10002000000D
(1701998281.892252) can0 412#2000A3008E00
(1701998281.897685) can0 200#0003C000C000C000
(1701998281.897710) can0 208#00203000C000C000
(1701998281.897713) can0 215#00000000000003
(1701998281.897715) can0 248#0008000800004101
(1701998281.900006) can0 101#04
(1701998281.900032) can0 210#00000000000000FF
(1701998281.900041) can0 308#00000006001FFF00
(1701998281.900076) can0 309#1FFFFFFF0FFF00
(1701998281.900637) can0 312#079D079D09AF078A
(1701998281.900815) can0 356#3FFF3FFF086C00
(1701998281.901051) can0 7BC#1C00000000000000
(1701998281.902256) can0 236#0FFD100030000015
(1701998281.902281) can0 315#00100000007B00
(1701998281.906958) can0 325#081B7FAF000100
(1701998281.907175) can0 2F1#00807D0000000000
(1701998281.907476) can0 300#001B80FF9FFF7FFF
(1701998281.907729) can0 328#00008000D880FFFF
(1701998281.907966) can0 330#1CFCFCFFFFFF3FFF
(1701998281.909522) can0 212#02C7079D69563FFF
(1701998281.909780) can0 255#3FFF3FFF3FFFFFFF
(1701998281.910006) can0 308#00000006001FFF00
(1701998281.910616) can0 309#1FFFFFFF0FFF00
(1701998281.910779) can0 312#079D079D09AF078A
(1701998281.910942) can0 380#0001
(1701998281.911803) can0 236#0FFD10004000005D
(1701998281.912022) can0 412#2000A3008E00
(1701998281.916965) can0 248#0008000800004101
(1701998281.917183) can0 200#0003C000C000C000
(1701998281.917499) can0 208#00203000C000C000
(1701998281.917715) can0 215#00000000000003
(1701998281.919622) can0 210#00000080800000FF
(1701998281.919665) can0 308#00000046011FFF00
(1701998281.919968) can0 309#1FFFFFFF0FFF00
(1701998281.920558) can0 312#679D079D09AF078A
(1701998281.920755) can0 356#3FFF3FFF086C00
(1701998281.921015) can0 7BC#1D00000000000000
(1701998281.921837) can0 236#0FFD100050000045
(1701998281.921965) can0 315#44100000007B00
(1701998281.927017) can0 325#081B7FAF000100
(1701998281.927223) can0 2F1#00807D0000000000
(1701998281.927428) can0 300#009B80FF1FFF7FFD
(1701998281.927682) can0 328#00008000D880FFFF
(1701998281.927954) can0 330#04FCFCFFFFFF3FFF
(1701998281.929466) can0 212#02C7079DA9563FFF
(1701998281.929695) can0 255#3FFF3FFF3FFFFFFF
(1701998281.929964) can0 308#00000046011FFF00
(1701998281.930526) can0 309#1FFFFFFF0FFF00
(1701998281.930752) can0 312#679D079D09AF078A
(1701998281.930889) can0 380#0001
(1701998281.932236) can0 236#0FFD10006000006D
(1701998281.932259) can0 412#2000A3008E00
(1701998281.936895) can0 3D3#0A00000000000000
(1701998281.937215) can0 200#0003C000C000C000
(1701998281.937413) can0 208#00200000C000C000
(1701998281.937692) can0 215#00000000000000
(1701998281.937906) can0 248#0008000800004101
(1701998281.939524) can0 210#00000080800000FF
(1701998281.939669) can0 308#00000006001FFF00
(1701998281.939952) can0 309#1FFFFFFF0FFF00
(1701998281.940902) can0 312#079D079D09AF078A
(1701998281.940925) can0 356#3FFF3FFF086C00
(1701998281.940937) can0 7BC#1E00000000000000
(1701998281.942111) can0 236#0FFD100070000075
(1701998281.942135) can0 318#00A30002A3220000
(1701998281.942269) can0 315#48100000007B00
(1701998281.947139) can0 408#0000810008000000
(1701998281.947164) can0 2F1#00807D0000000000
(1701998281.947426) can0 300#009B80FF1FFF7FFD
(1701998281.947647) can0 325#081B7FAF000100
(1701998281.947891) can0 328#00008000D880FFFF
(1701998281.948151) can0 330#04FCFCFFFFFF3FFF
(1701998281.949424) can0 212#02C7079DA9563FFF
(1701998281.949660) can0 255#3FFF3FFF3FFFFFFF
(1701998281.949938) can0 308#00000006001FFF00
(1701998281.950496) can0 309#1FFFFFFF0FFF00
(1701998281.950718) can0 312#079D079D09AF078A
(1701998281.950851) can0 380#0001
(1701998281.951106) can0 6FE#FFEFE7E700000000
(1701998281.952000) can0 236#0FFD1000800000FD
(1701998281.952026) can0 412#2000A3008E00
(1701998281.957381) can0 248#0008000800004101
(1701998281.957407) can0 200#0003C000C000C000
(1701998281.957409) can0 208#00200000C000C000
(1701998281.957658) can0 215#00000000000000
(1701998281.959519) can0 210#00000000000000FF
(1701998281.959567) can0 308#00000046011FFF00
(1701998281.959916) can0 309#1FFFFFFF0FFF00
(1701998281.960483) can0 312#679D079D09AF078A
(1701998281.960701) can0 356#3FFF3FFF086C00
(1701998281.960929) can0 6FA#0235353800000000
(1701998281.961206) can0 7BC#1F00000000000000
(1701998281.961920) can0 236#0FFD1000900000E5
(1701998281.961966) can0 5FE#00000000000007DF
(1701998281.962318) can0 315#0C100000007B00
(1701998281.967035) can0 325#081B7FAF000100
(1701998281.967061) can0 2F1#00807D0000000000
(1701998281.967381) can0 300#001B80FF9FFF7FFD
(1701998281.967636) can0 328#00008000D880FFFF
(1701998281.967862) can0 330#1CFCFCFFFFFF3FFF
(1701998281.969542) can0 212#02C7079D69563FFF
(1701998281.969569) can0 255#3FFF3FFF3FFFFFFF
(1701998281.969875) can0 308#00000046011FFF00
(1701998281.970844) can0 309#1FFFFFFF0FFF00
(1701998281.970868) can0 312#679D079D09AF078A
(1701998281.970872) can0 380#0001
(1701998281.971096) can0 608#FF49000000000000
(1701998281.972038) can0 236#0FFD1000A00000CD
(1701998281.972062) can0 6FB#8104040009010080
(1701998281.972232) can0 412#2000A3008E00
(1701998281.977391) can0 248#0008000800004101
(1701998281.977416) can0 200#0003C000C000C000
(1701998281.977418) can0 208#00203000C000C000
(1701998281.977569) can0 215#00000000000003
(1701998281.979672) can0 210#00000000000000FF
(1701998281.979697) can0 308#00000006001FFF00
(1701998281.979873) can0 309#1FFFFFFF0FFF00
(1701998281.980501) can0 312#079D079D09AF078A
(1701998281.980592) can0 356#3FFF3FFF086C00
(1701998281.980875) can0 4A0#25D832197F0C0044
(1701998281.981201) can0 7BC#2000000000000000
(1701998281.981993) can0 236#0FFD1000B00000D5
(1701998281.982019) can0 6FD#018B004010060800
(1701998281.982273) can0 315#50100000007B00
(1701998281.986844) can0 325#081B7FAF000100
(1701998281.987060) can0 300#001B80FF9FFF7FF8
(1701998281.987312) can0 2F1#00807D0000000000
(1701998281.987536) can0 328#00008000D880FFFF
(1701998281.987786) can0 330#1CFCFCFFFFFF3FFF
(1701998281.989869) can0 212#02C7079D69563FFF
(1701998281.989894) can0 255#3FFF3FFF3FFFFFFF
(1701998281.989897) can0 308#00000006001FFF00
(1701998281.990462) can0 309#1FFFFFFF0FFF00
(1701998281.990630) can0 312#079D079D09AF078A
(1701998281.990791) can0 380#0001
(1701998281.991012) can0 415#000000000002CB
(1701998281.992101) can0 236#0FFD1000C000009D
(1701998281.992125) can0 6FF#3980026000000000
(1701998281.992162) can0 412#2000A3008E00
(1701998281.997387) can0 248#0008000800004101
(1701998281.997412) can0 200#0003C000C000C000
(1701998281.997415) can0 208#00203000C000C000
(1701998281.997549) can0 215#00000000000003
(1701998281.999733) can0 101#04
(1701998281.999758) can0 210#00000080800000FF
(1701998281.999760) can0 308#00000046011FFF00
(1701998281.999925) can0 309#1FFFFFFF0FFF00
(1701998282.000403) can0 312#679D079D09AF078A
(1701998282.000582) can0 356#3FFF3FFF086C00
(1701998282.000868) can0 7BC#2100000000000000
(1701998282.001825) can0 236#0FFD1000D0000085
(1701998282.001965) can0 315#14100000007B00
(1701998282.007314) can0 325#081B7FAF000100
(1701998282.007339) can0 300#009B80FF1FFF7FFB
(1701998282.007342) can0 2F1#00807D0000000000
(1701998282.007437) can0 328#00008000D880FFFF
(1701998282.007787) can0 330#04FCFCFFFFFF3FFF
(1701998282.009599) can0 212#02C7079DA9563FFF
(1701998282.009623) can0 255#3FFF3FFF3FFFFFFF
(1701998282.009810) can0 308#00000046011FFF00
(1701998282.010521) can0 309#1FFFFFFF0FFF00
(1701998282.010562) can0 312#679D079D09AF078A
(1701998282.010743) can0 380#0001
(1701998282.011952) can0 412#2000A3008E00
(1701998282.011969) can0 236#0FFD1000E00000AD
(1701998282.017325) can0 248#0008000800004101
(1701998282.017350) can0 200#0003C000C000C000
(1701998282.017354) can0 208#00200000C000C000
(1701998282.017515) can0 215#00000000000000
(1701998282.019804) can0 210#00000080800000FF
(1701998282.019829) can0 308#00000006001FFF00
(1701998282.019831) can0 309#1FFFFFFF0FFF00
(1701998282.020402) can0 312#079D079D09AF078A
(1701998282.020563) can0 356#3FFF3FFF086C00
(1701998282.020825) can0 7BC#2200000000000000
(1701998282.022158) can0 315#18100000007B00
(1701998282.022181) can0 236#0FFD1000F00000B5
(1701998282.027226) can0 325#081B7FAF000100
(1701998282.027250) can0 300#009B80FF1FFF8000
(1701998282.027253) can0 2F1#00807D0000000000
(1701998282.027522) can0 328#00008000D880FFFF
(1701998282.027754) can0 330#04FCFCFFFFFF3FFF
(1701998282.029796) can0 212#02C7079DA9563FFF
(1701998282.029820) can0 255#3FFF3FFF3FFFFFFF
(1701998282.029823) can0 308#00000006001FFF00
(1701998282.030383) can0 309#1FFFFFFF0FFF00
(1701998282.030539) can0 312#079D079D09AF078A
(1701998282.030680) can0 380#0001
(1701998282.031703) can0 412#2000A3008E00
(1701998282.031886) can0 236#0FFD10000000003D
(1701998282.036853) can0 3D3#0A00000000000000
(1701998282.037033) can0 200#0003C000C000C000
(1701998282.037274) can0 208#00200000C000C000
(1701998282.037460) can0 215#00000000000000
(1701998282.037709) can0 248#0008000800004101
(1701998282.039324) can0 210#00000000000000FF
(1701998282.039487) can0 308#00000046011FFF00
(1701998282.039735) can0 309#1FFFFFFF0FFF00
(1701998282.040715) can0 312#679D079D09AF078A
(1701998282.040738) can0 356#3FFF3FFF086C00
(1701998282.040749) can0 7BC#2300000000000000
(1701998282.041842) can0 236#0FFD100010000025
(1701998282.041995) can0 318#00A30002A3220000
(1701998282.042268) can0 315#5C100000007A00
(1701998282.047247) can0 408#0000810008000000
(1701998282.047272) can0 325#081B7FAF000100
(1701998282.047274) can0 2F1#00807D0000000000
(1701998282.047453) can0 300#001B80FF9FFF7FFD
(1701998282.047701) can0 328#00008000D880FFFF
(1701998282.047922) can0 330#1CFCFCFFFFFF3FFF
(1701998282.049745) can0 212#02C7079D69563FFF
(1701998282.049770) can0 255#3FFF3FFF3FFFFFFF
(1701998282.049772) can0 308#00000046011FFF00
(1701998282.050296) can0 309#1FFFFFFF0FFF00
(1701998282.050505) can0 312#679D079D09AF078A
(1701998282.050649) can0 380#0001
(1701998282.050922) can0 6FE#FFEFE7E700000000
(1701998282.051694) can0 412#2000A3008E00
(1701998282.051846) can0 236#0FFD10002000000D
(1701998282.057271) can0 248#0008000800004101
(1701998282.057296) can0 200#0003C000C000C000
(1701998282.057298) can0 208#00203000C000C000
(1701998282.057463) can0 215#00000000000003
(1701998282.059413) can0 210#00000000000000FF
(1701998282.059438) can0 308#00000006001FFF00
(1701998282.059729) can0 309#1FFFFFFF0FFF00
(1701998282.060263) can0 312#079D079D09AF078A
(1701998282.060479) can0 356#3FFF3FFF086C00
(1701998282.060729) can0 6FA#004A413332553146
(1701998282.060998) can0 7BC#2400000000000000
(1701998282.061728) can0 315#60100000007B00
(1701998282.061887) can0 236#0FFD100030000015
(1701998282.066646) can0 325#081B7FAF000100
(1701998282.067025) can0 300#001B80FF9FFF7FFC
(1701998282.067227) can0 2F1#00807D0000000000
(1701998282.067482) can0 328#00008000D880FFFF
(1701998282.067743) can0 330#1CFCFCFFFFFF3FFF
(1701998282.069634) can0 212#02C7079D69563FFF
(1701998282.069657) can0 255#3FFF3FFF3FFFFFFF
(1701998282.069660) can0 308#00000006001FFF00
(1701998282.070346) can0 309#1FFFFFFF0FFF00
(1701998282.070442) can0 312#079D079D09AF078A
(1701998282.070623) can0 380#0001
(1701998282.070883) can0 608#FF49000000000000
(1701998282.071976) can0 412#2000A3008E00
(1701998282.072000) can0 236#0FFD10004000005D
(1701998282.077308) can0 248#0008000800004101
(1701998282.077333) can0 200#0003C000C000C000
(1701998282.077336) can0 208#00203000C000C000
(1701998282.077412) can0 215#00000000000003
(1701998282.079581) can0 210#00000080800000FF
(1701998282.079607) can0 308#00000046011FFF00
(1701998282.079609) can0 309#1FFFFFFF0FFF00
(1701998282.080649) can0 312#679D079D09AF078A
(1701998282.080672) can0 356#3FFF3FFF086C00
(1701998282.080675) can0 4A0#25D832197F0C0044
(1701998282.080956) can0 7BC#2500000000000000
(1701998282.081698) can0 315#24100000007B00
(1701998282.081764) can0 236#0FFD100050000045
(1701998282.087256) can0 325#081B7FAF000100
(1701998282.087281) can0 300#009B80FF1FFF8002
(1701998282.087284) can0 2F1#00807D0000000000
(1701998282.087495) can0 328#00008000D880FFFF
(1701998282.087728) can0 330#04FCFCFFFFFF3FFF
(1701998282.089829) can0 212#02C7079DA9563FFF
(1701998282.089855) can0 255#3FFF3FFF3FFFFFFF
(1701998282.089858) can0 308#00000046011FFF00
(1701998282.090201) can0 309#1FFFFFFF0FFF00
(1701998282.090447) can0 312#679D079D09AF078A
(1701998282.090592) can0 380#0001
(1701998282.090825) can0 415#000000000002CB
(1701998282.092135) can0 412#2000A3008E00
(1701998282.092161) can0 236#0FFD10006000006D
(1701998282.096695) can0 248#0008000800004101
(1701998282.096966) can0 200#0003C000C000C000
(1701998282.097217) can0 208#00200000C000C000
(1701998282.097451) can0 215#00000000000000
(1701998282.099511) can0 101#04
(1701998282.099537) can0 210#00000080800000FF
(1701998282.099539) can0 308#00000006001FFF00
(1701998282.099741) can0 309#1FFFFFFF0FFF00
(1701998282.100204) can0 312#079D079D09AF078A
(1701998282.100382) can0 356#3FFF3FFF086C00
(1701998282.100680) can0 7BC#2600000000000000
(1701998282.101973) can0 315#28100000007B00
(1701998282.101997) can0 236#0FFD100070000075
(1701998282.107106) can0 325#081B7FAF000100
(1701998282.107132) can0 300#009B80FF1FFF7FFB
(1701998282.107206) can0 2F1#00807D0000000000
(1701998282.107487) can0 328#00008000D880FFFF
(1701998282.107746) can0 330#04FCFCFFFFFF3FFF
(1701998282.109543) can0 212#02C7079DA9563FFF
(1701998282.109567) can0 255#3FFF3FFF3FFFFFFF
(1701998282.109582) can0 308#00000006001FFF00
(1701998282.110385) can0 309#1FFFFFFF0FFF00
(1701998282.110409) can0 312#079D079D09AF078A
(1701998282.110539) can0 380#0001
(1701998282.111543) can0 412#2000A3008E00
(1701998282.111710) can0 236#0FFD1000800000FD
(1701998282.116651) can0 248#0008000800004101
(1701998282.116962) can0 200#0003C000C000C000
(1701998282.117215) can0 208#00200000C000C000
(1701998282.117433) can0 215#00000000000000
(1701998282.119726) can0 210#00000000000000FF
(1701998282.119751) can0 308#00000046011FFF00
(1701998282.119753) can0 309#1FFFFFFF0FFF00
(1701998282.120214) can0 312#679D079D09AF078A
(1701998282.120385) can0 356#3FFF3FFF086C00
(1701998282.120647) can0 7BC#2700000000000000
(1701998282.121548) can0 315#6C100000007B00
(1701998282.121771) can0 236#0FFD1000900000E5
(1701998282.127158) can0 325#081B7FAF000100
(1701998282.127184) can0 300#001B80FF9FFF7FFC
(1701998282.127188) can0 2F1#00807D0000000000
(1701998282.127474) can0 328#00008000D880FFFF
(1701998282.127733) can0 330#1CFCFCFFFFFF3FFF
(1701998282.129526) can0 212#02C7079D69563FFF
(1701998282.129551) can0 255#3FFF3FFF3FFFFFFF
(1701998282.129553) can0 308#00000046011FFF00
(1701998282.130196) can0 309#1FFFFFFF0FFF00
(1701998282.130354) can0 312#679D079D09AF078A
(1701998282.130511) can0 380#0001
(1701998282.131516) can0 412#2000A3008E00
(1701998282.131704) can0 236#0FFD1000A00000CD
(1701998282.137182) can0 3D3#0A00000000000000
(1701998282.137209) can0 248#0008000800004101
(1701998282.137215) can0 200#0003C000C000C000
(1701998282.137237) can0 208#00203000C000C000
(1701998282.137513) can0 215#00000000000003
(1701998282.139688) can0 210#00000000000000FF
(1701998282.139713) can0 308#00000006001FFF00
(1701998282.139715) can0 309#1FFFFFFF0FFF00
(1701998282.140149) can0 312#079D079D09AF078A
(1701998282.140334) can0 356#3FFF3FFF086C00
(1701998282.140595) can0 7BC#2800000000000000
(1701998282.141961) can0 318#00A30002A3220000
(1701998282.141985) can0 236#0FFD1000B00000D5
(1701998282.141988) can0 315#30100000007B00
(1701998282.147158) can0 408#0000810008000000
(1701998282.147185) can0 325#081B7FAF000100
(1701998282.147190) can0 300#001B80FF9FFF7FFD
(1701998282.147193) can0 2F1#00807D0000000000
(1701998282.147508) can0 328#00008000D880FFFF
(1701998282.147728) can0 330#1CFCFCFFFFFF3FFF
(1701998282.149701) can0 212#02C7079D69563FFF
(1701998282.149726) can0 255#3FFF3FFF3FFFFFFF
(1701998282.149729) can0 308#00000006001FFF00
(1701998282.150159) can0 309#1FFFFFFF0FFF00
(1701998282.150323) can0 312#079D079D09AF078A
(1701998282.150503) can0 380#0001
(1701998282.150741) can0 6FE#FFEFE7E700000000
(1701998282.151443) can0 412#2000A3008E00
(1701998282.151736) can0 236#0FFD1000C000009D
(1701998282.157071) can0 248#0008000800004101
(1701998282.157098) can0 200#0003C000C000C000
(1701998282.157130) can0 208#00203000C000C000
(1701998282.157446) can0 215#00000000000003
(1701998282.159335) can0 210#00000080800000FF
(1701998282.159359) can0 308#00000046011FFF00
(1701998282.159521) can0 309#1FFFFFFF0FFF00
(1701998282.160081) can0 312#679D079D09AF078A
(1701998282.160300) can0 356#3FFF3FFF086C00
(1701998282.160586) can0 6FA#0155374555303038
(1701998282.160794) can0 7BC#2900000000000000
(1701998282.161883) can0 315#74100000007B00
(1701998282.161906) can0 236#0FFD1000D0000085
(1701998282.166992) can0 325#081B7FAF000100
(1701998282.167017) can0 300#009B80FF1FFF7FF8
(1701998282.167203) can0 2F1#00807D0000000000
(1701998282.167456) can0 328#00008000D880FFFF
(1701998282.167698) can0 330#04FCFCFFFFFF3FFF
(1701998282.169515) can0 212#02C7079DA9563FFF
(1701998282.169540) can0 255#3FFF3FFF3FFFFFFF
(1701998282.169542) can0 308#00000046011FFF00
(1701998282.170050) can0 309#1FFFFFFF0FFF00
(1701998282.170281) can0 312#679D079D09AF078A
(1701998282.170470) can0 380#0001
(1701998282.170706) can0 608#FF49000000000000
(1701998282.171423) can0 412#2000A3008E00
(1701998282.171702) can0 236#0FFD1000E00000AD
(1701998282.176504) can0 248#0008000800004101
(1701998282.176971) can0 200#0003C000C000C000
(1701998282.177198) can0 208#00200000C000C000
(1701998282.177431) can0 215#00000000000000
(1701998282.179022) can0 210#00000080800000FF
(1701998282.179216) can0 308#00000006001FFF00
(1701998282.179495) can0 309#1FFFFFFF0FFF00
(1701998282.180156) can0 312#079D079D09AF078A
(1701998282.180192) can0 356#3FFF3FFF086C00
(1701998282.180493) can0 4A0#25D832197F0C0044
(1701998282.180762) can0 7BC#2A00000000000000
(1701998282.181450) can0 315#78100000007B00
(1701998282.181725) can0 236#0FFD1000F00000B5
(1701998282.187062) can0 325#081B7FAF000100
(1701998282.187079) can0 300#009B80FF1FFF7FF6
(1701998282.187143) can0 2F1#00807D0000000000
(1701998282.187465) can0 328#00008000D880FFFF
(1701998282.187715) can0 330#04FCFCFFFFFF3FFF
(1701998282.189340) can0 212#02C7079DA9563FFF
(1701998282.189363) can0 255#3FFF3FFF3FFFFFFF
(1701998282.189395) can0 308#00000006001FFF00
(1701998282.190330) can0 309#1FFFFFFF0FFF00
(1701998282.190353) can0 312#079D079D09AF078A
(1701998282.190372) can0 380#0001
(1701998282.190594) can0 415#000000000002CB
(1701998282.191353) can0 412#2000A3008E00
(1701998282.191867) can0 236#0FFD10000000003D
(1701998282.196446) can0 248#0008000800004101
(1701998282.196888) can0 200#0003C000C000C000
(1701998282.197138) can0 208#00200000C000C000
(1701998282.197440) can0 215#00000000000000
(1701998282.199502) can0 101#04
(1701998282.199528) can0 210#00000000000000FF
(1701998282.199531) can0 308#00000046011FFF00
(1701998282.199567) can0 309#1FFFFFFF0FFF00
(1701998282.200074) can0 312#679D079D09AF078A
(1701998282.200173) can0 356#3FFF3FFF086C00
(1701998282.200526) can0 7BC#2B00000000000000
(1701998282.201795) can0 315#3C100000007B00
(1701998282.201818) can0 236#0FFD100010000025
(1701998282.206416) can0 325#081B7FAF000100
(1701998282.206988) can0 300#001B80FF9FFF8000
(1701998282.207211) can0 2F1#00807D0000000000
(1701998282.207438) can0 328#00008000D880FFFF
(1701998282.207685) can0 330#1CFCFCFFFFFF3FFF
(1701998282.208944) can0 212#02C7079D69563FFF
(1701998282.209175) can0 255#3FFF3FFF3FFFFFFF
(1701998282.209447) can0 308#00000046011FFF00
(1701998282.210046) can0 309#1FFFFFFF0FFF00
(1701998282.210215) can0 312#679D079D09AF078A
(1701998282.210391) can0 380#0001
(1701998282.211311) can0 412#2000A3008E00
(1701998282.211733) can0 236#0FFD10002000000D
(1701998282.216488) can0 248#0008000800004101
(1701998282.216990) can0 200#0003C000C000C000
(1701998282.217163) can0 208#00203000C000C000
(1701998282.217395) can0 215#00000000000003
(1701998282.219005) can0 210#00000000000000FF
(1701998282.219102) can0 308#00000006001FFF00
(1701998282.219432) can0 309#1FFFFFFF0FFF00
(1701998282.220080) can0 312#079D079D09AF078A
(1701998282.220124) can0 356#3FFF3FFF086C00
(1701998282.220482) can0 7BC#2C00000000000000
(1701998282.221758) can0 315#00100000007B00
(1701998282.221781) can0 236#0FFD100030000015
(1701998282.226325) can0 325#081B7FAF000100
(1701998282.227037) can0 300#001B80FF9FFF7FFE
(1701998282.227206) can0 2F1#00807D0000000000
(1701998282.227469) can0 328#00008000D880FFFF
(1701998282.227680) can0 330#1CFCFCFFFFFF3FFF
(1701998282.229336) can0 212#02C7079D69563FFF
(1701998282.229360) can0 255#3FFF3FFF3FFFFFFF
(1701998282.229362) can0 308#00000006001FFF00
(1701998282.230031) can0 309#1FFFFFFF0FFF00
(1701998282.230114) can0 312#079D079D09AF078A
(1701998282.230324) can0 380#0001
(1701998282.231515) can0 412#2000A3008E00
(1701998282.231678) can0 236#0FFD10004000005D
(1701998282.236397) can0 3D3#0A00000000000000
(1701998282.236614) can0 248#0008000800004101
(1701998282.236882) can0 200#0003C000C000C000
(1701998282.237160) can0 208#00203000C000C000
(1701998282.237387) can0 215#00000000000003
(1701998282.239502) can0 210#00000080800000FF
(1701998282.239528) can0 308#00000046011FFF00
(1701998282.239530) can0 309#1FFFFFFF0FFF00
(1701998282.239979) can0 312#679D079D09AF078A
(1701998282.240143) can0 356#3FFF3FFF086C00
(1701998282.240405) can0 7BC#2D00000000000000
(1701998282.241432) can0 318#00A30002A3220000
(1701998282.241596) can0 315#44100000007B00
(1701998282.241841) can0 236#0FFD100050000045
(1701998282.246432) can0 408#0000810008000000
(1701998282.246483) can0 325#081B7FAF000100
(1701998282.246955) can0 300#009B80FF1FFF7FFB
(1701998282.247176) can0 2F1#00807D0000000000
(1701998282.247431) can0 328#00008000D880FFFF
(1701998282.247688) can0 330#04FCFCFFFFFF3FFF
(1701998282.248881) can0 212#02C7079DA9563FFF
(1701998282.249121) can0 255#3FFF3FFF3FFFFFFF
(1701998282.249343) can0 308#00000046011FFF00
(1701998282.250051) can0 309#1FFFFFFF0FFF00
(1701998282.250090) can0 312#679D079D09AF078A
(1701998282.250269) can0 380#0001
(1701998282.250524) can0 6FE#FFEFE7E700000000
(1701998282.251232) can0 412#2000A3008E00
(1701998282.251879) can0 236#0FFD10006000006D
(1701998282.256467) can0 248#0008000800004101
(1701998282.256977) can0 200#0003C000C000C000
(1701998282.257100) can0 208#00200000C000C000
(1701998282.257334) can0 215#00000000000000
(1701998282.258809) can0 210#00000080800000FF
(1701998282.259066) can0 308#00000006001FFF00
(1701998282.259291) can0 309#1FFFFFFF0FFF00
(1701998282.259896) can0 312#079D079D09AF078A
(1701998282.260068) can0 356#3FFF3FFF086C00
(1701998282.260279) can0 6FA#0235353800000000
(1701998282.260738) can0 7BC#2E00000000000000
(1701998282.261412) can0 5FE#00000000000007DF
(1701998282.261435) can0 315#48100000007B00
(1701998282.261719) can0 236#0FFD100070000075
(1701998282.266903) can0 325#081B7FAF000100
(1701998282.266929) can0 300#009B80FF1FFF7FFD
(1701998282.267200) can0 2F1#00807D0000000000
(1701998282.267416) can0 328#00008000D880FFFF
(1701998282.267705) can0 330#04FCFCFFFFFF3FFF
(1701998282.269253) can0 212#02C7079DA9563FFF
(1701998282.269276) can0 255#3FFF3FFF3FFFFFFF
(1701998282.269281) can0 308#00000006001FFF00
(1701998282.269946) can0 309#1FFFFFFF0FFF00
(1701998282.270129) can0 312#079D079D09AF078A
(1701998282.270266) can0 380#0001
(1701998282.270515) can0 608#FF49000000000000
(1701998282.271228) can0 6FB#8104040009010080
(1701998282.271432) can0 412#2000A3008E00
(1701998282.271701) can0 236#0FFD1000800000FD
(1701998282.276899) can0 248#0008000800004101
(1701998282.276924) can0 200#0003C000C000C000
(1701998282.277142) can0 208#00200000C000C000
(1701998282.277396) can0 215#00000000000000
(1701998282.279212) can0 210#00000000000000FF
(1701998282.279236) can0 308#00000046011FFF00
(1701998282.279254) can0 309#1FFFFFFF0FFF00
(1701998282.279931) can0 312#679D079D09AF078A
(1701998282.280116) can0 356#3FFF3FFF086C00
(1701998282.280279) can0 4A0#25D832197F0C0044
(1701998282.280558) can0 7BC#2F00000000000000
(1701998282.281599) can0 6FD#018B004010060800
(1701998282.281623) can0 315#0C100000007B00
(1701998282.281625) can0 236#0FFD1000900000E5
(1701998282.286900) can0 325#081B7FAF000100
(1701998282.286926) can0 300#001B80FF9FFF7FFB
(1701998282.287156) can0 2F1#00807D0000000000
(1701998282.287413) can0 328#00008000D880FFFF
(1701998282.287673) can0 330#1CFCFCFFFFFF3FFF
(1701998282.289196) can0 212#02C7079D69563FFF
(1701998282.289209) can0 255#3FFF3FFF3FFFFFFF
(1701998282.289222) can0 308#00000046011FFF00
(1701998282.289924) can0 309#1FFFFFFF0FFF00
(1701998282.290115) can0 312#679D079D09AF078A
(1701998282.290140) can0 380#0001
(1701998282.290448) can0 415#000000000002CB
(1701998282.291256) can0 6FF#3980026000000000
(1701998282.291464) can0 412#2000A3008E00
(1701998282.291683) can0 236#0FFD1000A00000CD
(1701998282.296871) can0 248#0008000800004101
(1701998282.296896) can0 200#0003C000C000C000
(1701998282.297131) can0 208#00203000C000C000
(1701998282.297367) can0 215#00000000000003
(1701998282.299288) can0 101#04
(1701998282.299315) can0 210#00000000000000FF
(1701998282.299323) can0 308#00000006001FFF00
(1701998282.299344) can0 309#1FFFFFFF0FFF00
(1701998282.299847) can0 312#079D079D09AF078A
(1701998282.300033) can0 356#3FFF3FFF086C00
(1701998282.300279) can0 7BC#3000000000000000
(1701998282.301531) can0 315#50100000007B00
(1701998282.301682) can0 236#0FFD1000B00000D5
(1701998282.306548) can0 325#081B7FAF000100
(1701998282.306940) can0 300#001B80FF9FFF7FFE
(1701998282.307165) can0 2F1#00807D0000000000
(1701998282.307392) can0 328#00008000D880FFFF
(1701998282.307650) can0 330#1CFCFCFFFFFF3FFF
(1701998282.309184) can0 212#02C7079D69563FFF
(1701998282.309208) can0 255#3FFF3FFF3FFFFFFF
(1701998282.309213) can0 308#00000006001FFF00
(1701998282.309929) can0 309#1FFFFFFF0FFF00
(1701998282.309969) can0 312#079D079D09AF078A
(1701998282.310158) can0 380#0001
(1701998282.311424) can0 412#2000A3008E00
(1701998282.311650) can0 236#0FFD1000C000009D
(1701998282.316189) can0 248#0008000800004101
(1701998282.317020) can0 200#0003C000C000C000
(1701998282.317069) can0 208#00203000C000C000
(1701998282.317383) can0 215#00000000000003
(1701998282.319171) can0 210#00000080800000FF
(1701998282.319195) can0 308#00000046011FFF00
(1701998282.319197) can0 309#1FFFFFFF0FFF00
(1701998282.319818) can0 312#679D079D09AF078A
(1701998282.319977) can0 356#3FFF3FFF086C00
(1701998282.320256) can0 7BC#3100000000000000
(1701998282.321453) can0 315#14100000007B00
(1701998282.321650) can0 236#0FFD1000D0000085
(1701998282.326669) can0 325#081B7FAF000100
(1701998282.326900) can0 300#009B80FF1FFF7FFF
(1701998282.327187) can0 2F1#00807D0000000000
(1701998282.327404) can0 328#00008000D880FFFF
(1701998282.327664) can0 330#04FCFCFFFFFF3FFF
(1701998282.329172) can0 212#02C7079DA9563FFF
(1701998282.329196) can0 255#3FFF3FFF3FFFFFFF
(1701998282.329199) can0 308#00000046011FFF00
(1701998282.329829) can0 309#1FFFFFFF0FFF00
(1701998282.329981) can0 312#679D079D09AF078A
(1701998282.330126) can0 380#0001
(1701998282.331468) can0 412#2000A3008E00
(1701998282.331650) can0 236#0FFD1000E00000AD
(1701998282.336718) can0 3D3#0A00000000000000
(1701998282.336743) can0 248#0008000800004101
(1701998282.336882) can0 200#0003C000C000C000
(1701998282.337162) can0 208#00200000C000C000
(1701998282.337364) can0 215#00000000000000
(1701998282.338997) can0 210#00000080800000FF
(1701998282.339022) can0 308#00000006001FFF00
(1701998282.339198) can0 309#1FFFFFFF0FFF00
(1701998282.339819) can0 312#079D079D09AF078A
(1701998282.339915) can0 356#3FFF3FFF086C00
(1701998282.340205) can0 7BC#3200000000000000
(1701998282.341604) can0 318#00A30002A3220000
(1701998282.341628) can0 315#18100000007B00
(1701998282.341630) can0 236#0FFD1000F00000B5
(1701998282.346771) can0 408#0000810008000000
(1701998282.346797) can0 325#081B7FAF000100
(1701998282.346823) can0 300#009B80FF1FFF7FFD
(1701998282.347142) can0 2F1#00807D0000000000
(1701998282.347415) can0 328#00008000D880FFFF
(1701998282.347647) can0 330#04FCFCFFFFFF3FFF
(1701998282.349134) can0 212#02C7079DA9563FFF
(1701998282.349157) can0 255#3FFF3FFF3FFFFFFF
(1701998282.349160) can0 308#00000006001FFF00
(1701998282.349820) can0 309#1FFFFFFF0FFF00
(1701998282.349889) can0 312#079D079D09AF078A
(1701998282.350090) can0 380#0001
(1701998282.350354) can0 6FE#FFEFE7E700000000
(1701998282.351532) can0 412#2000A3008E00
(1701998282.351689) can0 236#0FFD10000000003D
(1701998282.356770) can0 248#0008000800004101
(1701998282.356814) can0 200#0003C000C000C000
(1701998282.357130) can0 208#00200000C000C000
(1701998282.357345) can0 215#00000000000000
(1701998282.358652) can0 210#00000000000000FF
(1701998282.358913) can0 308#00000046011FFF00
(1701998282.359175) can0 309#1FFFFFFF0FFF00
(1701998282.360090) can0 312#679D079D09AF078A
(1701998282.360114) can0 356#3FFF3FFF086C00
(1701998282.360116) can0 6FA#004A413332553146
(1701998282.360417) can0 7BC#3300000000000000
(1701998282.361128) can0 315#5C100000007B00
(1701998282.362098) can0 236#0FFD100010000025
(1701998282.366562) can0 325#081B7FAF000100
(1701998282.366916) can0 300#001B80FF9FFF7FF7
(1701998282.367166) can0 2F1#00807D0000000000
(1701998282.367429) can0 328#00008000D880FFFF
(1701998282.367654) can0 330#1CFCFCFFFFFF3FFF
(1701998282.369055) can0 212#02C7079D69563FFF
(1701998282.369079) can0 255#3FFF3FFF3FFFFFFF
(1701998282.369083) can0 308#00000046011FFF00
(1701998282.369839) can0 309#1FFFFFFF0FFF00
(1701998282.369863) can0 312#679D079D09AF078A
(1701998282.370084) can0 380#0001
(1701998282.370302) can0 608#FF49000000000000
(1701998282.371257) can0 412#2000A3008E00
(1701998282.371686) can0 236#0FFD10002000000D
(1701998282.376734) can0 248#0008000800004101
(1701998282.376828) can0 200#0003C000C000C000
(1701998282.377107) can0 208#00203000C000C000
(1701998282.377337) can0 215#00000000000003
(1701998282.379258) can0 210#00000000000000FF
(1701998282.379284) can0 308#00000006001FFF00
(1701998282.379287) can0 309#1FFFFFFF0FFF00
(1701998282.379686) can0 312#079D079D09AF078A
(1701998282.379859) can0 356#3FFF3FFF086C00
(1701998282.380107) can0 4A0#25D832197F0C0044
(1701998282.380378) can0 7BC#3400000000000000
(1701998282.381447) can0 315#60100000007B00
(1701998282.381656) can0 236#0FFD100030000015
(1701998282.386224) can0 325#081B7FAF000100
(1701998282.387190) can0 300#001B80FF9FFF7FF9
(1701998282.387213) can0 2F1#00807D0000000000
(1701998282.387378) can0 328#00008000D880FFFF
(1701998282.387652) can0 330#1CFCFCFFFFFF3FFF
(1701998282.389012) can0 212#02C7079D69563FFF
(1701998282.389029) can0 255#3FFF3FFF3FFFFFFF
(1701998282.389047) can0 308#00000006001FFF00
(1701998282.389693) can0 309#1FFFFFFF0FFF00
(1701998282.389882) can0 312#079D079D09AF078A
(1701998282.390079) can0 380#0001
(1701998282.390277) can0 415#000000000002CB
(1701998282.391172) can0 412#2000A3008E00
(1701998282.391672) can0 236#0FFD10004000005D
(1701998282.396725) can0 248#0008000800004101
(1701998282.396903) can0 200#0003C000C000C000
(1701998282.397139) can0 208#00203000C000C000
(1701998282.397354) can0 215#00000000000003
(1701998282.398635) can0 101#04
(1701998282.398661) can0 210#00000080800000FF
(1701998282.398946) can0 308#00000046011FFF00
(1701998282.399206) can0 309#1FFFFFFF0FFF00
(1701998282.399634) can0 312#679D079D09AF078A
(1701998282.399828) can0 356#3FFF3FFF086C00
(1701998282.400077) can0 7BC#3500000000000000
(1701998282.401402) can0 315#24100000007B00
(1701998282.401633) can0 236#0FFD100050000045
(1701998282.406433) can0 325#081B7FAF000100
(1701998282.406911) can0 300#009B80FF1FFF8000
(1701998282.407127) can0 2F1#00807D0000000000
(1701998282.407405) can0 328#00008000D880FFFF
(1701998282.407641) can0 330#04FCFCFFFFFF3FFF
(1701998282.409225) can0 212#02C7079DA9563FFF
(1701998282.409250) can0 255#3FFF3FFF3FFFFFFF
(1701998282.409253) can0 308#00000046011FFF00
(1701998282.409612) can0 309#1FFFFFFF0FFF00
(1701998282.409835) can0 312#679D079D09AF078A
(1701998282.409982) can0 380#0001
(1701998282.411314) can0 412#2000A3008E00
(1701998282.411568) can0 236#0FFD10006000006D
(1701998282.416652) can0 248#0008000800004101
(1701998282.416851) can0 200#0003C000C000C000
(1701998282.417116) can0 208#00200000C000C000
(1701998282.417340) can0 215#00000000000000
(1701998282.418974) can0 210#00000080800000FF
(1701998282.419000) can0 308#00000006001FFF00
(1701998282.419022) can0 309#1FFFFFFF0FFF00
(1701998282.419619) can0 312#079D079D09AF078A
(1701998282.419804) can0 356#3FFF3FFF086C00
(1701998282.420069) can0 7BC#3600000000000000
(1701998282.421213) can0 315#28100000007B00
(1701998282.421687) can0 236#0FFD100070000075
(1701998282.426002) can0 325#081B7FAF000100
(1701998282.426904) can0 300#009B80FF1FFF7FFF
(1701998282.427139) can0 2F1#00807D0000000000
(1701998282.427405) can0 328#00008000D880FFFF
(1701998282.427608) can0 330#04FCFCFFFFFF3FFF
(1701998282.428525) can0 212#02C7079DA9563FFF
(1701998282.428775) can0 255#3FFF3FFF3FFFFFFF
(1701998282.429084) can0 308#00000006001FFF00
(1701998282.429983) can0 309#1FFFFFFF0FFF00
(1701998282.430006) can0 312#079D079D09AF078A
(1701998282.430009) can0 380#0001
(1701998282.431203) can0 412#2000A3008E00
(1701998282.431663) can0 236#0FFD1000800000FD
(1701998282.436054) can0 3D3#0A00000000000000
(1701998282.436215) can0 248#0008000800004101
(1701998282.437310) can0 200#0003C000C000C000
(1701998282.437333) can0 208#00200000C000C000
(1701998282.437335) can0 215#00000000000000
(1701998282.438581) can0 210#00000000000000FF
(1701998282.438678) can0 308#00000046011FFF00
(1701998282.439002) can0 309#1FFFFFFF0FFF00
(1701998282.439956) can0 312#679D079D09AF078A
(1701998282.439986) can0 356#3FFF3FFF086C00
(1701998282.439997) can0 7BC#3700000000000000
(1701998282.441166) can0 318#00A30002A3220000
(1701998282.441192) can0 315#6C100000007B00
(1701998282.441661) can0 236#0FFD1000900000E5
(1701998282.446569) can0 408#0000810008000000
(1701998282.446595) can0 325#081B7FAF000100
(1701998282.446864) can0 300#001B80FF9FFF7FF8
(1701998282.447131) can0 2F1#00807D0000000000
(1701998282.447390) can0 328#00008000D880FFFF
(1701998282.447627) can0 330#1CFCFCFFFFFF3FFF
(1701998282.448506) can0 212#02C7079D69563FFF
(1701998282.448710) can0 255#3FFF3FFF3FFFFFFF
(1701998282.448952) can0 308#00000046011FFF00
(1701998282.449547) can0 309#1FFFFFFF0FFF00
(1701998282.449731) can0 312#679D079D09AF078A
(1701998282.449881) can0 380#0001
(1701998282.450138) can0 6FE#FFEFE7E700000000
(1701998282.451225) can0 412#2000A3008E00
(1701998282.451659) can0 236#0FFD1000A00000CD
(1701998282.456587) can0 248#0008000800004101
(1701998282.456835) can0 200#0003C000C000C000
(1701998282.457079) can0 208#00203000C000C000
(1701998282.457310) can0 215#00000000000003
(1701998282.459085) can0 210#00000000000000FF
(1701998282.459111) can0 308#00000006001FFF00
(1701998282.459116) can0 309#1FFFFFFF0FFF00
(1701998282.459544) can0 312#079D079D09AF078A
(1701998282.459708) can0 356#3FFF3FFF086C00
(1701998282.459961) can0 6FA#0155374555303038
(1701998282.460246) can0 7BC#3800000000000000
(1701998282.461287) can0 315#30100000007B00
(1701998282.461641) can0 236#0FFD1000B00000D5
(1701998282.466512) can0 325#081B7FAF000100
(1701998282.466872) can0 300#001B80FF9FFF7FFE
(1701998282.467122) can0 2F1#00807D0000000000
(1701998282.467373) can0 328#00008000D880FFFF
(1701998282.467586) can0 330#1CFCFCFFFFFF3FFF
(1701998282.468865) can0 212#02C7079D69563FFF
(1701998282.468888) can0 255#3FFF3FFF3FFFFFFF
(1701998282.468891) can0 308#00000006001FFF00
(1701998282.469497) can0 309#1FFFFFFF0FFF00
(1701998282.469720) can0 312#079D079D09AF078A
(1701998282.469884) can0 380#0001
(1701998282.470112) can0 608#FF49000000000000
(1701998282.471302) can0 412#2000A3008E00
(1701998282.471627) can0 236#0FFD1000C000009D
(1701998282.475889) can0 248#0008000800004101
(1701998282.476863) can0 200#0003C000C000C000
(1701998282.477078) can0 208#00203000C000C000
(1701998282.477325) can0 215#00000000000003
(1701998282.478819) can0 210#00000080800000FF
(1701998282.478843) can0 308#00000046011FFF00
(1701998282.478854) can0 309#1FFFFFFF0FFF00
(1701998282.479524) can0 312#679D079D09AF078A
(1701998282.479714) can0 356#3FFF3FFF086C00
(1701998282.479947) can0 4A0#25D832197F0C0044
(1701998282.480211) can0 7BC#3900000000000000
(1701998282.481212) can0 315#74100000007B00
(1701998282.481663) can0 236#0FFD1000D0000085
(1701998282.486459) can0 325#081B7FAF000100
(1701998282.486900) can0 300#009B80FF1FFF7FFD
(1701998282.487042) can0 2F1#00807D0000000000
(1701998282.487317) can0 328#00008000D880FFFF
(1701998282.487613) can0 330#04FCFCFFFFFF3FFF
(1701998282.488828) can0 212#02C7079DA9563FFF
(1701998282.488852) can0 255#3FFF3FFF3FFFFFFF
(1701998282.488857) can0 308#00000046011FFF00
(1701998282.489470) can0 309#1FFFFFFF0FFF00
(1701998282.489678) can0 312#679D079D09AF078A
(1701998282.489816) can0 380#0001
(1701998282.490046) can0 415#000000000002CB
(1701998282.490872) can0 412#2000A3008E00
(1701998282.491629) can0 236#0FFD1000E00000AD
(1701998282.496501) can0 248#0008000800004101
(1701998282.496865) can0 200#0003C000C000C000
(1701998282.497084) can0 208#00200000C000C000
(1701998282.497328) can0 215#00000000000000
(1701998282.498421) can0 101#04
(1701998282.498444) can0 210#00000080800000FF
(1701998282.498726) can0 308#00000006001FFF00
(1701998282.499084) can0 309#1FFFFFFF0FFF00
(1701998282.499400) can0 312#079D079D09AF078A
(1701998282.499660) can0 356#3FFF3FFF086C00
(1701998282.499895) can0 7BC#3A00000000000000
(1701998282.501205) can0 315#78100000007B00
(1701998282.501643) can0 236#0FFD1000F00000B5
(1701998282.505818) can0 325#081B7FAF000100
(1701998282.507287) can0 300#009B80FF1FFF7FFD
(1701998282.507310) can0 2F1#00807D0000000000
(1701998282.507312) can0 328#00008000D880FFFF
(1701998282.507581) can0 330#04FCFCFFFFFF3FFF
(1701998282.508370) can0 212#02C7079DA9563FFF
(1701998282.508605) can0 255#3FFF3FFF3FFFFFFF
(1701998282.508863) can0 308#00000006001FFF00
(1701998282.509417) can0 309#1FFFFFFF0FFF00
(1701998282.509615) can0 312#079D079D09AF078A
(1701998282.509764) can0 380#0001
(1701998282.510725) can0 412#2000A3008E00
(1701998282.511642) can0 236#0FFD10000000003D
(1701998282.515756) can0 248#0008000800004101
(1701998282.516964) can0 200#0003C000C000C000
(1701998282.517006) can0 208#00200000C000C000
(1701998282.517289) can0 215#00000000000000
(1701998282.518407) can0 210#00000000000000FF
(1701998282.518562) can0 308#00000046011FFF00
(1701998282.518833) can0 309#1FFFFFFF0FFF00
(1701998282.519391) can0 312#679D079D09AF078A
(1701998282.519642) can0 356#3FFF3FFF086C00
(1701998282.519857) can0 7BC#3B00000000000000
(1701998282.521154) can0 315#3C100000007B00
(1701998282.521658) can0 236#0FFD100010000025
(1701998282.525755) can0 325#081B7FAF000100
(1701998282.526800) can0 300#001B80FF9FFF7FFC
(1701998282.527039) can0 2F1#00807D0000000000
(1701998282.527265) can0 328#00008000D880FFFF
(1701998282.527588) can0 330#1CFCFCFFFFFF3FFF
(1701998282.528328) can0 212#02C7079D69563FFF
(1701998282.528573) can0 255#3FFF3FFF3FFFFFFF
(1701998282.528792) can0 308#00000046011FFF00
(1701998282.529367) can0 309#1FFFFFFF0FFF00
(1701998282.529574) can0 312#679D079D09AF078A
(1701998282.529737) can0 380#0001
(1701998282.530599) can0 412#2000A3008E00
(1701998282.531589) can0 236#0FFD10002000000D
(1701998282.535672) can0 3D3#0A00000000000000
(1701998282.535982) can0 248#0008000800004101
(1701998282.536886) can0 200#0003C000C000C000
(1701998282.537071) can0 208#00203000C000C000
(1701998282.537290) can0 215#00000000000003
(1701998282.538412) can0 210#00000000000000FF
(1701998282.538486) can0 308#00000006001FFF00
(1701998282.538757) can0 309#1FFFFFFF0FFF00
(1701998282.539272) can0 312#079D079D09AF078A
(1701998282.539572) can0 356#3FFF3FFF086C00
(1701998282.539830) can0 7BC#3C00000000000000
(1701998282.540696) can0 318#00A30002A3220000
(1701998282.540973) can0 315#00100000007B00
(1701998282.541577) can0 236#0FFD100030000015
(1701998282.545766) can0 408#0000810008000000
(1701998282.545963) can0 325#081B7FAF000100
(1701998282.547275) can0 300#001B80FF9FFF7FFC
(1701998282.547298) can0 2F1#00807D0000000000
(1701998282.547300) can0 328#00008000D880FFFF
(1701998282.547580) can0 330#1CFCFCFFFFFF3FFF
(1701998282.548720) can0 212#02C7079D69563FFF
(1701998282.548743) can0 255#3FFF3FFF3FFFFFFF
(1701998282.548745) can0 308#00000006001FFF00
(1701998282.549722) can0 309#1FFFFFFF0FFF00
(1701998282.549746) can0 312#079D079D09AF078A
(1701998282.549748) can0 380#0001
(1701998282.550045) can0 6FE#FFEFE7E700000000
(1701998282.551066) can0 412#2000A3008E00
(1701998282.552027) can0 236#0FFD10004000005D
(1701998282.556069) can0 248#0008000800004101
(1701998282.557345) can0 200#0003C000C000C000
(1701998282.557370) can0 208#00203000C000C000
(1701998282.557373) can0 215#00000000000003
(1701998282.558323) can0 210#00000080800000FF
(1701998282.558481) can0 308#00000046011FFF00
(1701998282.558761) can0 309#1FFFFFFF0FFF00
(1701998282.559347) can0 312#679D079D09AF078A
(1701998282.559527) can0 356#3FFF3FFF086C00
(1701998282.559773) can0 6FA#0235353800000000
(1701998282.560051) can0 7BC#3D00000000000000
(1701998282.560696) can0 5FE#00000000000007DF
(1701998282.560881) can0 315#44100000007B00
(1701998282.562008) can0 236#0FFD100050000045
(1701998282.566170) can0 325#081B7FAF000100
(1701998282.567006) can0 300#009B80FF1FFF7FF9
(1701998282.567032) can0 2F1#00807D0000000000
(1701998282.567326) can0 328#00008000D880FFFF
(1701998282.567574) can0 330#04FCFCFFFFFF3FFF
(1701998282.568257) can0 212#02C7079DA9563FFF
(1701998282.568477) can0 255#3FFF3FFF3FFFFFFF
(1701998282.568716) can0 308#00000046011FFF00
(1701998282.569308) can0 309#1FFFFFFF0FFF00
(1701998282.569543) can0 312#679D079D09AF078A
(1701998282.569726) can0 380#0001
(1701998282.569926) can0 608#FF49000000000000
(1701998282.571047) can0 6FB#8104040009010080
(1701998282.571071) can0 412#2000A3008E00
(1701998282.572011) can0 236#0FFD10006000006D
(1701998282.576169) can0 248#0008000800004101
(1701998282.576925) can0 200#0003C000C000C000
(1701998282.577019) can0 208#00200000C000C000
(1701998282.577269) can0 215#00000000000000
(1701998282.578433) can0 210#00000080800000FF
(1701998282.578457) can0 308#00000006001FFF00
(1701998282.578715) can0 309#1FFFFFFF0FFF00
(1701998282.579678) can0 312#079D079D09AF078A
(1701998282.579701) can0 356#3FFF3FFF086C00
(1701998282.579704) can0 4A0#25D832197F0C0044
(1701998282.580047) can0 7BC#3E00000000000000
(1701998282.580857) can0 6FD#018B004010060800
(1701998282.580880) can0 315#48100000007B00
(1701998282.582010) can0 236#0FFD100070000075
(1701998282.586138) can0 325#081B7FAF000100
(1701998282.586996) can0 300#009B80FF1FFF7FFF
(1701998282.587022) can0 2F1#00807D0000000000
(1701998282.587298) can0 328#00008000D880FFFF
(1701998282.587567) can0 330#04FCFCFFFFFF3FFF
(1701998282.588654) can0 212#02C7079DA9563FFF
(1701998282.588677) can0 255#3FFF3FFF3FFFFFFF
(1701998282.588680) can0 308#00000006001FFF00
(1701998282.589260) can0 309#1FFFFFFF0FFF00
(1701998282.589477) can0 312#079D079D09AF078A
(1701998282.589615) can0 380#0001
(1701998282.589859) can0 415#000000000002CB
(1701998282.590687) can0 6FF#3980026000000000
(1701998282.590843) can0 412#2000A3008E00
(1701998282.591749) can0 236#0FFD1000800000FD
(1701998282.596156) can0 248#0008000800004101
(1701998282.596916) can0 200#0003C000C000C000
(1701998282.597009) can0 208#00200000C000C000
(1701998282.597269) can0 215#00000000000000
(1701998282.598410) can0 101#04
(1701998282.598433) can0 210#00000000000000FF
(1701998282.598551) can0 308#00000046011FFF00
(1701998282.598808) can0 309#1FFFFFFF0FFF00
(1701998282.599254) can0 312#679D079D09AF078A
(1701998282.599434) can0 356#3FFF3FFF086C00
(1701998282.599725) can0 7BC#3F00000000000000
(1701998282.600590) can0 315#0C100000007B00
(1701998282.601618) can0 236#0FFD1000900000E5
(1701998282.606112) can0 325#081B7FAF000100
(1701998282.606850) can0 300#001B80FF9FFF7FFC
(1701998282.606995) can0 2F1#00807D0000000000
(1701998282.607231) can0 328#00008000D880FFFF
(1701998282.607551) can0 330#1CFCFCFFFFFF3FFF
(1701998282.608180) can0 212#02C7079D69563FFF
(1701998282.608407) can0 255#3FFF3FFF3FFFFFFF
(1701998282.608668) can0 308#00000046011FFF00
(1701998282.609151) can0 309#1FFFFFFF0FFF00
(1701998282.609429) can0 312#679D079D09AF078A
(1701998282.609579) can0 380#0001
(1701998282.610462) can0 412#2000A3008E00
(1701998282.611557) can0 236#0FFD1000A00000CD
(1701998282.615686) can0 248#0008000800004101
(1701998282.617245) can0 200#0003C000C000C000
(1701998282.617268) can0 208#00203000C000C000
(1701998282.617271) can0 215#00000000000003
(1701998282.618653) can0 210#00000000000000FF
(1701998282.618679) can0 308#00000006001FFF00
(1701998282.618684) can0 309#1FFFFFFF0FFF00
(1701998282.619222) can0 312#079D079D09AF078A
(1701998282.619405) can0 356#3FFF3FFF086C00
(1701998282.619692) can0 7BC#4000000000000000
(1701998282.620953) can0 315#50100000007B00
(1701998282.621834) can0 236#0FFD1000B00000D5
(1701998282.626045) can0 325#081B7FAF000100
(1701998282.627346) can0 300#001B80FF9FFF7FFF
(1701998282.627371) can0 2F1#00807D0000000000
(1701998282.627373) can0 328#00008000D880FFFF
(1701998282.627536) can0 330#1CFCFCFFFFFF3FFF
(1701998282.628259) can0 212#02C7079D69563FFF
(1701998282.628295) can0 255#3FFF3FFF3FFFFFFF
(1701998282.628651) can0 308#00000006001FFF00
(1701998282.629601) can0 309#1FFFFFFF0FFF00
(1701998282.629624) can0 312#079D079D09AF078A
(1701998282.629626) can0 380#0001
(1701998282.630841) can0 412#2000A3008E00
(1701998282.631790) can0 236#0FFD1000C000009D
(1701998282.635503) can0 3D3#0A00000000000000
(1701998282.635729) can0 248#0008000800004101
(1701998282.636883) can0 200#0003C000C000C000
(1701998282.636968) can0 208#00203000C000C000
(1701998282.637192) can0 215#00000000000003
(1701998282.638040) can0 210#00000080800000FF
(1701998282.638264) can0 308#00000046011FFF00
(1701998282.638539) can0 309#1FFFFFFF0FFF00
(1701998282.639088) can0 312#679D079D09AF078A
(1701998282.639291) can0 356#3FFF3FFF086C00
(1701998282.639638) can0 7BC#4100000000000000
(1701998282.640581) can0 318#00A30002A3220000
(1701998282.640796) can0 315#14100000007B00
(1701998282.641587) can0 236#0FFD1000D0000085
(1701998282.645557) can0 408#0000810008000000
(1701998282.645750) can0 325#081B7FAF000100
(1701998282.647245) can0 300#009B80FF1FFF7FFF
(1701998282.647270) can0 2F1#00807D0000000000
(1701998282.647273) can0 328#00008000D880FFFF
(1701998282.647551) can0 330#04FCFCFFFFFF3FFF
(1701998282.648429) can0 212#02C7079DA9563FFF
(1701998282.648452) can0 255#3FFF3FFF3FFFFFFF
(1701998282.648550) can0 308#00000046011FFF00
(1701998282.649063) can0 309#1FFFFFFF0FFF00
(1701998282.649300) can0 312#679D079D09AF078A
(1701998282.649510) can0 380#0001
(1701998282.649770) can0 6FE#FFEFE7E700000000
(1701998282.650848) can0 412#2000A3008E00
(1701998282.651908) can0 236#0FFD1000E00000AD
(1701998282.656061) can0 248#0008000800004101
(1701998282.657317) can0 200#0003C000C000C000
(1701998282.657341) can0 208#00200000C000C000
(1701998282.657344) can0 215#00000000000000
(1701998282.658260) can0 210#00000080800000FF
(1701998282.658275) can0 308#00000006001FFF00
(1701998282.658569) can0 309#1FFFFFFF0FFF00
(1701998282.659133) can0 312#079D079D09AF078A
(1701998282.659320) can0 356#3FFF3FFF086C00
(1701998282.659584) can0 6FA#004A413332553146
(1701998282.659857) can0 7BC#01BE3FA813000000
(1701998282.660528) can0 315#18100000007B00
(1701998282.661988) can0 236#0FFD1000F00000B5
(1701998282.665991) can0 325#081B7FAF000100
(1701998282.667442) can0 300#009B80FF1FFF7FFF
(1701998282.667468) can0 2F1#00807D0000000000
(1701998282.667470) can0 328#00008000D880FFFF
(1701998282.667473) can0 330#04FCFCFFFFFF3FFF
(1701998282.668060) can0 212#02C7079DA9563FFF
(1701998282.668291) can0 255#3FFF3FFF3FFFFFFF
(1701998282.668601) can0 308#00000006001FFF00
(1701998282.669191) can0 309#1FFFFFFF0FFF00
(1701998282.669350) can0 312#079D079D09AF078A
(1701998282.669539) can0 380#0001
(1701998282.669745) can0 608#FF49000000000000
(1701998282.670424) can0 412#2000A3008E00
(1701998282.671640) can0 236#0FFD10000000003D
(1701998282.675507) can0 248#0008000800004101
(1701998282.677192) can0 200#0003C000C000C000
(1701998282.677217) can0 208#00200000C000C000
(1701998282.677219) can0 215#00000000000000
(1701998282.678657) can0 210#00000000000000FF
(1701998282.678682) can0 308#00000046011FFF00
(1701998282.678685) can0 309#1FFFFFFF0FFF00
(1701998282.679111) can0 312#679D079D09AF078A
(1701998282.679293) can0 356#3FFF3FFF086C00
(1701998282.679563) can0 4A0#25D833197F0C0044
(1701998282.679826) can0 7BC#028107E5E5000004
(1701998282.680432) can0 315#5C100000007B00
(1701998282.681720) can0 236#0FFD100010000025
(1701998282.686048) can0 325#081B7FAF000100
(1701998282.687443) can0 300#001B80FF9FFF7FFF
(1701998282.687468) can0 2F1#00807D0000000000
(1701998282.687470) can0 328#00008000D880FFFF
(1701998282.687474) can0 330#1CFCFCFFFFFF3FFF
(1701998282.688129) can0 212#02C7079D69563FFF
(1701998282.688176) can0 255#3FFF3FFF3FFFFFFF
(1701998282.688574) can0 308#00000046011FFF00
(1701998282.689120) can0 309#1FFFFFFF0FFF00
(1701998282.689281) can0 312#679D079D09AF078A
(1701998282.689487) can0 380#0001
(1701998282.689681) can0 415#000000000002CB
(1701998282.690833) can0 412#2000A3008E00
(1701998282.691849) can0 236#0FFD10002000000D
(1701998282.695977) can0 248#0008000800004101
(1701998282.696864) can0 200#0003C000C000C000
(1701998282.696959) can0 208#00203000C000C000
(1701998282.697229) can0 215#00000000000003
(1701998282.698275) can0 101#04
(1701998282.698279) can0 210#00000000000000FF
(1701998282.698282) can0 308#00000006001FFF00
(1701998282.698537) can0 309#1FFFFFFF0FFF00
(1701998282.699073) can0 312#079D079D09AF078A
(1701998282.699259) can0 356#3FFF3FFF086C00
(1701998282.699543) can0 7BC#0300000080008000
(1701998282.700397) can0 315#60100000007B00
(1701998282.701658) can0 236#0FFD100030000015
(1701998282.705904) can0 325#081B7FAF000100
(1701998282.707299) can0 300#001B80FF9FFF7FFE
(1701998282.707325) can0 2F1#00807D0000000000
(1701998282.707329) can0 328#00008000D880FFFF
(1701998282.707509) can0 330#1CFCFCFFFFFF3FFF
(1701998282.708021) can0 212#02C7079D69563FFF
(1701998282.708213) can0 255#3FFF3FFF3FFFFFFF
(1701998282.708493) can0 308#00000006001FFF00
(1701998282.709044) can0 309#1FFFFFFF0FFF00
(1701998282.709255) can0 312#079D079D09AF078A
(1701998282.709425) can0 380#0001
(1701998282.710400) can0 412#2000A3008E00
(1701998282.711976) can0 236#0FFD10004000005D
(1701998282.715924) can0 248#0008000800004101
(1701998282.716859) can0 200#0003C000C000C000
(1701998282.716953) can0 208#00203000C000C000
(1701998282.717208) can0 215#00000000000003
(1701998282.718361) can0 210#00000080800000FF
(1701998282.718386) can0 308#00000046011FFF00
(1701998282.718401) can0 309#1FFFFFFF0FFF00
(1701998282.719015) can0 312#679D079D09AF078A
(1701998282.719227) can0 356#3FFF3FFF086C00
(1701998282.719467) can0 7BC#0400000000006600
(1701998282.720266) can0 315#24100000007B00
(1701998282.721566) can0 236#0FFD100050000045
(1701998282.725959) can0 325#081B7FAF000100
(1701998282.727432) can0 300#009B80FF1FFF7FFD
(1701998282.727458) can0 2F1#00807D0000000000
(1701998282.727460) can0 328#00008000D880FFFF
(1701998282.727462) can0 330#04FCFCFFFFFF3FFF
(1701998282.728137) can0 212#02C7079DA9563FFF
(1701998282.728162) can0 255#3FFF3FFF3FFFFFFF
(1701998282.728442) can0 308#00000046011FFF00
(1701998282.729406) can0 309#1FFFFFFF0FFF00
(1701998282.729430) can0 312#679D079D09AF078A
(1701998282.729432) can0 380#0001
(1701998282.730262) can0 412#2000A3008E00
(1701998282.731584) can0 236#0FFD10006000006D
(1701998282.735577) can0 3D3#0A00000000000000
(1701998282.735587) can0 248#0008000800004101
(1701998282.737425) can0 200#0003C000C000C000
(1701998282.737450) can0 208#00200000C000C000
(1701998282.737453) can0 215#00000000000000
(1701998282.737927) can0 210#00000080800000FF
(1701998282.738148) can0 308#00000006001FFF00
(1701998282.738433) can0 309#1FFFFFFF0FFF00
(1701998282.739096) can0 312#079D079D09AF078A
(1701998282.739140) can0 356#3FFF3FFF086C00
(1701998282.739453) can0 7BC#050000FA49000024
(1701998282.740380) can0 318#00A30002A3220000
(1701998282.740611) can0 315#28100000007B00
(1701998282.741692) can0 236#0FFD100070000075
(1701998282.745838) can0 408#0000810008000000
(1701998282.745864) can0 325#081B7FAF000100
(1701998282.746892) can0 300#009B80FF1FFF7FFD
(1701998282.746937) can0 2F1#00807D0000000000
(1701998282.747270) can0 328#00008000D880FFFF
(1701998282.747500) can0 330#04FCFCFFFFFF3FFF
(1701998282.747964) can0 212#02C7079DA9563FFF
(1701998282.748148) can0 255#3FFF3FFF3FFFFFFF
(1701998282.748395) can0 308#00000006001FFF00
(1701998282.749398) can0 309#1FFFFFFF0FFF00
(1701998282.749412) can0 312#079D079D09AF078A
(1701998282.749415) can0 380#0001
(1701998282.749587) can0 6FE#FFEFE7E700000000
(1701998282.750234) can0 412#2000A3008E00
(1701998282.751577) can0 236#0FFD1000800000FD
(1701998282.755460) can0 248#0008000800004101
(1701998282.756834) can0 200#0003C000C000C000
(1701998282.757005) can0 208#00200000C000C000
(1701998282.757221) can0 215#00000000000000
(1701998282.758288) can0 210#00000000000000FF
(1701998282.758312) can0 308#00000046011FFF00
(1701998282.758326) can0 309#1FFFFFFF0FFF00
(1701998282.759430) can0 312#679D079D09AF078A
(1701998282.759455) can0 356#3FFF3FFF086C00
(1701998282.759460) can0 6FA#0155374555303038
(1701998282.759651) can0 7BC#0600030000008000
(1701998282.760507) can0 315#6C100000007B00
(1701998282.761829) can0 236#0FFD1000900000E5
(1701998282.765920) can0 325#081B7FAF000100
(1701998282.767485) can0 300#001B80FF9FFF7FFC
(1701998282.767510) can0 2F1#00807D0000000000
(1701998282.767513) can0 328#00008000D880FFFF
(1701998282.767516) can0 330#1CFCFCFFFFFF3FFF
(1701998282.767866) can0 212#02C7079D69563FFF
(1701998282.768097) can0 255#3FFF3FFF3FFFFFFF
(1701998282.768372) can0 308#00000046011FFF00
(1701998282.769403) can0 309#1FFFFFFF0FFF00
(1701998282.769427) can0 312#679D079D09AF078A
(1701998282.769432) can0 380#0001
(1701998282.769583) can0 608#FF49000000000000
(1701998282.770534) can0 412#2000A3008E00
(1701998282.771747) can0 236#0FFD1000A00000CD
(1701998282.775499) can0 248#0008000800004101
(1701998282.776814) can0 200#0003C000C000C000
(1701998282.776961) can0 208#00203000C000C000
(1701998282.777229) can0 215#00000000000003
(1701998282.777848) can0 210#00000000000000FF
(1701998282.778062) can0 308#00000006001FFF00
(1701998282.778339) can0 309#1FFFFFFF0FFF00
(1701998282.779282) can0 312#079D079D09AF078A
(1701998282.779306) can0 356#3FFF3FFF086C00
(1701998282.779309) can0 4A0#25D832197F0C0044
(1701998282.779637) can0 7BC#0700000000000000
(1701998282.780330) can0 315#30100000007B00
(1701998282.781764) can0 236#0FFD1000B00000D5
(1701998282.785722) can0 325#081B7FAF000100
(1701998282.787306) can0 300#001B80FF9FFF7FF7
(1701998282.787331) can0 2F1#00807D0000000000
(1701998282.787334) can0 328#00008000D880FFFF
(1701998282.787495) can0 330#1CFCFCFFFFFF3FFF
(1701998282.787843) can0 212#02C7079D69563FFF
(1701998282.788061) can0 255#3FFF3FFF3FFFFFFF
(1701998282.788313) can0 308#00000006001FFF00
(1701998282.789286) can0 309#1FFFFFFF0FFF00
(1701998282.789310) can0 312#079D079D09AF078A
(1701998282.789312) can0 380#0001
(1701998282.789488) can0 415#000000000002CB
(1701998282.790501) can0 412#2000A3008E00
(1701998282.791545) can0 236#0FFD1000C000009D
(1701998282.795766) can0 248#0008000800004101
(1701998282.796818) can0 200#0003C000C000C000
(1701998282.796999) can0 208#00203000C000C000
(1701998282.797204) can0 215#00000000000003
(1701998282.797733) can0 101#04
(1701998282.797956) can0 210#00000080800000FF
(1701998282.798152) can0 308#00000046011FFF00
(1701998282.798430) can0 309#1FFFFFFF0FFF00
(1701998282.798903) can0 312#679D079D09AF078A
(1701998282.799052) can0 356#3FFF3FFF086C00
(1701998282.799342) can0 7BC#0800000000010000
(1701998282.800641) can0 315#74100000007B00
(1701998282.801571) can0 236#0FFD1000D0000085
(1701998282.805689) can0 325#081B7FAF000100
(1701998282.806964) can0 300#009B80FF1FFF7FF9
(1701998282.806990) can0 2F1#00807D0000000000
(1701998282.807261) can0 328#00008000D880FFFF
(1701998282.807487) can0 330#04FCFCFFFFFF3FFF
(1701998282.807805) can0 212#02C7079DA9563FFF
(1701998282.808033) can0 255#3FFF3FFF3FFFFFFF
(1701998282.808312) can0 308#00000046011FFF00
(1701998282.809240) can0 309#1FFFFFFF0FFF00
(1701998282.809263) can0 312#679D079D09AF078A
(1701998282.809266) can0 380#0001
(1701998282.810481) can0 412#2000A3008E00
(1701998282.811594) can0 236#0FFD1000E00000AD
(1701998282.815713) can0 248#0008000800004101
(1701998282.817260) can0 200#0003C000C000C000
(1701998282.817285) can0 208#00200000C000C000
(1701998282.817287) can0 215#00000000000000
(1701998282.817839) can0 210#00000080800000FF
(1701998282.818008) can0 308#00000006001FFF00
(1701998282.818287) can0 309#1FFFFFFF0FFF00
(1701998282.819216) can0 312#079D079D09AF078A
(1701998282.819239) can0 356#3FFF3FFF086C00
(1701998282.819242) can0 7BC#0900000000000000
(1701998282.820425) can0 315#78100000007B00
(1701998282.821593) can0 236#0FFD1000F00000B5
(1701998282.825472) can0 325#081B7FAF000100
(1701998282.827158) can0 300#009B80FF1FFF7FFA
(1701998282.827183) can0 328#00008000D880FFFF
(1701998282.827185) can0 2F1#00807D0000000000
(1701998282.827488) can0 330#04FCFCFFFFFF3FFF
(1701998282.827763) can0 212#02C7079DA9563FFF
(1701998282.828016) can0 255#3FFF3FFF3FFFFFFF
(1701998282.828290) can0 308#00000006001FFF00
(1701998282.829208) can0 309#1FFFFFFF0FFF00
(1701998282.829232) can0 312#079D079D09AF078A
(1701998282.829235) can0 380#0001
(1701998282.830471) can0 412#2000A3008E00
(1701998282.831552) can0 236#0FFD10000000003D
(1701998282.835801) can0 3D3#0A00000000000000
(1701998282.835826) can0 248#0008000800004101
(1701998282.837373) can0 200#0003C000C000C000
(1701998282.837399) can0 208#00200000C000C000
(1701998282.837404) can0 215#00000000000000
(1701998282.837748) can0 210#00000000000000FF
(1701998282.837977) can0 308#00000046011FFF00
(1701998282.838250) can0 309#1FFFFFFF0FFF00
(1701998282.839199) can0 312#679D079D09AF078A
(1701998282.839222) can0 356#3FFF3FFF086C00
(1701998282.839225) can0 7BC#0A9017E001000000
(1701998282.840326) can0 318#00A30002A3220000
(1701998282.840351) can0 315#3C100000007B00
(1701998282.841484) can0 236#0FFD100010000025
(1701998282.845768) can0 408#0000810008000000
(1701998282.845794) can0 325#081B7FAF000100
(1701998282.847259) can0 300#001B80FF9FFF7FFB
(1701998282.847285) can0 328#00008000D880FFFF
(1701998282.847290) can0 2F1#00807D0000000000
(1701998282.847485) can0 330#1CFCFCFFFFFF3FFF
(1701998282.847702) can0 212#02C7079D69563FFF
(1701998282.847981) can0 255#3FFF3FFF3FFFFFFF
(1701998282.848256) can0 308#00000046011FFF00
(1701998282.849144) can0 309#1FFFFFFF0FFF00
(1701998282.849167) can0 312#679D079D09AF078A
(1701998282.849169) can0 380#0001
(1701998282.849387) can0 6FE#FFEFE7E700000000
(1701998282.850426) can0 412#2000A3008E00
(1701998282.851586) can0 236#0FFD10002000000D
(1701998282.855112) can0 248#0008000800004101
(1701998282.857255) can0 200#0003C000C000C000
(1701998282.857280) can0 208#00203000C000C000
(1701998282.857286) can0 215#00000000000003
(1701998282.857736) can0 210#00000000000000FF
(1701998282.857940) can0 308#00000006001FFF00
(1701998282.858219) can0 309#1FFFFFFF0FFF00
(1701998282.858803) can0 312#079D079D09AF078A
(1701998282.858949) can0 356#3FFF3FFF086C00
(1701998282.859224) can0 6FA#0235353800000000
(1701998282.859475) can0 7BC#0B00000000000080
(1701998282.860470) can0 5FE#00000000000007DF
(1701998282.860493) can0 315#00100000007B00
(1701998282.861596) can0 236#0FFD100030000015
(1701998282.865188) can0 325#081B7FAF000100
(1701998282.866800) can0 300#001B80FF9FFF7FFF
(1701998282.866964) can0 328#00008000D880FFFF
(1701998282.867240) can0 2F1#00807D0000000000
(1701998282.867468) can0 330#1CFCFCFFFFFF3FFF
(1701998282.867680) can0 212#02C7079D69563FFF
(1701998282.867934) can0 255#3FFF3FFF3FFFFFFF
(1701998282.868206) can0 308#00000006001FFF00
(1701998282.869132) can0 309#1FFFFFFF0FFF00
(1701998282.869156) can0 312#079D079D09AF078A
(1701998282.869159) can0 380#0001
(1701998282.869365) can0 608#FF49000000000000
(1701998282.870349) can0 6FB#8104040009010080
(1701998282.870373) can0 412#2000A3008E00
(1701998282.871570) can0 236#0FFD10004000005D
(1701998282.875603) can0 248#0008000800004101
(1701998282.877223) can0 200#0003C000C000C000
(1701998282.877248) can0 208#00203000C000C000
(1701998282.877251) can0 215#00000000000003
(1701998282.877658) can0 210#00000080800000FF
(1701998282.877882) can0 308#00000046011FFF00
(1701998282.878091) can0 309#1FFFFFFF0FFF00
(1701998282.879120) can0 312#679D079D09AF078A
(1701998282.879143) can0 356#3FFF3FFF086C00
(1701998282.879146) can0 4A0#25D832197F0C0044
(1701998282.879429) can0 7BC#0C0036D800000000
(1701998282.880344) can0 6FD#018B004010060800
(1701998282.880368) can0 315#44100000007B00
(1701998282.881567) can0 236#0FFD100050000045
(1701998282.885547) can0 325#081B7FAF000100
(1701998282.887243) can0 300#009B80FF1FFF7FFD
(1701998282.887269) can0 328#00008000D880FFFF
(1701998282.887273) can0 2F1#00807D0000000000
(1701998282.887454) can0 330#04FCFCFFFFFF3FFF
(1701998282.887705) can0 212#02C7079DA9563FFF
(1701998282.887951) can0 255#3FFF3FFF3FFFFFFF
(1701998282.888199) can0 308#00000046011FFF00
(1701998282.888823) can0 309#1FFFFFFF0FFF00
(1701998282.888859) can0 312#679D079D09AF078A
(1701998282.889080) can0 380#0001
(1701998282.889328) can0 415#000000000002CB
(1701998282.890454) can0 6FF#3980026000000000
(1701998282.890477) can0 412#2000A3008E00
(1701998282.891552) can0 236#0FFD10006000006D
(1701998282.895445) can0 248#0008000800004101
(1701998282.896816) can0 200#0003C000C000C000
(1701998282.896887) can0 208#00200000C000C000
(1701998282.897139) can0 215#00000000000000
(1701998282.897477) can0 101#04
(1701998282.897739) can0 210#00000080800000FF
(1701998282.898004) can0 308#00000006001FFF00
(1701998282.898279) can0 309#1FFFFFFF0FFF00
(1701998282.898657) can0 312#079D079D09AF078A
(1701998282.898948) can0 356#3FFF3FFF086C00
(1701998282.899141) can0 7BC#0D00000000000000
(1701998282.899989) can0 315#48100000007B00
(1701998282.902021) can0 236#0FFD100070000075
(1701998282.905518) can0 325#081B7FAF000100
(1701998282.906822) can0 300#009B80FF1FFF7FFA
(1701998282.906983) can0 328#00008000D880FFFF
(1701998282.907222) can0 2F1#00807D0000000000
(1701998282.907484) can0 330#04FCFCFFFFFF3FFF
(1701998282.907702) can0 212#02C7079DA9563FFF
(1701998282.907965) can0 255#3FFF3FFF3FFFFFFF
(1701998282.908221) can0 308#00000006001FFF00
(1701998282.908749) can0 309#1FFFFFFF0FFF00
(1701998282.908922) can0 312#079D079D09AF078A
(1701998282.909055) can0 380#0001
(1701998282.910347) can0 412#2000A3008E00
(1701998282.912016) can0 236#0FFD1000800000FD
(1701998282.915534) can0 248#0008000800004101
(1701998282.917145) can0 200#0003C000C000C000
(1701998282.917171) can0 208#00200000C000C000
(1701998282.917173) can0 215#00000000000000
(1701998282.917602) can0 210#00000000000000FF
(1701998282.917804) can0 308#00000046011FFF00
(1701998282.918069) can0 309#1FFFFFFF0FFF00
(1701998282.918676) can0 312#679D079D09AF078A
(1701998282.918802) can0 356#3FFF3FFF086C00
(1701998282.919090) can0 7BC#0E00000000000000
(1701998282.919951) can0 315#0C100000007B00
(1701998282.921530) can0 236#0FFD1000900000E5
(1701998282.925471) can0 325#081B7FAF000100
(1701998282.926729) can0 300#001B80FF9FFF7FFF
(1701998282.926882) can0 328#00008000D880FFFF
(1701998282.927127) can0 2F1#00807D0000000000
(1701998282.927468) can0 330#1CFCFCFFFFFF3FFF
(1701998282.927679) can0 212#02C7079D69563FFF
(1701998282.927929) can0 255#3FFF3FFF3FFFFFFF
(1701998282.928186) can0 308#00000046011FFF00
(1701998282.928667) can0 309#1FFFFFFF0FFF00
(1701998282.928849) can0 312#679D079D09AF078A
(1701998282.928891) can0 380#0001
(1701998282.930281) can0 412#2000A3008E00
(1701998282.932128) can0 236#0FFD1000A00000CD
(1701998282.935589) can0 3D3#0A00000000000000
(1701998282.935615) can0 248#0008000800004101
(1701998282.937344) can0 200#0003C000C000C000
(1701998282.937369) can0 208#00203000C000C000
(1701998282.937372) can0 215#00000000000003
(1701998282.937514) can0 210#00000000000000FF
(1701998282.937821) can0 308#00000006001FFF00
(1701998282.938061) can0 309#1FFFFFFF0FFF00
(1701998282.939013) can0 312#079D079D09AF078A
(1701998282.939036) can0 356#3FFF3FFF086C00
(1701998282.939039) can0 7BC#0F00000000000000
(1701998282.940234) can0 318#00A30002A3220000
(1701998282.940259) can0 315#50100000007B00
(1701998282.941920) can0 236#0FFD1000B00000D5
(1701998282.945005) can0 408#0000810008000000
(1701998282.945177) can0 325#081B7FAF000100
(1701998282.946737) can0 300#001B80FF9FFF7FFD
(1701998282.946944) can0 328#00008000D880FFFF
(1701998282.947212) can0 2F1#00807D0000000000
(1701998282.947436) can0 330#1CFCFCFFFFFF3FFF
(1701998282.947665) can0 212#02C7079D69563FFF
(1701998282.947952) can0 255#3FFF3FFF3FFFFFFF
(1701998282.948205) can0 308#00000006001FFF00
(1701998282.948559) can0 309#1FFFFFFF0FFF00
(1701998282.948801) can0 312#079D079D09AF078A
(1701998282.948983) can0 380#0001
(1701998282.949244) can0 6FE#FFEFE7E700000000
(1701998282.950286) can0 412#2000A3008E00
(1701998282.951553) can0 236#0FFD1000C000009D
(1701998282.955592) can0 248#0008000800004101
(1701998282.957009) can0 200#0003C000C000C000
(1701998282.957021) can0 208#00203000C000C000
(1701998282.957093) can0 215#00000000000003
(1701998282.957533) can0 210#00000080800000FF
(1701998282.957722) can0 308#00000046011FFF00
(1701998282.958027) can0 309#1FFFFFFF0FFF00
