(0000000000.003800) vcan0 212#02BF0779A7F23FFF
(0000000000.023800) vcan0 212#02BF077967F23FFF
(0000000000.043800) vcan0 212#02BF077967F23FFF
(0000000000.063700) vcan0 212#02BF0779A7F23FFF
(0000000000.083700) vcan0 212#02BF0779A7F23FFF
(0000000000.103700) vcan0 212#02BF077967F23FFF
(0000000000.123700) vcan0 212#02BF077967F23FFF
(0000000000.143700) vcan0 212#02BF0779A7F23FFF
(0000000000.163700) vcan0 212#02BF0779E7F53FFF
(0000000000.183700) vcan0 212#02BF077967FD3FFF
(0000000000.203700) vcan0 212#03D8077968043FFF
(0000000000.223700) vcan0 212#03D80776E80A3FFF
(0000000000.243700) vcan0 212#03D80776E8223FFF
(0000000000.263600) vcan0 212#03D80774283A3FFF
(0000000000.283700) vcan0 212#03D8077228483FFF
(0000000000.303600) vcan0 212#03D80772E84D3FFF
(0000000000.323600) vcan0 212#03D80771A84C3FFF
(0000000000.343600) vcan0 212#03D80775284B3FFF
(0000000000.363600) vcan0 212#03D80775684C3FFF
(0000000000.383600) vcan0 212#03D8077BA84A3FFF
(0000000000.403600) vcan0 212#03D80786E8483FFF
(0000000000.423600) vcan0 212#03D8079328473FFF
(0000000000.443600) vcan0 212#03D8079568453FFF
(0000000000.463500) vcan0 212#03D807A5A8433FFF
(0000000000.483500) vcan0 212#03D807B4E8423FFF
(0000000000.503600) vcan0 212#03D807BD28413FFF
(0000000000.523499) vcan0 212#03D807BC68403FFF
(0000000000.543500) vcan0 212#03D807C3A83D3FFF
(0000000000.563500) vcan0 212#03D807CCE8333FFF
(0000000000.583500) vcan0 212#03D807D3680D3FFF
(0000000000.603500) vcan0 212#02BF07DC28003FFF
(0000000000.623500) vcan0 212#02BF07E2A7F43FFF
(0000000000.643500) vcan0 212#02BF07E1A7F23FFF
(0000000000.663500) vcan0 212#02BF07DE67F23FFF
(0000000000.683400) vcan0 212#02BF07D767F23FFF
(0000000000.703400) vcan0 212#02BF07C1A7F23FFF
(0000000000.723500) vcan0 212#02BF07B4A7F23FFF
(0000000000.743400) vcan0 212#02BF07A967F23FFF
(0000000000.763400) vcan0 212#02BF079F67F23FFF
(0000000000.783400) vcan0 212#02BF078FA7F73FFF
(0000000000.803400) vcan0 212#02BF0788E8003FFF
(0000000000.823400) vcan0 212#03D8078368043FFF
(0000000000.843400) vcan0 212#03D8077F280A3FFF
(0000000000.863400) vcan0 212#03D8077AA8263FFF
(0000000000.883400) vcan0 212#03D80777E82E3FFF
(0000000000.903300) vcan0 212#03D80776682F3FFF
(0000000000.923300) vcan0 212#03D8077428303FFF
(0000000000.943400) vcan0 212#03D80774A8313FFF
(0000000000.963300) vcan0 212#03D80774E8353FFF
(0000000000.983300) vcan0 212#03D8077528413FFF
(0000000001.003300) vcan0 212#03D80774284D3FFF
(0000000001.023300) vcan0 212#03D80773E8563FFF
(0000000001.043299) vcan0 212#03D80775E85C3FFF
(0000000001.063300) vcan0 212#03D8077628603FFF
(0000000001.083300) vcan0 212#03D8077868643FFF
(0000000001.103200) vcan0 212#03D8077CE8663FFF
(0000000001.123200) vcan0 212#03D8077DE8653FFF
(0000000001.143200) vcan0 212#03D8078168673FFF
(0000000001.163200) vcan0 212#03D8078128663FFF
(0000000001.183200) vcan0 212#03D80784E8693FFF
(0000000001.203200) vcan0 212#03D80784A86B3FFF
(0000000001.223200) vcan0 212#03D80783686D3FFF
(0000000001.243200) vcan0 212#03D8078268703FFF
(0000000001.263200) vcan0 212#03D80781E8713FFF
(0000000001.283100) vcan0 212#03D80780E8713FFF
(0000000001.303200) vcan0 212#03D8078028723FFF
(0000000001.323100) vcan0 212#03D8077F68753FFF
(0000000001.343100) vcan0 212#03D80780A8763FFF
(0000000001.363100) vcan0 212#03D8077FA8753FFF
(0000000001.383100) vcan0 212#03D8078028723FFF
(0000000001.403100) vcan0 212#03D80780686D3FFF
(0000000001.423000) vcan0 212#03D8077EA86B3FFF
(0000000001.443100) vcan0 212#03D8077CE8693FFF
(0000000001.463000) vcan0 212#03D8077A68683FFF
(0000000001.483000) vcan0 212#03D8077728663FFF
(0000000001.503000) vcan0 212#03D80774A8623FFF
(0000000001.523000) vcan0 212#03D80771A8613FFF
(0000000001.543000) vcan0 212#03D8076F285F3FFF
(0000000001.563000) vcan0 212#03D8076C685E3FFF
(0000000001.583000) vcan0 212#03D80769A85B3FFF
(0000000001.603000) vcan0 212#03D80767E85A3FFF
(0000000001.622900) vcan0 212#03D80765285A3FFF
(0000000001.642900) vcan0 212#03D80763285A3FFF
(0000000001.662900) vcan0 212#03D80761E85A3FFF
(0000000001.682900) vcan0 212#03D80760A85B3FFF
(0000000001.702900) vcan0 212#03D8075F685B3FFF
(0000000001.722900) vcan0 212#03D8075D285A3FFF
(0000000001.742900) vcan0 212#03D8075CE85C3FFF
(0000000001.762900) vcan0 212#03D8075CA85B3FFF
(0000000001.782800) vcan0 212#03D8075B285C3FFF
(0000000001.802900) vcan0 212#03D8075B285C3FFF
(0000000001.822800) vcan0 212#03D8075BA85B3FFF
(0000000001.842800) vcan0 212#03D8075BA85B3FFF
(0000000001.862800) vcan0 212#03D8075A685B3FFF
(0000000001.882800) vcan0 212#03D8075A285C3FFF
(0000000001.902800) vcan0 212#03D8075AE85A3FFF
(0000000001.922800) vcan0 212#03D8075BA85B3FFF
(0000000001.942800) vcan0 212#03D8075B285C3FFF
(0000000001.962800) vcan0 212#03D8075A285C3FFF
(0000000001.982800) vcan0 212#03D8075BE85C3FFF
(0000000002.002800) vcan0 212#03D8075BA85B3FFF
(0000000002.022800) vcan0 212#03D8075B285A3FFF
(0000000002.042800) vcan0 212#03D8075B285A3FFF
(0000000002.062698) vcan0 212#03D8075BE85A3FFF
(0000000002.082698) vcan0 212#03D8075BE85C3FFF
(0000000002.102700) vcan0 212#03D8075B685D3FFF
(0000000002.122700) vcan0 212#03D8075B685D3FFF
(0000000002.142700) vcan0 212#03D8075BA85E3FFF
(0000000002.162700) vcan0 212#03D8075BA85E3FFF
(0000000002.182700) vcan0 212#03D8075B685D3FFF
(0000000002.202700) vcan0 212#03D8075B685D3FFF
(0000000002.222700) vcan0 212#03D8075BA85E3FFF
(0000000002.242700) vcan0 212#03D8075BE85F3FFF
(0000000002.262700) vcan0 212#03D8075B68613FFF
(0000000002.282600) vcan0 212#03D8075B28633FFF
(0000000002.302600) vcan0 212#03D8075BA8673FFF
(0000000002.322600) vcan0 212#03D8075CE8723FFF
(0000000002.342600) vcan0 212#03D8075C68803FFF
(0000000002.362600) vcan0 212#03D8075C28903FFF
(0000000002.382600) vcan0 212#03D8075CA8A13FFF
(0000000002.402600) vcan0 212#03D8075EE8B23FFF
(0000000002.422600) vcan0 212#03D8075E68C13FFF
(0000000002.442600) vcan0 212#03D8076028D23FFF
(0000000002.462600) vcan0 212#03D80763E8E73FFF
(0000000002.482600) vcan0 212#03D80764E90E3FFF
(0000000002.502500) vcan0 212#03D8076769303FFF
(0000000002.522500) vcan0 212#03D8076829463FFF
(0000000002.542500) vcan0 212#03D8076DE94F3FFF
(0000000002.562500) vcan0 212#03D8076DA95A3FFF
(0000000002.582500) vcan0 212#03D8076F69663FFF
(0000000002.602500) vcan0 212#03D8077169693FFF
(0000000002.622500) vcan0 212#03D80772E96B3FFF
(0000000002.642500) vcan0 212#03D80771A96A3FFF
(0000000002.662500) vcan0 212#03D80772696A3FFF
(0000000002.682500) vcan0 212#03D80773296D3FFF
(0000000002.702500) vcan0 212#03D80774A9723FFF
(0000000002.722400) vcan0 212#03D80774E9763FFF
(0000000002.742500) vcan0 212#03D8077329753FFF
(0000000002.762400) vcan0 212#03D8077529763FFF
(0000000002.782400) vcan0 212#03D80774A9723FFF
(0000000002.802400) vcan0 212#03D80774E9703FFF
(0000000002.822400) vcan0 212#03D8077429703FFF
(0000000002.842400) vcan0 212#03D8077329703FFF
(0000000002.862400) vcan0 212#03D80774A96F3FFF
(0000000002.882400) vcan0 212#03D80773E96D3FFF
(0000000002.902400) vcan0 212#03D80772296B3FFF
(0000000002.922400) vcan0 212#03D80772296B3FFF
(0000000002.942300) vcan0 212#03D80771A96A3FFF
(0000000002.962400) vcan0 212#03D80770E9683FFF
(0000000002.982300) vcan0 212#03D8076F29673FFF
(0000000003.002300) vcan0 212#03D8076F29673FFF
(0000000003.022300) vcan0 212#03D8076FA9663FFF
(0000000003.042300) vcan0 212#03D8076EE9673FFF
(0000000003.062300) vcan0 212#03D8076E69663FFF
(0000000003.082300) vcan0 212#03D8076E69653FFF
(0000000003.102300) vcan0 212#03D8076DE9643FFF
(0000000003.122300) vcan0 212#03D8076DA9633FFF
(0000000003.142300) vcan0 212#03D8076C29613FFF
(0000000003.162200) vcan0 212#03D8076A29623FFF
(0000000003.182300) vcan0 212#03D8076BE9623FFF
(0000000003.202200) vcan0 212#03D8076BE9623FFF
(0000000003.222200) vcan0 212#03D8076A69633FFF
(0000000003.242200) vcan0 212#03D8076B69653FFF
(0000000003.262200) vcan0 212#03D8076AE9623FFF
(0000000003.282200) vcan0 212#03D8076AA9603FFF
(0000000003.302200) vcan0 212#03D8076A69603FFF
(0000000003.322200) vcan0 212#03D80769695F3FFF
(0000000003.342200) vcan0 212#03D80769A95F3FFF
(0000000003.362100) vcan0 212#03D80768A95A3FFF
(0000000003.382100) vcan0 212#03D8076869593FFF
(0000000003.402100) vcan0 212#03D8076829573FFF
(0000000003.422100) vcan0 212#03D80767A9593FFF
(0000000003.442100) vcan0 212#03D80767A9593FFF
(0000000003.462100) vcan0 212#03D8076669593FFF
(0000000003.482100) vcan0 212#03D8076429573FFF
(0000000003.502100) vcan0 212#03D80765A9553FFF
(0000000003.522100) vcan0 212#03D80765A9563FFF
(0000000003.542100) vcan0 212#03D8076469553FFF
(0000000003.562100) vcan0 212#03D8076529523FFF
(0000000003.582100) vcan0 212#03D80764A9553FFF
(0000000003.602000) vcan0 212#03D80763E9543FFF
(0000000003.622000) vcan0 212#03D8076569563FFF
(0000000003.642000) vcan0 212#03D8076469563FFF
(0000000003.662000) vcan0 212#03D80762E9543FFF
(0000000003.682000) vcan0 212#03D80765E9583FFF
(0000000003.702000) vcan0 212#03D8076229573FFF
(0000000003.722000) vcan0 212#03D8076569563FFF
(0000000003.742000) vcan0 212#03D80765A9553FFF
(0000000003.762000) vcan0 212#03D80763A9553FFF
(0000000003.782000) vcan0 212#03D8076569553FFF
(0000000003.801900) vcan0 212#03D8076269533FFF
(0000000003.821900) vcan0 212#03D80762A9533FFF
(0000000003.842000) vcan0 212#03D80764A9533FFF
(0000000003.861900) vcan0 212#03D8076229543FFF
(0000000003.881900) vcan0 212#03D8076329543FFF
(0000000003.901900) vcan0 212#03D80764A9533FFF
(0000000003.921900) vcan0 212#03D80761A9533FFF
(0000000003.941900) vcan0 212#03D8076269533FFF
(0000000003.961900) vcan0 212#03D8076529543FFF
(0000000003.981900) vcan0 212#03D80762A9503FFF
(0000000004.001900) vcan0 212#03D80764E9523FFF
(0000000004.021800) vcan0 212#03D8076269533FFF
(0000000004.041800) vcan0 212#03D8076229543FFF
(0000000004.061800) vcan0 212#03D80764A9533FFF
(0000000004.081800) vcan0 212#03D80762A9533FFF
(0000000004.101800) vcan0 212#03D8076129523FFF
(0000000004.121800) vcan0 212#03D8076429523FFF
(0000000004.141800) vcan0 212#03D80762A9503FFF
(0000000004.161800) vcan0 212#03D80762E9513FFF
(0000000004.181800) vcan0 212#03D80763294F3FFF
(0000000004.201800) vcan0 212#03D80761294F3FFF
(0000000004.221800) vcan0 212#03D80762E94F3FFF
(0000000004.241700) vcan0 212#03D80763E94C3FFF
(0000000004.261700) vcan0 212#03D80761294A3FFF
(0000000004.281700) vcan0 212#03D80763694B3FFF
(0000000004.301700) vcan0 212#03D80762A94B3FFF
(0000000004.321700) vcan0 212#03D80763A94B3FFF
(0000000004.341700) vcan0 212#03D80764294A3FFF
(0000000004.361700) vcan0 212#03D8076229493FFF
(0000000004.381700) vcan0 212#03D80763E94A3FFF
(0000000004.401600) vcan0 212#03D80764E94A3FFF
(0000000004.421700) vcan0 212#03D80761694B3FFF
(0000000004.441700) vcan0 212#03D80762294A3FFF
(0000000004.461600) vcan0 212#03D80762E94A3FFF
(0000000004.481600) vcan0 212#03D80761A94B3FFF
(0000000004.501600) vcan0 212#03D80762294A3FFF
(0000000004.521600) vcan0 212#03D80762294A3FFF
(0000000004.541600) vcan0 212#03D80761E9493FFF
(0000000004.561600) vcan0 212#03D80762E94C3FFF
(0000000004.581600) vcan0 212#03D8076229493FFF
(0000000004.601600) vcan0 212#03D80761294A3FFF
(0000000004.621500) vcan0 212#03D80762A94D3FFF
(0000000004.641600) vcan0 212#03D80762A94D3FFF
(0000000004.661500) vcan0 212#03D80761694D3FFF
(0000000004.681500) vcan0 212#03D80764694E3FFF
(0000000004.701500) vcan0 212#03D80762A94D3FFF
(0000000004.721500) vcan0 212#03D80761E94C3FFF
(0000000004.741500) vcan0 212#03D80762694D3FFF
(0000000004.761500) vcan0 212#03D8076169503FFF
(0000000004.781500) vcan0 212#03D80761A9503FFF
(0000000004.801500) vcan0 212#03D80762A94E3FFF
(0000000004.821500) vcan0 212#03D80761694E3FFF
(0000000004.841400) vcan0 212#03D80763294F3FFF
(0000000004.861500) vcan0 212#03D80762A94E3FFF
(0000000004.881400) vcan0 212#03D80762A94D3FFF
(0000000004.901400) vcan0 212#03D80763694E3FFF
(0000000004.921400) vcan0 212#03D80761294C3FFF
(0000000004.941400) vcan0 212#03D80761A94D3FFF
(0000000004.961400) vcan0 212#03D80763A94D3FFF
(0000000004.981400) vcan0 212#03D8076169503FFF
(0000000005.001400) vcan0 212#03D80762694D3FFF
(0000000005.021400) vcan0 212#03D80762A94D3FFF
(0000000005.041300) vcan0 212#03D80761E94F3FFF
(0000000005.061300) vcan0 212#03D80763294C3FFF
(0000000005.081300) vcan0 212#03D80761694D3FFF
(0000000005.101300) vcan0 212#03D80762A94D3FFF
(0000000005.121300) vcan0 212#03D80764A94D3FFF
(0000000005.141300) vcan0 212#03D80761694E3FFF
(0000000005.161300) vcan0 212#03D80761694D3FFF
(0000000005.181300) vcan0 212#03D80762A94E3FFF
(0000000005.201300) vcan0 212#03D80761A94D3FFF
(0000000005.221300) vcan0 212#03D80761694E3FFF
(0000000005.241300) vcan0 212#03D80762294F3FFF
(0000000005.261200) vcan0 212#03D80761A94E3FFF
(0000000005.281200) vcan0 212#03D80762E94F3FFF
(0000000005.301200) vcan0 212#03D80762694E3FFF
(0000000005.321200) vcan0 212#03D80761694E3FFF
(0000000005.341200) vcan0 212#03D80764A94E3FFF
(0000000005.361200) vcan0 212#03D80762A94D3FFF
(0000000005.381200) vcan0 212#03D80761694E3FFF
(0000000005.401200) vcan0 212#03D80762294F3FFF
(0000000005.421200) vcan0 212#03D80761E9513FFF
(0000000005.441200) vcan0 212#03D80761A9503FFF
(0000000005.461200) vcan0 212#03D80762694E3FFF
(0000000005.481100) vcan0 212#03D80761694E3FFF
(0000000005.501100) vcan0 212#03D80762A94D3FFF
(0000000005.521200) vcan0 212#03D80762A94E3FFF
(0000000005.541100) vcan0 212#03D80761694E3FFF
(0000000005.561100) vcan0 212#03D80762694E3FFF
(0000000005.581100) vcan0 212#03D80762E94C3FFF
(0000000005.601100) vcan0 212#03D80762A94D3FFF
(0000000005.621100) vcan0 212#03D80762694D3FFF
(0000000005.641100) vcan0 212#03D80761694E3FFF
(0000000005.661100) vcan0 212#03D80762A94D3FFF
(0000000005.681100) vcan0 212#03D80762A94E3FFF
(0000000005.701000) vcan0 212#03D80761694D3FFF
(0000000005.721000) vcan0 212#03D80762694D3FFF
(0000000005.741000) vcan0 212#03D80762A94D3FFF
(0000000005.761000) vcan0 212#03D80761A94D3FFF
(0000000005.781000) vcan0 212#03D80763294C3FFF
(0000000005.801000) vcan0 212#03D80761694D3FFF
(0000000005.821000) vcan0 212#03D80762A94D3FFF
(0000000005.841000) vcan0 212#03D80763A94D3FFF
(0000000005.861000) vcan0 212#03D80762694B3FFF
(0000000005.881000) vcan0 212#03D80762694D3FFF
(0000000005.900900) vcan0 212#03D80763E94C3FFF
(0000000005.920900) vcan0 212#03D80762A94D3FFF
(0000000005.940900) vcan0 212#03D80762694D3FFF
(0000000005.960900) vcan0 212#03D80762694D3FFF
(0000000005.980900) vcan0 212#03D80762A94B3FFF
(0000000006.000900) vcan0 212#03D80764E94C3FFF
(0000000006.020900) vcan0 212#03D80762694E3FFF
(0000000006.040900) vcan0 212#03D80762694E3FFF
(0000000006.060800) vcan0 212#03D80763E94C3FFF
(0000000006.080900) vcan0 212#03D80761E94A3FFF
(0000000006.100900) vcan0 212#03D80764694D3FFF
(0000000006.120800) vcan0 212#03D80764294C3FFF
(0000000006.140800) vcan0 212#03D80763E94C3FFF
(0000000006.160800) vcan0 212#03D80764E94C3FFF
(0000000006.180800) vcan0 212#03D80763694B3FFF
(0000000006.200800) vcan0 212#03D80762294C3FFF
(0000000006.220800) vcan0 212#03D80763E94C3FFF
(0000000006.240800) vcan0 212#03D80762E94A3FFF
(0000000006.260800) vcan0 212#03D80762294A3FFF
(0000000006.280700) vcan0 212#03D80763294A3FFF
(0000000006.300800) vcan0 212#03D80762A94E3FFF
(0000000006.320700) vcan0 212#03D80763A94D3FFF
(0000000006.340700) vcan0 212#03D80763694B3FFF
(0000000006.360700) vcan0 212#03D80761694B3FFF
(0000000006.380700) vcan0 212#03D80762E94A3FFF
(0000000006.400700) vcan0 212#03D80762A94B3FFF
(0000000006.420700) vcan0 212#03D80762694B3FFF
(0000000006.440700) vcan0 212#03D80763694D3FFF
(0000000006.460700) vcan0 212#03D80762A94B3FFF
(0000000006.480600) vcan0 212#03D80765E94C3FFF
(0000000006.500600) vcan0 212#03D80764294C3FFF
(0000000006.520700) vcan0 212#03D80763694B3FFF
(0000000006.540600) vcan0 212#03D80763A94D3FFF
(0000000006.560600) vcan0 212#03D80762E94C3FFF
(0000000006.580600) vcan0 212#03D80762694B3FFF
(0000000006.600600) vcan0 212#03D80763694D3FFF
(0000000006.620600) vcan0 212#03D80763A94D3FFF
(0000000006.640600) vcan0 212#03D80763E94C3FFF
(0000000006.660600) vcan0 212#03D80764694B3FFF
(0000000006.680500) vcan0 212#03D80762294C3FFF
(0000000006.700500) vcan0 212#03D80763E9493FFF
(0000000006.720500) vcan0 212#03D80763A94B3FFF
(0000000006.740500) vcan0 212#03D80762694B3FFF
(0000000006.760500) vcan0 212#03D80763694B3FFF
(0000000006.780500) vcan0 212#03D80762E94A3FFF
(0000000006.800500) vcan0 212#03D80763E94A3FFF
(0000000006.820500) vcan0 212#03D8076329493FFF
(0000000006.840500) vcan0 212#03D80763694B3FFF
(0000000006.860400) vcan0 212#03D80765A94B3FFF
(0000000006.880500) vcan0 212#03D80764E94C3FFF
(0000000006.900500) vcan0 212#03D8076229493FFF
(0000000006.920400) vcan0 212#03D8076429493FFF
(0000000006.940400) vcan0 212#03D80763E94A3FFF
(0000000006.960400) vcan0 212#03D80763E94C3FFF
(0000000006.980400) vcan0 212#03D80763294A3FFF
(0000000007.000400) vcan0 212#03D8076329493FFF
(0000000007.020400) vcan0 212#03D80763E9493FFF
(0000000007.040400) vcan0 212#03D80763E94A3FFF
(0000000007.060400) vcan0 212#03D8076229493FFF
(0000000007.080300) vcan0 212#03D8076369473FFF
(0000000007.100400) vcan0 212#03D80763E94A3FFF
(0000000007.120300) vcan0 212#03D80764A94B3FFF
(0000000007.140300) vcan0 212#03D80765294A3FFF
(0000000007.160300) vcan0 212#03D80764694B3FFF
(0000000007.180300) vcan0 212#03D80764E94A3FFF
(0000000007.200300) vcan0 212#03D80764A94B3FFF
(0000000007.220300) vcan0 212#03D80763294A3FFF
(0000000007.240300) vcan0 212#03D8076429493FFF
(0000000007.260300) vcan0 212#03D80765E9493FFF
(0000000007.280200) vcan0 212#03D80764E9493FFF
(0000000007.300200) vcan0 212#03D8076569483FFF
(0000000007.320200) vcan0 212#03D8076329463FFF
(0000000007.340200) vcan0 212#03D80764A9423FFF
(0000000007.360200) vcan0 212#03D80764E92F3FFF
(0000000007.380200) vcan0 212#03D8076368C73FFF
(0000000007.400200) vcan0 212#03D80763683D3FFF
(0000000007.420200) vcan0 212#02BF075DE7F63FFF
(0000000007.440200) vcan0 212#02BF074EA7F23FFF
(0000000007.460200) vcan0 212#02BF073A67F23FFF
(0000000007.480200) vcan0 212#02BF073A67F23FFF
(0000000007.500100) vcan0 212#02BF073AA7F23FFF
(0000000007.520100) vcan0 212#02BF073AA7F23FFF
(0000000007.540100) vcan0 212#02BF073A67F23FFF
(0000000007.560100) vcan0 212#02BF073A67F23FFF
(0000000007.580100) vcan0 212#02BF073AA7F23FFF
(0000000007.600100) vcan0 212#02BF073AA7F23FFF
(0000000007.620100) vcan0 212#02BF073A67F23FFF
(0000000007.640100) vcan0 212#02BF073A67F23FFF
(0000000007.660000) vcan0 212#02BF073AA7F23FFF
(0000000007.680100) vcan0 212#02BF073AA7F23FFF
(0000000007.700000) vcan0 212#02BF073A67F23FFF
(0000000007.720000) vcan0 212#02BF073A67F23FFF
(0000000007.740000) vcan0 212#02BF073AA7F23FFF
(0000000007.760000) vcan0 212#02BF073AA7F23FFF
(0000000007.780000) vcan0 212#02BF073A67F23FFF
(0000000007.800000) vcan0 212#02BF073A67F23FFF
