(1591048209.923854) can0 248#0008000000004000
(1591048209.928836) can0 318#00FF0107FFFF0000
(1591048209.948749) can0 315#6C000000007600
(1591048209.963620) can0 408#00008C0002000000
(1591048209.984005) can0 325#000DE064000100
(1591048209.984015) can0 412#FF00FF008E00
(1591048210.004394) can0 248#0008000000004000
(1591048210.004395) can0 5FE#00000000000007EA
(1591048210.004396) can0 315#30000000007600
(1591048210.024827) can0 325#000DE064000100
(1591048210.024828) can0 6FB#1107040023224000
(1591048210.024828) can0 412#FF00FF008E00
(1591048210.045599) can0 248#0008000000004000
(1591048210.045600) can0 6FD#0193004012266900
(1591048210.045600) can0 315#74000000007600
(1591048210.066418) can0 325#000DE064000100
(1591048210.066419) can0 312#5FFF074C09AF074C
(1591048210.066420) can0 6FF#2181024000000000
(1591048210.086739) can0 412#FF00FF008E00
(1591048210.086741) can0 248#0008000000004000
(1591048210.086742) can0 210#0000008080000000
(1591048210.107262) can0 255#3FFF3FFF1F40FFFF
(1591048210.107263) can0 308#00000046011FFF00
(1591048210.107265) can0 309#1FFFFFFF0FFF00
(1591048210.127630) can0 312#674C074C09AF074C
(1591048210.127633) can0 380#0001
(1591048210.127634) can0 315#78000000007600
(1591048210.148100) can0 325#000DE064000100
(1591048210.148102) can0 359#30FFFF80
(1591048210.148104) can0 236#10263FFF000000E7
(1591048210.168767) can0 212#0576074CA7C43FFF
(1591048210.168770) can0 308#00000006001FFF00
(1591048210.168771) can0 309#1FFFFFFF0FFF00
(1591048210.189541) can0 312#074C074C09AF074C
(1591048210.189543) can0 356#3FFF3FFF086C00
(1591048210.189544) can0 7BC#0000000000000000
(1591048210.209783) can0 412#FF00FF008E00
(1591048210.209785) can0 248#0008000000004000
(1591048210.209786) can0 236#10263FFF100000FF
(1591048210.230361) can0 210#0000008080000000
(1591048210.230363) can0 255#3FFF3FFF1F40FFFF
(1591048210.230365) can0 308#00000006001FFF00
(1591048210.250850) can0 309#1FFFFFFF0FFF00
(1591048210.250851) can0 312#074C074C09AF074C
(1591048210.250853) can0 380#0001
(1591048210.271348) can0 6FE#FFEFE7E700000000
(1591048210.271350) can0 315#3C000000007600
(1591048210.271351) can0 325#080DE064000100
(1591048210.292419) can0 359#30FFFF80
(1591048210.292421) can0 236#10263FFF200000D7
(1591048210.292423) can0 212#0576074C67C43FFF
(1591048210.312949) can0 308#00000046011FFF00
(1591048210.312951) can0 309#1FFFFFFF0FFF00
(1591048210.312953) can0 312#674C074C09AF074C
(1591048210.333314) can0 356#3FFF3FFF086C00
(1591048210.333316) can0 6FA#004A413341573836
(1591048210.333317) can0 7BC#01BE3FB013000000
(1591048210.353782) can0 412#FF004F008E00
(1591048210.353784) can0 248#0008000000004000
(1591048210.353786) can0 236#10263FFF300000CF
(1591048210.374017) can0 210#0000000000000000
(1591048210.374020) can0 255#3FFF3FFF1F40FFFF
(1591048210.374021) can0 308#00000046011FFF00
(1591048210.394386) can0 309#1FFFFFFF0FFF00
(1591048210.394388) can0 312#674C074C09AF074C
(1591048210.394390) can0 380#0001
(1591048210.414564) can0 608#4648000000000000
(1591048210.414566) can0 318#00FF01014E500000
(1591048210.414568) can0 315#00000000007600
(1591048210.435396) can0 408#00008C0002000000
(1591048210.435398) can0 359#30FFFF80
(1591048210.435399) can0 325#080DE064000100
(1591048210.455878) can0 236#10263FFF40000087
(1591048210.455880) can0 212#0576074C67C43FFF
(1591048210.455881) can0 308#00000006001FFF00
(1591048210.476381) can0 309#1FFFFFFF0FFF00
(1591048210.476383) can0 312#074C074C09AF074C
(1591048210.476384) can0 356#3FFF3FFF086C00
(1591048210.496903) can0 4A0#28D933197D0F0040
(1591048210.496905) can0 7BC#0200076565000004
(1591048210.496907) can0 412#FF004F008E00
(1591048210.517392) can0 248#0008000000004000
(1591048210.517395) can0 236#10263FFF5000009F
(1591048210.517397) can0 210#0000000000000000
(1591048210.537999) can0 255#3FFF3FFF1F40FFFF
(1591048210.538002) can0 308#00000006001FFF00
(1591048210.538003) can0 309#1FFFFFFF0FFF00
(1591048210.558403) can0 300#009B1FFF1FFFFFFF
(1591048210.558405) can0 328#0000FF00D980FFFF
(1591048210.558406) can0 330#FCFCFCFFFFFF3FFF
(1591048210.578987) can0 312#074C074C09AF074C
(1591048210.578989) can0 380#0001
(1591048210.578990) can0 415#000000000000CB
(1591048210.599420) can0 315#44000000007600
(1591048210.599422) can0 359#31000080
(1591048210.599423) can0 325#080DE064000100
(1591048210.619686) can0 236#10263FFF600000B7
(1591048210.619687) can0 101#01
(1591048210.619689) can0 212#0576074CA7C43FFF
(1591048210.640290) can0 308#00000046011FFF00
(1591048210.640293) can0 309#1FFFFFFF0FFF00
(1591048210.640294) can0 312#674C074C09AF074C
(1591048210.660815) can0 200#1E03C000C000C000
(1591048210.660818) can0 208#00206FFFC000C000
(1591048210.660819) can0 215#00000000000000
(1591048210.681482) can0 356#3FFF3FFF086C00
(1591048210.681484) can0 7BC#0300004680008000
(1591048210.681486) can0 412#FF004F008E00
(1591048210.701941) can0 248#0008000000004000
(1591048210.701942) can0 236#10263FFF700000AF
(1591048210.701944) can0 210#0000008080000000
(1591048210.722457) can0 255#3FFF3FFF1F40FFFF
(1591048210.722460) can0 308#00000046011FFF00
(1591048210.722461) can0 309#1FFFFFFF0FFF00
(1591048210.742997) can0 300#001B1FFF9FFFFFFF
(1591048210.742999) can0 328#0000FF00D880FFFF
(1591048210.743000) can0 330#FCFCFCFFFFFF3FFF
(1591048210.763507) can0 312#674C074C09AF074C
(1591048210.763509) can0 380#0001
(1591048210.763511) can0 315#48000000007600
(1591048210.784075) can0 359#01000080
(1591048210.784077) can0 325#080DE064000100
(1591048210.784078) can0 236#10263FFF80000027
(1591048210.804898) can0 212#0576074CA7C43FFF
(1591048210.804901) can0 308#00000006001FFF00
(1591048210.804902) can0 309#1FFFFFFF0FFF00
(1591048210.825497) can0 312#074C074C09AF074C
(1591048210.825500) can0 356#3FFF3FFF086C00
(1591048210.825501) can0 200#1E03C000C000C000
(1591048210.845894) can0 208#00206FFFC000C000
(1591048210.845897) can0 215#00000000000003
(1591048210.845898) can0 7BC#0400000000006500
(1591048210.866638) can0 412#FF004F008E00
(1591048210.866647) can0 248#0008000000004000
(1591048210.866648) can0 236#10263FFF9000003F
(1591048210.887360) can0 210#0000008080000000
(1591048210.887361) can0 255#3FFF3FFF1F40FFFF
(1591048210.887362) can0 308#00000006001FFF00
(1591048210.908183) can0 309#1FFFFFFF0FFF00
(1591048210.908184) can0 300#001B1FFF9FFFFFFF
(1591048210.908185) can0 328#0000FF00D880FFFF
(1591048210.933938) can0 312#074C074C09AF074C
(1591048210.933940) can0 330#FCFCFCFFFFFF3FFF
(1591048210.933941) can0 380#0001
(1591048210.949214) can0 315#0C000000007600
(1591048210.949215) can0 359#01000082
(1591048210.949216) can0 325#080DE064000100
(1591048210.969669) can0 236#10261000A000000C
(1591048210.969671) can0 212#0576074C67C43FFF
(1591048210.969672) can0 308#00000046011FFF00
(1591048210.989704) can0 309#1FFFFFFF0FFF00
(1591048210.989706) can0 312#674C074C09AF074C
(1591048210.989706) can0 356#3FFF3FFF086C00
(1591048211.010288) can0 200#1E03C000C000C000
(1591048211.010290) can0 208#00206FFFC000C000
(1591048211.010291) can0 215#00000000000003
(1591048211.030791) can0 7BC#050000FA4800002B
(1591048211.030792) can0 412#FF004F008E00
(1591048211.030793) can0 248#0008000000004000
(1591048211.051719) can0 236#10261000B0000014
(1591048211.051721) can0 210#0000000000000000
(1591048211.051721) can0 255#3FFF3FFF1F40FFFF
(1591048211.072261) can0 308#00000046011FFF00
(1591048211.072263) can0 309#1FFFFFFF0FFF00
(1591048211.072264) can0 300#009B1FFF1FFFFFFF
(1591048211.092381) can0 328#0000FF00D880FFFF
(1591048211.092383) can0 312#674C074C09AF074C
(1591048211.092384) can0 330#FCFCFCFFFFFF3FFF
(1591048211.112607) can0 380#0001
(1591048211.112610) can0 6FE#FFEFE7E700000000
(1591048211.112611) can0 315#50000000007600
(1591048211.132968) can0 359#31000082
(1591048211.132970) can0 325#080DE064000100
(1591048211.132971) can0 236#10261000C000005C
(1591048211.153512) can0 212#0576074C67C43FFF
(1591048211.153514) can0 308#00000006001FFF00
(1591048211.153516) can0 309#1FFFFFFF0FFF00
(1591048211.173982) can0 312#074C074C09AF074C
(1591048211.173984) can0 356#3FFF3FFF086C00
(1591048211.173985) can0 200#1E03C000C000C000
(1591048211.195094) can0 208#00206000C000C000
(1591048211.195096) can0 215#00000000000000
(1591048211.195098) can0 6FA#0156393855303438
(1591048211.215030) can0 7BC#0600010080000000
(1591048211.215031) can0 412#FF004E008E00
(1591048211.215033) can0 248#0008000000004000
(1591048211.235535) can0 236#10261000D0000044
(1591048211.235536) can0 210#0000000000000000
(1591048211.235538) can0 255#3FFF3FFF1F40FFFF
(1591048211.255983) can0 308#00000006001FFF00
(1591048211.255985) can0 309#1FFFFFFF0FFF00
(1591048211.255986) can0 300#009B1FFF1FFFFFFF
(1591048211.276636) can0 328#0000FF00D880FFFF
(1591048211.276638) can0 312#074C074C09AF074C
(1591048211.276640) can0 330#FCFCFCFFFFFF3FFF
(1591048211.296618) can0 380#0001
(1591048211.296620) can0 608#4648000000000000
(1591048211.296621) can0 318#00FF01014E500000
(1591048211.317158) can0 315#14000000007600
(1591048211.317159) can0 359#31000082
(1591048211.317161) can0 408#00008C0002000000
(1591048211.337683) can0 325#080DE064000100
(1591048211.337686) can0 236#10261000E000006C
(1591048211.337687) can0 212#0576074CA7C43FFF
(1591048211.358265) can0 308#00000046011FFF00
(1591048211.358267) can0 309#1FFFFFFF0FFF00
(1591048211.358283) can0 312#674C074C09AF074C
(1591048211.378737) can0 356#3FFF3FFF086C00
(1591048211.378739) can0 200#1E03C000C000C000
(1591048211.378741) can0 208#00206000C000C000
(1591048211.399201) can0 215#00000000000000
(1591048211.399204) can0 4A0#27DA33197D0E0040
(1591048211.399205) can0 7BC#0700000000000000
(1591048211.419900) can0 412#FF004E008E00
(1591048211.419902) can0 248#0008000000004000
(1591048211.419903) can0 236#10261000F0000074
(1591048211.440225) can0 210#0000008080000000
(1591048211.440227) can0 255#3FFF3FFF1F40FFFF
(1591048211.440229) can0 308#00000046011FFF00
(1591048211.460954) can0 309#1FFFFFFF0FFF00
(1591048211.460957) can0 300#001B1FFF9FFFFFFF
(1591048211.460958) can0 328#0000FF00D880FFFF
(1591048211.481800) can0 312#674C074C09AF074C
(1591048211.481809) can0 330#FCFCFCFFFFFF3FFF
(1591048211.481811) can0 380#0001
(1591048211.502383) can0 415#000000000000CB
(1591048211.502385) can0 315#18000000007600
(1591048211.502386) can0 359#01000082
(1591048211.522839) can0 325#080DE064000100
(1591048211.522842) can0 236#10261000000000FC
(1591048211.522843) can0 101#01
(1591048211.543393) can0 212#0576074CA7C43FFF
(1591048211.543395) can0 308#00000006001FFF00
(1591048211.543396) can0 309#1FFFFFFF0FFF00
(1591048211.563931) can0 312#074C074C09AF074C
(1591048211.563933) can0 359#01000082
(1591048211.563934) can0 325#080DE064000100
(1591048211.584319) can0 236#10261000200000CC
(1591048211.584321) can0 359#31000082
(1591048211.584322) can0 325#080DE064000100
(1591048211.604651) can0 236#102610004000009C
(1591048211.604653) can0 359#31000082
(1591048211.604654) can0 325#080DE064000100
(1591048211.625182) can0 236#10261000600000AC
(1591048211.625185) can0 359#01000082
(1591048211.625186) can0 408#00008C0002000000
(1591048211.645404) can0 325#080DE064000100
(1591048211.645406) can0 359#01000082
(1591048211.645407) can0 325#080DE064000100
(1591048211.666108) can0 236#10260FFFA0000038
(1591048211.666110) can0 359#31000082
(1591048211.666112) can0 325#080DE064000100
(1591048211.686717) can0 236#10261000C000005C
(1591048211.686720) can0 359#31000082
(1591048211.686721) can0 325#080DE064000100
(1591048211.706973) can0 236#10261000E000006C
(1591048211.706975) can0 359#01000082
(1591048211.706977) can0 325#080DE064000100
(1591048211.727560) can0 236#10261000000000FC
(1591048211.727562) can0 408#00008B0002000000
(1591048211.727564) can0 325#080DE064000100
(1591048211.748004) can0 236#10261000200000CC
(1591048211.748006) can0 236#1026100140000001
(1591048211.748008) can0 101#00
(1591048211.768481) can0 212#0576074C27C03FFF
(1591048211.768483) can0 236#10261000600000AC
(1591048211.768485) can0 212#0576074CE7C03FFF
(1591048211.789005) can0 308#00000046011FFF00
(1591048211.789014) can0 308#00000006001FFF00
(1591048211.789016) can0 309#1FFFFFFF0FFF00
(1591048211.809939) can0 312#074C074C09A7074C
(1591048211.809941) can0 309#1FFFFFFF0FFF00
(1591048211.809943) can0 312#674C074C09A7074C
(1591048211.830440) can0 356#3FFF3FFF086C00
(1591048211.830442) can0 312#074C074C09A7074C
(1591048211.830444) can0 200#1E03C000C000C000
(1591048211.850797) can0 208#00206000C000C000
(1591048211.850800) can0 208#00206000C000C000
(1591048211.850801) can0 215#00000000000000
(1591048211.871401) can0 356#3FFF3FFF086C00
(1591048211.871403) can0 215#00000000000003
(1591048211.871405) can0 412#26004F008E00
(1591048211.891965) can0 248#0008000000004000
(1591048211.891968) can0 412#26004F008E00
(1591048211.891969) can0 248#0008000000004000
(1591048211.912006) can0 210#0000000000000000
(1591048211.912008) can0 412#26004E008E00
(1591048211.912009) can0 248#0008000000004000
(1591048211.938075) can0 210#0000000000000000
(1591048211.938077) can0 412#26004E008E00
(1591048211.938079) can0 248#0008000000004000
(1591048211.952887) can0 210#0000008080000000
(1591048211.952889) can0 412#26004E008E00
(1591048211.952890) can0 248#0008000000004000
(1591048211.973408) can0 210#0000008080000000
(1591048211.973409) can0 248#0008000000004000
(1591048211.973410) can0 210#0000000000000000
(1591048211.993736) can0 255#3FFF3FFF1F40FFFF
(1591048211.993737) can0 248#0008000000004000
(1591048211.993738) can0 210#0000000000000000
(1591048212.014474) can0 255#3FFF3FFF1F40FFFF
(1591048212.014476) can0 248#0008000000004000
(1591048212.014477) can0 210#0000008080000000
(1591048212.034656) can0 255#3FFF3FFF1F40FFFF
(1591048212.034658) can0 248#0008000000004000
(1591048212.034660) can0 210#0000008080000000
(1591048212.055483) can0 255#3FFF3FFF1F40FFFF
(1591048212.055485) can0 248#0008000000004000
(1591048212.055486) can0 210#0000000000000000
(1591048212.075933) can0 255#3FFF3FFF1F40FFFF
(1591048212.075935) can0 248#0008000000004000
(1591048212.075937) can0 210#0000000000000000
(1591048212.096660) can0 255#3FFF3FFF1F40FFFF
(1591048212.096662) can0 248#0008000000004000
(1591048212.096664) can0 210#0000008080000000
(1591048212.117206) can0 255#3FFF3FFF1F40FFFF
(1591048212.117209) can0 248#0008000000004000
(1591048212.117210) can0 210#0000008080000000
(1591048212.137357) can0 255#3FFF3FFF1F40FFFF
(1591048212.137359) can0 248#0008000000004000
(1591048212.137360) can0 210#0000000000000000
(1591048212.157808) can0 255#3FFF3FFF1F40FFFF
(1591048212.157810) can0 210#0000000000000000
(1591048212.157811) can0 255#3FFF3FFF1F40FFFF
(1591048212.177954) can0 236#10261000D0000044
(1591048212.178078) can0 236#10261000F0000074
(1591048212.178081) can0 308#00000046011FFF00
(1591048212.198526) can0 309#1FFFFFFF0FFF00
(1591048212.198528) can0 309#1FFFFFFF0FFF00
(1591048212.198529) can0 312#074C074C09A7074C
(1591048212.218852) can0 380#0001
(1591048212.218854) can0 608#4648000000000000
(1591048212.218855) can0 300#009B1FFF1FFFFFFF
(1591048212.239363) can0 328#0000FF00D880FFFF
(1591048212.239364) can0 328#0000FF00D880FFFF
(1591048212.239365) can0 330#FCFCFCFFFFFF3FFF
(1591048212.259864) can0 5FE#00000000000007EA
(1591048212.259865) can0 6FD#0193004012266900
(1591048212.259866) can0 315#28000000007600
(1591048212.280576) can0 359#01000082
(1591048212.280578) can0 315#6C000000007600
(1591048212.280579) can0 359#01000082
(1591048212.300790) can0 212#0576074C27C03FFF
(1591048212.300793) can0 315#30000000007600
(1591048212.300794) can0 359#31000082
(1591048212.321316) can0 212#0576074C27C03FFF
(1591048212.321318) can0 359#31000082
(1591048212.321320) can0 212#0576074CE7C03FFF
(1591048212.341770) can0 408#00008C0002000000
(1591048212.341772) can0 359#01000082
(1591048212.341773) can0 101#04
(1591048212.362261) can0 212#0576074CE7C03FFF
(1591048212.362276) can0 359#01000082
(1591048212.362277) can0 212#0576074C27C03FFF
(1591048212.382772) can0 308#00000046011FFF00
(1591048212.382774) can0 359#31000082
(1591048212.382776) can0 212#0576074C27C03FFF
(1591048212.403383) can0 308#00000006001FFF00
(1591048212.403385) can0 359#31000082
(1591048212.403387) can0 212#0576074CE7C03FFF
(1591048212.423817) can0 308#00000046011FFF00
(1591048212.423819) can0 359#01000082
(1591048212.423821) can0 212#0576074CE7C03FFF
(1591048212.444292) can0 308#00000006001FFF00
(1591048212.444295) can0 101#04
(1591048212.444296) can0 212#0576074C27C03FFF
(1591048212.464856) can0 308#00000046011FFF00
(1591048212.464858) can0 212#0576074C27C03FFF
(1591048212.464859) can0 308#00000006001FFF00
(1591048212.484901) can0 325#080DE064000100
(1591048212.484903) can0 212#0576074CE7C03FFF
(1591048212.484904) can0 308#00000046011FFF00
(1591048212.505684) can0 325#080DE064000100
(1591048212.505686) can0 212#0576074CE7C03FFF
(1591048212.505688) can0 308#00000006001FFF00
(1591048212.526160) can0 325#080DE064000100
(1591048212.526163) can0 308#00000046011FFF00
(1591048212.526164) can0 309#1FFFFFFF0FFF00
(1591048212.546674) can0 408#00008C0002000000
(1591048212.546676) can0 309#1FFFFFFF0FFF00
(1591048212.546678) can0 236#102610004000009C
(1591048212.567146) can0 312#074C074C09A7074C
(1591048212.567149) can0 236#10261000600000AC
(1591048212.567150) can0 356#3FFF3FFF086C00
(1591048212.587572) can0 7BC#3B00000000000000
(1591048212.587573) can0 7BC#3C00000000000000
(1591048212.587575) can0 200#1E03C000C000C000
(1591048212.608139) can0 208#00206000C000C000
(1591048212.608141) can0 200#1E03C000C000C000
(1591048212.608142) can0 208#00206000C000C000
(1591048212.628517) can0 215#00000000000003
(1591048212.628518) can0 200#1E03C000C000C000
(1591048212.649130) can0 208#00206000C000C000
(1591048212.649131) can0 215#00000000000000
(1591048212.649132) can0 208#00206000C000C000
(1591048212.669704) can0 215#00000000000000
(1591048212.669705) can0 412#26004E008E00
(1591048212.669706) can0 412#26004E008E00
(1591048212.690350) can0 210#0000008080000000
(1591048212.690352) can0 255#3FFF3FFF1F40FFFF
(1591048212.690353) can0 412#26004E008E00
(1591048212.711058) can0 210#0000000000000000
(1591048212.711060) can0 255#3FFF3FFF1F40FFFF
(1591048212.711061) can0 412#26004E008E00
(1591048212.731576) can0 210#0000000000000000
(1591048212.731578) can0 255#3FFF3FFF1F40FFFF
(1591048212.731579) can0 412#26004E008E00
(1591048212.752414) can0 210#0000008080000000
(1591048212.752416) can0 255#3FFF3FFF1F40FFFF
(1591048212.752418) can0 412#26004E008E00
(1591048212.772957) can0 210#0000008080000000
(1591048212.772959) can0 255#3FFF3FFF1F40FFFF
(1591048212.772960) can0 210#0000000000000000
(1591048212.793434) can0 255#3FFF3FFF1F40FFFF
(1591048212.793436) can0 308#00000046011FFF00
(1591048212.793437) can0 210#0000000000000000
(1591048212.813902) can0 255#3FFF3FFF1F40FFFF
(1591048212.813904) can0 308#00000006001FFF00
(1591048212.813906) can0 210#0000008080000000
(1591048212.834453) can0 255#3FFF3FFF1F40FFFF
(1591048212.834455) can0 308#00000046011FFF00
(1591048212.834456) can0 210#0000008080000000
(1591048212.855112) can0 255#3FFF3FFF1F40FFFF
(1591048212.855114) can0 308#00000006001FFF00
(1591048212.855116) can0 210#0000000000000000
(1591048212.875482) can0 255#3FFF3FFF1F40FFFF
(1591048212.875484) can0 308#00000046011FFF00
(1591048212.875485) can0 210#0000000000000000
(1591048212.895974) can0 255#3FFF3FFF1F40FFFF
(1591048212.895976) can0 308#00000006001FFF00
(1591048212.895977) can0 255#3FFF3FFF1F40FFFF
(1591048212.916770) can0 308#00000046011FFF00
(1591048212.916772) can0 309#1FFFFFFF0FFF00
(1591048212.916773) can0 309#1FFFFFFF0FFF00
(1591048212.937312) can0 248#0008000000004000
(1591048212.937314) can0 312#074C074C09A7074C
(1591048212.937316) can0 248#0008000000004000
(1591048212.958044) can0 312#674C074C09A7074C
(1591048212.958047) can0 380#0001
(1591048212.958048) can0 236#10261000D0000044
(1591048212.978334) can0 300#009B1FFF1FFFFFFF
(1591048212.978336) can0 328#0000FF00D880FFFF
(1591048212.978337) can0 300#001B1FFF9FFFFFFF
(1591048212.998929) can0 328#0000FF00D880FFFF
(1591048212.998931) can0 330#FCFCFCFFFFFF3FFF
(1591048212.998931) can0 300#001B1FFF9FFFFFFF
(1591048213.019302) can0 328#0000FF00D880FFFF
(1591048213.019304) can0 330#FCFCFCFFFFFF3FFF
(1591048213.019305) can0 300#009B1FFF1FFFFFFF
(1591048213.039843) can0 328#0000FF00D880FFFF
(1591048213.039844) can0 330#FCFCFCFFFFFF3FFF
(1591048213.039845) can0 300#009B1FFF1FFFFFFF
(1591048213.060241) can0 328#0000FF00D880FFFF
(1591048213.060243) can0 330#FCFCFCFFFFFF3FFF
(1591048213.060243) can0 328#0000FF00D880FFFF
(1591048213.080813) can0 330#FCFCFCFFFFFF3FFF
(1591048213.080815) can0 315#48000000007600
(1591048213.080815) can0 315#0C000000007600
(1591048213.101243) can0 359#01000082
(1591048213.101245) can0 212#0576074C27C03FFF
(1591048213.101246) can0 315#50000000007600
(1591048213.121937) can0 359#31000082
(1591048213.121938) can0 212#0576074C27C03FFF
(1591048213.121939) can0 318#004E00014E500000
(1591048213.142570) can0 315#14000000007600
(1591048213.142572) can0 359#31000082
(1591048213.142574) can0 5FE#00000000000007EA
(1591048213.163166) can0 315#18000000007600
(1591048213.163168) can0 359#01000082
(1591048213.163169) can0 315#5C000000007600
(1591048213.183789) can0 359#01000082
(1591048213.183791) can0 212#0576074C27C03FFF
(1591048213.183792) can0 359#31000082
(1591048213.204086) can0 212#0576074C27C03FFF
(1591048213.204088) can0 308#00000006001FFF00
(1591048213.204089) can0 359#31000082
(1591048213.224586) can0 212#0576074CE7C03FFF
(1591048213.224588) can0 308#00000046011FFF00
(1591048213.224590) can0 359#01000082
(1591048213.245112) can0 212#0576074CE7C03FFF
(1591048213.245114) can0 308#00000006001FFF00
(1591048213.245115) can0 101#04
(1591048213.265702) can0 212#0576074C27C03FFF
(1591048213.265704) can0 308#00000046011FFF00
(1591048213.265705) can0 212#0576074C27C03FFF
(1591048213.286263) can0 308#00000006001FFF00
(1591048213.286264) can0 309#1FFFFFFF0FFF00
(1591048213.286266) can0 212#0576074CE7C03FFF
(1591048213.306444) can0 308#00000046011FFF00
(1591048213.306446) can0 309#1FFFFFFF0FFF00
(1591048213.306447) can0 309#1FFFFFFF0FFF00
(1591048213.326844) can0 312#074C074C09A7074C
(1591048213.326846) can0 356#3FFF3FFF086C00
(1591048213.326847) can0 356#3FFF3FFF086C00
(1591048213.347313) can0 4A0#27DA33197D0E0040
(1591048213.347315) can0 7BC#2000000000000000
(1591048213.347316) can0 356#3FFF3FFF086C00
(1591048213.367808) can0 7BC#2101000000000000
(1591048213.367824) can0 325#080DE064000100
(1591048213.367826) can0 236#10261000600000AC
(1591048213.388428) can0 200#1E03C000C000C000
(1591048213.388431) can0 208#00206000C000C000
(1591048213.388432) can0 236#102610008000003C
(1591048213.409065) can0 200#1E03C000C000C000
(1591048213.409067) can0 208#00206000C000C000
(1591048213.409069) can0 200#1E03C000C000C000
(1591048213.429757) can0 208#00206000C000C000
(1591048213.429759) can0 215#00000000000003
(1591048213.429760) can0 200#1E03C000C000C000
(1591048213.450237) can0 208#00206000C000C000
(1591048213.450238) can0 215#00000000000000
(1591048213.450240) can0 200#1E03C000C000C000
(1591048213.470748) can0 208#00206000C000C000
(1591048213.470750) can0 215#00000000000000
(1591048213.470751) can0 200#1E03C000C000C000
(1591048213.490827) can0 208#00206000C000C000
(1591048213.490830) can0 215#00000000000003
(1591048213.490831) can0 200#1E03C000C000C000
(1591048213.511529) can0 208#00206000C000C000
(1591048213.511531) can0 215#00000000000003
(1591048213.511532) can0 208#00206000C000C000
(1591048213.531904) can0 215#00000000000000
(1591048213.531906) can0 412#26004E008E00
(1591048213.531907) can0 412#26004E008E00
(1591048213.552917) can0 210#0000008080000000
(1591048213.552920) can0 255#3FFF3FFF1F40FFFF
(1591048213.552921) can0 412#26004E008E00
(1591048213.573337) can0 210#0000008080000000
(1591048213.573340) can0 255#3FFF3FFF1F40FFFF
(1591048213.573341) can0 412#26004E008E00
(1591048213.593408) can0 210#0000000000000000
(1591048213.593410) can0 255#3FFF3FFF1F40FFFF
(1591048213.593411) can0 210#0000000000000000
(1591048213.613850) can0 255#3FFF3FFF1F40FFFF
(1591048213.613852) can0 308#00000006001FFF00
(1591048213.613854) can0 210#0000008080000000
(1591048213.634496) can0 255#3FFF3FFF1F40FFFF
(1591048213.634499) can0 308#00000046011FFF00
(1591048213.634500) can0 210#0000008080000000
(1591048213.654983) can0 255#3FFF3FFF1F40FFFF
(1591048213.654985) can0 308#00000006001FFF00
(1591048213.654986) can0 210#0000000000000000
(1591048213.675801) can0 255#3FFF3FFF1F40FFFF
(1591048213.675803) can0 308#00000046011FFF00
(1591048213.675805) can0 210#0000000000000000
(1591048213.696569) can0 255#3FFF3FFF1F40FFFF
(1591048213.696570) can0 308#00000006001FFF00
(1591048213.696572) can0 210#0000008080000000
(1591048213.716847) can0 255#3FFF3FFF1F40FFFF
(1591048213.716849) can0 308#00000046011FFF00
(1591048213.716850) can0 308#00000006001FFF00
(1591048213.737009) can0 309#1FFFFFFF0FFF00
(1591048213.737010) can0 312#074C074C09A7074C
(1591048213.737012) can0 312#674C074C09A7074C
(1591048213.757427) can0 380#0001
(1591048213.757429) can0 415#000000000000CB
(1591048213.757430) can0 312#074C074C09A7074C
(1591048213.777867) can0 380#0001
(1591048213.777869) can0 248#0008000000004000
(1591048213.777871) can0 248#0008000000004000
(1591048213.798600) can0 236#10261000F0000074
(1591048213.798603) can0 300#001B1FFF9FFF7FFF
(1591048213.798604) can0 248#0008000000004000
(1591048213.819495) can0 236#10261000100000E4
(1591048213.819497) can0 300#001B1FFF9FFF7FFF
(1591048213.819498) can0 236#10261000300000D4
(1591048213.839988) can0 300#009B1FFF1FFF7FFF
(1591048213.839991) can0 328#00007B00D880FFFF
(1591048213.839992) can0 300#009B1FFF1FFF7FFF
(1591048213.860803) can0 328#00007B00D880FFFF
(1591048213.860806) can0 330#FCFCFCFFFFFF3F77
(1591048213.860822) can0 300#001B1FFF9FFF7FFF
(1591048213.881548) can0 328#00007B00D880FFFF
(1591048213.881550) can0 330#FCFCFCFFFFFF3F77
(1591048213.881552) can0 300#001B1FFF9FFF7FFF
(1591048213.901621) can0 328#00007B00D880FFFF
(1591048213.901623) can0 330#FCFCFCFFFFFF3F77
(1591048213.901624) can0 300#009B1FFF1FFF800F
(1591048213.922650) can0 328#00007B00D880FFFF
(1591048213.922652) can0 330#FCFCFCFFFFFF3F77
(1591048213.922653) can0 300#009B1FFF1FFF800F
(1591048213.943176) can0 328#00007B00D880FFFF
(1591048213.943179) can0 330#FCFCFCFFFFFF3F77
(1591048213.943180) can0 328#00007B00D880FFFF
(1591048213.963351) can0 330#FCFCFCFFFFFF3F77
(1591048213.963352) can0 315#78000000007600
(1591048213.963353) can0 330#FCFCFCFFFFFF3F77
(1591048213.983872) can0 315#3C000000007600
(1591048213.983874) can0 359#01000082
(1591048213.983874) can0 315#00000000007600
(1591048214.004548) can0 359#31000082
(1591048214.004549) can0 315#44000000007600
(1591048214.024816) can0 359#31000082
(1591048214.024818) can0 212#0576074CE7C03FFF
(1591048214.024819) can0 315#48000000007600
(1591048214.045913) can0 359#01000082
(1591048214.045915) can0 212#0576074CE7C03FFF
(1591048214.045916) can0 359#01000082
(1591048214.066618) can0 101#04
(1591048214.066620) can0 212#0576074C27C03FFF
(1591048214.066622) can0 212#0576074C27C03FFF
(1591048214.087139) can0 308#00000006001FFF00
(1591048214.087142) can0 309#1FFFFFFF0FFF00
(1591048214.087143) can0 308#00000046011FFF00
(1591048214.108054) can0 309#1FFFFFFF0FFF00
(1591048214.108056) can0 312#674C074C09A7074C
(1591048214.108058) can0 312#074C074C09A7074C
(1591048214.128408) can0 356#3FFF3FFF086C00
(1591048214.128410) can0 6FA#004A413341573836
(1591048214.128412) can0 4A0#27DA33197D0E0040
(1591048214.148881) can0 7BC#0700000000000000
(1591048214.148883) can0 408#00008C0002000000
(1591048214.148884) can0 325#080DE064000100
(1591048214.169337) can0 236#102610004000009C
(1591048214.169339) can0 200#1E03C000C000C000
(1591048214.169340) can0 325#080DE064000100
(1591048214.189783) can0 236#10261000600000AC
(1591048214.189785) can0 200#1E03C000C000C000
(1591048214.189786) can0 236#102610008000003C
(1591048214.210274) can0 200#1E03C000C000C000
(1591048214.210276) can0 208#00206000C000C000
(1591048214.210276) can0 236#10261000A000000C
(1591048214.230361) can0 200#1E03C000C000C000
(1591048214.230363) can0 208#00206000C000C000
(1591048214.230364) can0 200#1E03C000C000C000
(1591048214.250994) can0 208#00206000C000C000
(1591048214.250997) can0 215#00000000000000
(1591048214.250998) can0 200#1E03C000C000C000
(1591048214.271137) can0 208#00206000C000C000
(1591048214.271139) can0 215#00000000000000
(1591048214.271140) can0 200#1E03C000C000C000
(1591048214.291877) can0 208#00206000C000C000
(1591048214.291879) can0 215#00000000000003
(1591048214.291880) can0 200#1E03C000C000C000
(1591048214.312746) can0 208#00206000C000C000
(1591048214.312748) can0 215#00000000000003
(1591048214.312750) can0 208#00206000C000C000
(1591048214.333094) can0 215#00000000000000
(1591048214.333097) can0 412#26004E008E00
(1591048214.333098) can0 412#26004E008E00
(1591048214.353444) can0 210#0000008080000000
(1591048214.353446) can0 255#3FFF3FFF1F40FFFF
(1591048214.353448) can0 6FB#1107040023224000
(1591048214.373525) can0 412#26004E008E00
(1591048214.373542) can0 210#0000008080000000
(1591048214.373544) can0 6FF#2181024000000000
(1591048214.393639) can0 412#26004E008E00
(1591048214.393642) can0 210#0000000000000000
(1591048214.393643) can0 210#0000000000000000
(1591048214.414068) can0 255#3FFF3FFF1F40FFFF
(1591048214.414070) can0 308#00000006001FFF00
(1591048214.414072) can0 210#0000008080000000
(1591048214.434582) can0 255#3FFF3FFF1F40FFFF
(1591048214.434592) can0 308#00000046011FFF00
(1591048214.434594) can0 210#0000008080000000
(1591048214.455073) can0 255#3FFF3FFF1F40FFFF
(1591048214.455075) can0 308#00000006001FFF00
(1591048214.455076) can0 308#00000046011FFF00
(1591048214.475909) can0 309#1FFFFFFF0FFF00
(1591048214.475911) can0 312#674C074C09A7074C
(1591048214.475912) can0 312#074C074C09A7074C
(1591048214.496491) can0 380#0001
(1591048214.496492) can0 248#0008000000004000
(1591048214.496494) can0 380#0001
(1591048214.516838) can0 6FE#FFEFE7E700000000
(1591048214.516840) can0 248#0008000000004000
(1591048214.516842) can0 248#0008000000004000
(1591048214.536857) can0 236#1026100090000024
(1591048214.536860) can0 300#001B1FFF9FFF800F
(1591048214.536861) can0 248#0008000000004000
(1591048214.556929) can0 236#10261000B0000014
(1591048214.556931) can0 300#009B1FFF1FFF7FFF
(1591048214.556932) can0 248#0008000000004000
(1591048214.577419) can0 236#10261000D0000044
(1591048214.577422) can0 300#009B1FFF1FFF800F
(1591048214.577423) can0 236#10261000F0000074
(1591048214.597798) can0 300#001B1FFF9FFF7FFF
(1591048214.597799) can0 328#00007B00D880FFFF
(1591048214.597799) can0 300#001B1FFF9FFF7FFF
(1591048214.617967) can0 328#00007B00D880FFFF
(1591048214.617968) can0 330#FCFCFCFFFFFF3F77
(1591048214.617968) can0 300#009B1FFF1FFF7FFF
(1591048214.638480) can0 328#00007B00D880FFFF
(1591048214.638481) can0 330#FCFCFCFFFFFF3F77
(1591048214.638481) can0 300#009B1FFF1FFF800F
(1591048214.658600) can0 328#00007B00D880FFFF
(1591048214.658601) can0 330#FCFCFCFFFFFF3F77
(1591048214.658602) can0 300#001B1FFF9FFF7FFF
(1591048214.679373) can0 328#00007B00D880FFFF
(1591048214.679375) can0 330#FCFCFCFFFFFF3F77
(1591048214.679377) can0 300#001B1FFF9FFF800F
(1591048214.699851) can0 328#00007B00D880FFFF
(1591048214.699853) can0 330#FCFCFCFFFFFF3F77
(1591048214.699855) can0 300#009B1FFF1FFF7FFF
(1591048214.720354) can0 328#00007B00D880FFFF
(1591048214.720357) can0 330#FCFCFCFFFFFF3F77
(1591048214.720358) can0 330#FCFCFCFFFFFF3F77
(1591048214.740761) can0 359#31000082
(1591048214.740762) can0 318#004E00014E500000
(1591048214.740764) can0 359#01000082
(1591048214.761292) can0 315#18000000007600
(1591048214.761295) can0 101#04
(1591048214.761296) can0 359#01000082
(1591048214.781748) can0 315#5C000000007600
(1591048214.781751) can0 212#0576074C27C03FFF
(1591048214.781752) can0 315#60000000007600
(1591048214.802380) can0 212#0576074C27C03FFF
(1591048214.802382) can0 308#00000006001FFF00
(1591048214.802383) can0 212#0576074CE7C03FFF
(1591048214.822739) can0 308#00000046011FFF00
(1591048214.822741) can0 309#1FFFFFFF0FFF00
(1591048214.822743) can0 312#074C074C09A7074C
(1591048214.843383) can0 356#3FFF3FFF086C00
(1591048214.843386) can0 4A0#27DA33197D0E0040
(1591048214.843387) can0 356#3FFF3FFF086C00
(1591048214.863537) can0 7BC#2B00000000000000
(1591048214.863539) can0 325#080DE064000100
(1591048214.863552) can0 7BC#2C00000000000000
(1591048214.884400) can0 325#080DE064000100
(1591048214.884403) can0 236#10261000C000005C
(1591048214.884404) can0 325#080DE064000100
(1591048214.905023) can0 236#10261000E000006C
(1591048214.905026) can0 200#0003C000C000C000
(1591048214.905028) can0 325#080DE064000100
(1591048214.935607) can0 236#10261000000000FC
(1591048214.935610) can0 200#0003C000C000C000
(1591048214.935612) can0 408#00008C0002000000
(1591048214.946670) can0 325#080DE064000100
(1591048214.946672) can0 236#10261000200000CC
(1591048214.946674) can0 325#080DE064000100
(1591048214.966902) can0 236#102610004000009C
(1591048214.966905) can0 200#0003C000C000C000
(1591048214.966907) can0 325#080DE064000100
(1591048214.987274) can0 236#10261000600000AC
(1591048214.987275) can0 200#0003C000C000C000
(1591048214.987276) can0 325#080DE064000100
(1591048215.007831) can0 236#102610008000003C
(1591048215.007833) can0 200#0003C000C000C000
(1591048215.007834) can0 236#10261000A000000C
(1591048215.028528) can0 200#0003C000C000C000
(1591048215.028530) can0 208#00206000C000C000
(1591048215.028531) can0 200#0003C000C000C000
(1591048215.049413) can0 208#00206000C000C000
(1591048215.049415) can0 215#00000000000000
(1591048215.049416) can0 200#0003C000C000C000
(1591048215.069997) can0 208#00206000C000C000
(1591048215.069999) can0 215#00000000000000
(1591048215.070000) can0 200#0003C000C000C000
(1591048215.090671) can0 208#00206000C000C000
(1591048215.090673) can0 215#00000000000003
(1591048215.090674) can0 200#0003C000C000C000
(1591048215.110929) can0 208#00206000C000C000
(1591048215.110931) can0 215#00000000000003
(1591048215.110933) can0 215#00000000000000
(1591048215.131335) can0 412#26004E008E00
(1591048215.131337) can0 210#0000000000000000
(1591048215.131339) can0 215#00000000000000
(1591048215.151818) can0 412#26004E008E00
(1591048215.151820) can0 210#0000008080000000
(1591048215.151822) can0 412#26004E008E00
(1591048215.172290) can0 210#0000008080000000
(1591048215.172292) can0 255#3FFF3FFF1F40FFFF
(1591048215.172294) can0 412#26004E008E00
(1591048215.192791) can0 210#0000000000000000
(1591048215.192793) can0 255#3FFF3FFF1F40FFFF
(1591048215.192795) can0 210#0000000000000000
(1591048215.213277) can0 255#3FFF3FFF1F40FFFF
(1591048215.213279) can0 308#00000006001FFF00
(1591048215.213279) can0 312#674C074C09A7074C
(1591048215.233708) can0 380#0001
(1591048215.233709) can0 608#4648000000000000
(1591048215.233711) can0 312#074C074C09A7074C
(1591048215.254191) can0 380#0001
(1591048215.254193) can0 415#000000000000CB
(1591048215.254193) can0 248#0008000000004000
(1591048215.274723) can0 236#10261000300000D4
(1591048215.274724) can0 300#009B1FFF1FFF7FFF
(1591048215.274725) can0 248#0008000000004000
(1591048215.294757) can0 236#1026100050000084
(1591048215.294758) can0 300#009B1FFF1FFF7FFF
(1591048215.294759) can0 248#0008000000004000
(1591048215.315130) can0 236#10261000700000B4
(1591048215.315132) can0 300#001B1FFF9FFF7FFF
(1591048215.315134) can0 248#0008000000004000
(1591048215.335837) can0 236#1026100090000024
(1591048215.335839) can0 300#001B1FFF9FFF7FFF
(1591048215.335841) can0 248#0008000000004000
(1591048215.355779) can0 236#10261000B0000014
(1591048215.355781) can0 300#009B1FFF1FFF7FFF
(1591048215.355783) can0 248#0008000000004000
(1591048215.376474) can0 236#10261000D0000044
(1591048215.376477) can0 236#10261000F0000074
(1591048215.396888) can0 300#001B1FFF9FFF7FFF
(1591048215.396890) can0 328#00007B00D880FFFF
(1591048215.396892) can0 300#001B1FFF9FFF7FFF
(1591048215.417564) can0 328#00007B00D880FFFF
(1591048215.417565) can0 330#FCFCFCFFFFFF3F77
(1591048215.417565) can0 300#009B1FFF1FFF7FFF
(1591048215.438011) can0 328#00007B00D880FFFF
(1591048215.438011) can0 330#FCFCFCFFFFFF3F77
(1591048215.438012) can0 300#009B1FFF1FFF7FFF
(1591048215.459148) can0 328#00007B00D880FFFF
(1591048215.459149) can0 330#FCFCFCFFFFFF3F77
(1591048215.459151) can0 328#00007B00D880FFFF
(1591048215.479739) can0 330#FCFCFCFFFFFF3F77
(1591048215.479741) can0 359#01000082
(1591048215.479742) can0 359#01000082
(1591048215.500387) can0 212#0576074C27C03FFF
(1591048215.500389) can0 308#00000046011FFF00
(1591048215.500390) can0 212#0576074C27C03FFF
(1591048215.520942) can0 308#00000006001FFF00
(1591048215.520944) can0 315#30000000007600
(1591048215.520946) can0 318#004E00014E500000
(1591048215.541919) can0 309#1FFFFFFF0FFF00
(1591048215.541921) can0 315#74000000007600
(1591048215.541922) can0 309#1FFFFFFF0FFF00
(1591048215.562770) can0 315#78000000007600
(1591048215.562772) can0 312#074C074C09A7074C
(1591048215.562773) can0 356#3FFF3FFF086C00
(1591048215.583291) can0 7BC#0E00000000000000
(1591048215.583293) can0 325#080DE064000100
(1591048215.583294) can0 325#080DE064000100
(1591048215.603770) can0 236#102610004000009C
(1591048215.603771) can0 200#0003C000C000C000
(1591048215.603773) can0 325#080DE064000100
(1591048215.624408) can0 236#10261000600000AC
(1591048215.624410) can0 200#0003C000C000C000
(1591048215.624412) can0 408#00008C0002000000
(1591048215.644801) can0 325#080DE064000100
(1591048215.644803) can0 236#102610008000003C
(1591048215.644805) can0 325#080DE064000100
(1591048215.664834) can0 236#10261000A000000C
(1591048215.664835) can0 200#0003C000C000C000
(1591048215.664837) can0 325#080DE064000100
(1591048215.685285) can0 236#10261000C000005C
(1591048215.685287) can0 200#0003C000C000C000
(1591048215.685289) can0 325#080DE064000100
(1591048215.705804) can0 236#10261000E000006C
(1591048215.705806) can0 200#0003C000C000C000
(1591048215.705808) can0 325#080DE064000100
(1591048215.726293) can0 236#10261000000000FC
(1591048215.726295) can0 200#0003C000C000C000
(1591048215.726297) can0 408#00008C0002000000
(1591048215.746947) can0 325#080DE064000100
(1591048215.746949) can0 236#10261000200000CC
(1591048215.746950) can0 236#102610004000009C
(1591048215.767450) can0 200#0003C000C000C000
(1591048215.767453) can0 208#00206000C000C000
(1591048215.767454) can0 236#10261000600000AC
(1591048215.787461) can0 200#0003C000C000C000
(1591048215.787463) can0 208#00206000C000C000
(1591048215.787464) can0 236#102610008000003C
(1591048215.807891) can0 200#0003C000C000C000
(1591048215.807893) can0 208#00206000C000C000
(1591048215.807894) can0 236#10261000A000000C
(1591048215.828394) can0 200#0003C000C000C000
(1591048215.828396) can0 208#00206000C000C000
(1591048215.828398) can0 200#0003C000C000C000
(1591048215.848920) can0 208#00206000C000C000
(1591048215.848922) can0 215#00000000000000
(1591048215.848924) can0 200#0003C000C000C000
(1591048215.869754) can0 208#00206000C000C000
(1591048215.869764) can0 215#00000000000000
(1591048215.869778) can0 200#0003C000C000C000
(1591048215.890381) can0 208#00206000C000C000
(1591048215.890383) can0 215#00000000000003
(1591048215.890384) can0 208#00206000C000C000
(1591048215.910875) can0 215#00000000000003
(1591048215.910877) can0 210#0000000000000000
(1591048215.910879) can0 215#00000000000000
(1591048215.936562) can0 210#0000000000000000
(1591048215.936565) can0 255#3FFF3FFF1F40FFFF
(1591048215.936566) can0 210#0000008080000000
(1591048215.952198) can0 255#3FFF3FFF1F40FFFF
(1591048215.952201) can0 308#00000046011FFF00
(1591048215.952202) can0 210#0000008080000000
(1591048215.972607) can0 255#3FFF3FFF1F40FFFF
(1591048215.972609) can0 308#00000006001FFF00
(1591048215.972610) can0 255#3FFF3FFF1F40FFFF
(1591048215.993110) can0 308#00000046011FFF00
(1591048215.993111) can0 309#1FFFFFFF0FFF00
(1591048215.993112) can0 309#1FFFFFFF0FFF00
(1591048216.013585) can0 412#26004E008E00
(1591048216.013587) can0 312#074C074C09A7074C
(1591048216.013588) can0 309#1FFFFFFF0FFF00
(1591048216.033821) can0 412#26004E008E00
(1591048216.033823) can0 312#674C074C09A7074C
(1591048216.033824) can0 312#074C074C09A7074C
(1591048216.054578) can0 380#0001
(1591048216.054580) can0 415#000000000000CB
(1591048216.054581) can0 312#674C074C09A7074C
(1591048216.075061) can0 380#0001
(1591048216.075063) can0 248#0008000000005000
(1591048216.075065) can0 248#0008000000005000
(1591048216.095890) can0 236#10260FFF500000B0
(1591048216.095892) can0 359#31000082
(1591048216.095893) can0 248#0008000000005000
(1591048216.116769) can0 236#10260FFF70000080
(1591048216.116770) can0 359#01000082
(1591048216.116772) can0 248#0008000000005000
(1591048216.137127) can0 236#10260FFF90000010
(1591048216.137129) can0 359#01000082
(1591048216.137130) can0 248#0008000000005000
(1591048216.157651) can0 236#10260FFFB0000020
(1591048216.157653) can0 359#31000082
(1591048216.157655) can0 248#0008000000005000
(1591048216.177798) can0 236#10260FFFD0000070
(1591048216.177800) can0 359#31000082
(1591048216.177801) can0 248#0008000000005000
(1591048216.197616) can0 236#10261000F0000074
(1591048216.197618) can0 359#01000082
(1591048216.197620) can0 248#0008000000005000
(1591048216.218188) can0 236#10261000100000E4
(1591048216.218191) can0 359#01000082
(1591048216.218192) can0 248#0008000000005000
(1591048216.238588) can0 236#10261000300000D4
(1591048216.238590) can0 359#31000082
(1591048216.238591) can0 248#0008000000005000
(1591048216.259123) can0 236#1026100050000084
(1591048216.259125) can0 359#31000082
(1591048216.259126) can0 236#10261000700000B4
(1591048216.279730) can0 359#01000082
(1591048216.279732) can0 300#001B1FFF9FFF7FFF
(1591048216.279733) can0 359#01000082
(1591048216.301031) can0 300#001B1FFF9FFF7FFF
(1591048216.301033) can0 328#03FF7B00D880FFFF
(1591048216.301034) can0 359#31000082
(1591048216.321831) can0 300#009B1FFF1FFF7FFF
(1591048216.321833) can0 328#03FF7B00D880FFFF
(1591048216.321835) can0 300#009B1FFF1FFF7FFF
(1591048216.342482) can0 328#03FF7B00D880FFFF
(1591048216.342484) can0 330#FCFCFCFFFFFF3F77
(1591048216.342485) can0 328#03FF7B00D880FFFF
(1591048216.362627) can0 101#04
(1591048216.362629) can0 330#FCFCFCFFFFFF3F77
(1591048216.362630) can0 330#FCFCFCFFFFFF3F77
(1591048216.383513) can0 308#00007244091FFF00
(1591048216.383515) can0 309#1FFFFFFF0FFF00
(1591048216.383516) can0 309#1FFFFFFF0FFF00
(1591048216.404180) can0 312#0965096509AF074C
(1591048216.404183) can0 315#60000000006700
(1591048216.404184) can0 312#6965096509AF074C
(1591048216.424608) can0 356#3FFF3FFF0BB800
(1591048216.424611) can0 315#24000000006800
(1591048216.424612) can0 356#3FFF3FFF0BB800
(1591048216.445184) can0 315#28000000006800
(1591048216.445186) can0 4A0#27DA33197A0E0040
(1591048216.445188) can0 325#000DE064000100
(1591048216.465560) can0 236#10261000A000000C
(1591048216.465562) can0 200#0003C000C000C000
(1591048216.465563) can0 325#000DE064000100
(1591048216.485699) can0 236#10261000C000005C
(1591048216.485701) can0 200#0003C000C000C000
(1591048216.485702) can0 325#000DE064000100
(1591048216.505719) can0 236#10261000E000006C
(1591048216.505721) can0 200#0003C000C000C000
(1591048216.505723) can0 325#000DE064000100
(1591048216.526178) can0 236#10260FFF000000C8
(1591048216.526181) can0 200#0003C000C000C000
(1591048216.526182) can0 408#00008C0002000000
(1591048216.546839) can0 325#000DE064000100
(1591048216.546841) can0 236#10261000200000CC
(1591048216.546843) can0 325#000DE064000100
(1591048216.567335) can0 236#1026100140000001
(1591048216.567337) can0 210#0000000000000000
(1591048216.567339) can0 325#000DE064000100
(1591048216.587854) can0 236#10261000600000AC
(1591048216.587857) can0 210#0000008080000000
(1591048216.587858) can0 325#000DE064000100
(1591048216.608549) can0 236#102610008000003C
(1591048216.608551) can0 210#0000008080000000
(1591048216.608552) can0 325#000DE064000100
(1591048216.629070) can0 236#10261001A0000091
(1591048216.629072) can0 210#0000000000000000
(1591048216.629074) can0 236#10260FFFC0000068
(1591048216.649549) can0 210#0000000000000000
(1591048216.649552) can0 200#0003C000C000C000
(1591048216.649553) can0 210#0000008080000000
(1591048216.669775) can0 200#0003C000C000C000
(1591048216.669777) can0 208#00206000C000C000
(1591048216.669778) can0 210#0000008080000000
(1591048216.690473) can0 200#0003C000C000C000
(1591048216.690475) can0 208#00206000C000C000
(1591048216.690477) can0 210#0000000000000000
(1591048216.710765) can0 200#0003C000C000C000
(1591048216.710767) can0 208#00206000C000C000
(1591048216.710768) can0 210#0000000000000000
(1591048216.730781) can0 255#3FFF3FFF1F40FFFF
(1591048216.730783) can0 200#0003C000C000C000
(1591048216.730784) can0 210#0000008080000000
(1591048216.750784) can0 200#0003C000C000C000
(1591048216.750786) can0 210#0000008080000000
(1591048216.771299) can0 255#3FFF3FFF1F40FFFF
(1591048216.771301) can0 200#0003C000C000C000
(1591048216.771302) can0 200#0003C000C000C000
(1591048216.792302) can0 208#00206000C000C000
(1591048216.792304) can0 215#00000000000003
(1591048216.792305) can0 215#00000000000000
(1591048216.812325) can0 308#00007204081FFF00
(1591048216.812328) can0 309#1FFFFFFF0FFF00
(1591048216.812329) can0 312#4994099409A7074C
(1591048216.832884) can0 380#0001
(1591048216.832886) can0 608#4648001900000000
(1591048216.832888) can0 415#000000000000CB
(1591048216.853334) can0 412#FF004E008E00
(1591048216.853336) can0 248#0008000000005000
(1591048216.853337) can0 248#0008000000005000
(1591048216.874059) can0 236#1026100130000049
(1591048216.874061) can0 359#31000082
(1591048216.874077) can0 248#0008000000005000
(1591048216.894574) can0 236#10260FFF500000B0
(1591048216.894577) can0 359#31000082
(1591048216.894578) can0 248#0008000000005000
(1591048216.914636) can0 236#10261000700000B4
(1591048216.914638) can0 359#01000082
(1591048216.914640) can0 248#0008000000005000
(1591048216.935296) can0 236#10260FFF90000010
(1591048216.935298) can0 359#01000082
(1591048216.935300) can0 248#0008000000005000
(1591048216.958930) can0 236#10260FFFB0000020
(1591048216.958931) can0 359#31000082
(1591048216.958932) can0 248#0008000000005000
(1591048216.975934) can0 236#10260FFFD0000070
(1591048216.975935) can0 359#31000082
(1591048216.975935) can0 248#0008000000005000
(1591048216.996421) can0 236#10261000F0000074
(1591048216.996421) can0 359#01000082
(1591048216.996422) can0 236#10261000100000E4
(1591048217.016476) can0 359#01000082
(1591048217.016477) can0 212#0576099427C03FFF
(1591048217.016478) can0 359#31000082
(1591048217.036731) can0 212#0576099427C03FFF
(1591048217.036732) can0 308#0000BE04081FFF00
(1591048217.036732) can0 101#04
(1591048217.057489) can0 212#05760994E7C03FFF
(1591048217.057491) can0 308#0000BE44091FFF00
(1591048217.057492) can0 212#05760994E7C03FFF
(1591048217.077834) can0 308#0000BE04081FFF00
(1591048217.077836) can0 309#1FFFFFFF0FFF00
(1591048217.077837) can0 212#0576095927C03FFF
(1591048217.097994) can0 308#00022104091FFF00
(1591048217.097996) can0 309#1FFFFFFF0FFF00
(1591048217.097997) can0 308#00022144081FFF00
(1591048217.118436) can0 309#1FFFFFFF0FFF00
(1591048217.118438) can0 312#0959085109CA0740
(1591048217.118440) can0 300#009B1FFF1FFF800F
(1591048217.138730) can0 328#00007D00D880FFFF
(1591048217.138733) can0 330#FCFCFCFFFFFF3F75
(1591048217.138734) can0 328#00007D00D880FFFF
(1591048217.159436) can0 330#FCFCFCFFFFFF3F77
(1591048217.159438) can0 356#3FFF3FFF0BB800
(1591048217.159439) can0 7BC#1D00000000000000
(1591048217.179772) can0 315#3C000000006C00
(1591048217.179774) can0 325#000DE064000100
(1591048217.179776) can0 356#3FFF3FFF0BB800
(1591048217.200151) can0 7BC#1E00000000000000
(1591048217.200152) can0 315#00000000006E00
(1591048217.200153) can0 7BC#1F00000000000000
(1591048217.220671) can0 315#44000000006F00
(1591048217.220672) can0 325#000DE064000100
(1591048217.220674) can0 315#48000000006F00
(1591048217.240772) can0 408#00008C0002000000
(1591048217.240774) can0 325#000DE064000100
(1591048217.240774) can0 325#000DE064000100
(1591048217.261492) can0 236#10261000A000000C
(1591048217.261495) can0 210#0000000000000000
(1591048217.261496) can0 325#000DE064000100
(1591048217.281973) can0 236#10261000C000005C
(1591048217.281975) can0 210#0000000000000000
(1591048217.281976) can0 325#000DE064000100
(1591048217.302608) can0 236#10261000E000006C
(1591048217.302610) can0 210#0000008080000000
(1591048217.302611) can0 325#000DE064000100
(1591048217.322994) can0 236#10261000000000FC
(1591048217.322996) can0 210#0000008080000000
(1591048217.322997) can0 408#00008C0002000000
(1591048217.343766) can0 325#000DE064000100
(1591048217.343768) can0 236#10261000200000CC
(1591048217.343769) can0 325#000DE064000100
(1591048217.364040) can0 236#102610004000009C
(1591048217.364041) can0 210#0000000000000000
(1591048217.364043) can0 325#000DE064000100
(1591048217.384620) can0 236#10261000600000AC
(1591048217.384623) can0 210#0000008080000000
(1591048217.384624) can0 325#000DE064000100
(1591048217.404908) can0 236#102610008000003C
(1591048217.404910) can0 210#0000008080000000
(1591048217.404911) can0 236#10261000A000000C
(1591048217.425338) can0 210#0000000000000000
(1591048217.425339) can0 255#3FFF3FFF1F40FFFF
(1591048217.425340) can0 236#10261000C000005C
(1591048217.445758) can0 210#0000000000000000
(1591048217.445760) can0 255#3FFF3FFF1F40FFFF
(1591048217.445761) can0 210#0000008080000000
(1591048217.466664) can0 255#3FFF3FFF1F40FFFF
(1591048217.466666) can0 308#00065340011FFF00
(1591048217.466667) can0 255#3FFF3FFF1F40FFFF
(1591048217.487364) can0 308#00066240001FFF00
(1591048217.487366) can0 309#1FFFFFFF0FFF00
(1591048217.487367) can0 200#0003C000C000C000
(1591048217.508450) can0 208#00206022C000C000
(1591048217.508452) can0 215#00000000000003
(1591048217.508454) can0 312#283508210B21071D
(1591048217.528790) can0 380#0001
(1591048217.528793) can0 608#4648004D00029D00
(1591048217.528794) can0 380#0001
(1591048217.549830) can0 415#000000000000CB
(1591048217.549832) can0 412#FF004E008E00
(1591048217.549834) can0 412#FF004E008E00
(1591048217.570280) can0 248#0008000000004000
(1591048217.570282) can0 359#01000082
(1591048217.570284) can0 412#FF004E008E00
(1591048217.590782) can0 248#0008000000004000
(1591048217.590783) can0 359#31000082
(1591048217.590785) can0 412#FF004E008E00
(1591048217.610832) can0 248#0008000000004000
(1591048217.610834) can0 359#31000082
(1591048217.610835) can0 412#FF004E008E00
(1591048217.631332) can0 248#0008000000004000
(1591048217.631335) can0 359#01000082
(1591048217.631336) can0 248#0008000000004000
(1591048217.651795) can0 359#01000082
(1591048217.651797) can0 236#10261000100000E4
(1591048217.651798) can0 248#0008000000004000
(1591048217.672322) can0 359#31000082
(1591048217.672324) can0 236#10261000300000D4
(1591048217.672325) can0 248#0008000000004000
(1591048217.692810) can0 359#31000082
(1591048217.692812) can0 236#1026100050000084
(1591048217.692814) can0 359#01000082
(1591048217.713354) can0 248#0008000000004000
(1591048217.713356) can0 236#10261000700000B4
(1591048217.713358) can0 359#01000082
(1591048217.733452) can0 248#0008000000004000
(1591048217.733454) can0 236#1026100090000024
(1591048217.733455) can0 359#31000082
(1591048217.753511) can0 248#0008000000004000
(1591048217.753513) can0 236#10261000B0000014
(1591048217.753514) can0 359#31000082
(1591048217.773937) can0 248#0008000000004000
(1591048217.773939) can0 236#10261000D0000044
(1591048217.773941) can0 248#0008000000004000
(1591048217.794419) can0 236#10261000F0000074
(1591048217.794421) can0 212#057607E3E7A93FFF
(1591048217.794422) can0 236#10261000100000E4
(1591048217.815003) can0 212#057607E327A93FFF
(1591048217.815005) can0 308#0005FB00011FFF00
(1591048217.815007) can0 308#0005EF40001FFF00
(1591048217.835521) can0 309#1FFFFFFF0FFF00
(1591048217.835524) can0 312#07E307F90AC40705
(1591048217.835525) can0 312#67E307F90AC40705
(1591048217.855866) can0 356#3FFF3FFF0BB800
(1591048217.855868) can0 7BC#3F00000000000000
(1591048217.855870) can0 356#3FFF3FFF0BB800
(1591048217.876678) can0 7BC#4000000000000000
(1591048217.876695) can0 300#001B1FFF9FFF7FFF
(1591048217.876696) can0 356#3FFF3FFF0BB800
(1591048217.897048) can0 7BC#4100000000000000
(1591048217.897050) can0 300#001B1FFF9FFF7FFF
(1591048217.897052) can0 356#3FFF3FFF0BB800
(1591048217.917969) can0 6FA#0239333000000000
(1591048217.917971) can0 7BC#01BE3FB013000000
(1591048217.917973) can0 7BC#0200076565000004
(1591048217.940648) can0 300#009B1FFF1FFF7FFF
(1591048217.940650) can0 328#00007B00D880FFFF
(1591048217.940652) can0 330#FCFCFCFFFFFF3F77
(1591048217.960922) can0 5FE#00000000000007EA
(1591048217.960924) can0 315#59000000008E00
(1591048217.960926) can0 6FD#0193004012266900
(1591048217.979184) can0 315#1D000000008E00
(1591048217.979185) can0 325#000DE064000100
(1591048217.979186) can0 315#21000000008E00
(1591048217.999646) can0 325#000DE064000100
(1591048217.999647) can0 236#102610004000009C
(1591048217.999648) can0 325#000DE064000100
(1591048218.020179) can0 210#0000008080000000
(1591048218.020180) can0 236#10261000600000AC
(1591048218.020181) can0 408#00008C0002000000
(1591048218.040258) can0 325#000DE064000100
(1591048218.040259) can0 210#0000008080000000
(1591048218.040260) can0 325#000DE064000100
(1591048218.060872) can0 210#0000000000000000
(1591048218.060873) can0 236#10261000A000000C
(1591048218.060874) can0 325#000DE064000100
(1591048218.080722) can0 210#0000000000000000
(1591048218.080723) can0 236#10261000C000005C
(1591048218.080724) can0 325#000DE064000100
(1591048218.100762) can0 210#0000008080000000
(1591048218.100763) can0 236#10261000E000006C
(1591048218.100764) can0 325#000DE064000100
(1591048218.121675) can0 210#0000008080000000
(1591048218.121678) can0 408#00008C0002000000
(1591048218.142179) can0 325#000DE064000100
(1591048218.142182) can0 210#0000000000000000
(1591048218.142183) can0 325#000DE064000100
(1591048218.165776) can0 210#0000000000000000
(1591048218.165778) can0 236#102610004000009C
(1591048218.165779) can0 325#000DE064000100
(1591048218.183413) can0 210#0000008080000000
(1591048218.183415) can0 236#10261000600000AC
(1591048218.183416) can0 325#000DE064000100
(1591048218.203718) can0 210#0000008080000000
(1591048218.203720) can0 255#3FFF3FFF1F40FFFF
(1591048218.203721) can0 325#000DE064000100
(1591048218.224256) can0 210#0000000000000000
(1591048218.224258) can0 255#3FFF3FFF1F40FFFF
(1591048218.224259) can0 408#00008C0002000000
(1591048218.244756) can0 325#000DE064000100
(1591048218.244758) can0 210#0000000000000000
(1591048218.244759) can0 325#000DE064000100
(1591048218.265278) can0 210#0000008080000000
(1591048218.265280) can0 255#3FFF3FFF1F40FFFF
(1591048218.265282) can0 236#10261000000000FC
(1591048218.286026) can0 308#00053240001FFF00
(1591048218.286028) can0 309#1FFFFFFF0FFF00
(1591048218.286029) can0 309#1FFFFFFF0FFF00
(1591048218.306509) can0 312#67EF07FB0A6A0705
(1591048218.306510) can0 380#0001
(1591048218.306512) can0 309#1FFFFFFF0FFF00
(1591048218.327018) can0 312#07EF07FB0A6A0705
(1591048218.327020) can0 380#0001
(1591048218.327022) can0 309#1FFFFFFF0FFF00
(1591048218.348043) can0 312#67EF08000A6A0705
(1591048218.348045) can0 380#0001
(1591048218.348046) can0 380#0001
(1591048218.368046) can0 200#0003C000C000C000
(1591048218.368048) can0 208#00206046C000C000
(1591048218.368049) can0 200#0003C000C000C000
(1591048218.388508) can0 208#00206046C000C000
(1591048218.388510) can0 215#00000000000003
(1591048218.388511) can0 208#00206046C000C000
(1591048218.408875) can0 215#00000000000000
(1591048218.408877) can0 412#26004E008E00
(1591048218.408878) can0 208#00206046C000C000
(1591048218.429152) can0 215#00000000000000
(1591048218.429154) can0 412#26004E008E00
(1591048218.429156) can0 215#00000000000003
(1591048218.449691) can0 412#26004E008E00
(1591048218.449693) can0 359#41000082
(1591048218.449694) can0 412#26004E008E00
(1591048218.470189) can0 359#71000082
(1591048218.470191) can0 212#057607FB27A93FFF
(1591048218.470193) can0 412#26004E008E00
(1591048218.490627) can0 359#71000082
(1591048218.490628) can0 212#057607FBE7A93FFF
(1591048218.490629) can0 412#26004E008E00
(1591048218.511214) can0 359#41000082
(1591048218.511216) can0 212#057607FBE7A93FFF
(1591048218.511218) can0 359#41000082
(1591048218.531874) can0 212#057607FB27A93FFF
(1591048218.531875) can0 248#0008000000004000
(1591048218.531877) can0 359#71000082
(1591048218.551897) can0 101#04
(1591048218.551899) can0 212#057607FB27A93FFF
(1591048218.551900) can0 359#71000082
(1591048218.572466) can0 212#057607FBE7A93FFF
(1591048218.572468) can0 308#0004E640011FFF00
(1591048218.572469) can0 359#41000082
(1591048218.592655) can0 212#057607E3A7B53FFF
(1591048218.592657) can0 308#0004DC00001FFF00
(1591048218.592658) can0 359#41000082
(1591048218.613449) can0 212#057607E367B53FFF
(1591048218.613451) can0 308#0004DC40011FFF00
(1591048218.613452) can0 359#71000082
(1591048218.633433) can0 212#057607E367B53FFF
(1591048218.633435) can0 308#0004D140001FFF00
(1591048218.633436) can0 359#71000082
(1591048218.654031) can0 101#04
(1591048218.654033) can0 212#057607E3A7B53FFF
(1591048218.654034) can0 359#41000082
(1591048218.674742) can0 212#057607E3A7B53FFF
(1591048218.674744) can0 308#0004C640001FFF00
(1591048218.674746) can0 212#057607EF67B53FFF
(1591048218.695354) can0 308#0004BB00011FFF00
(1591048218.695356) can0 248#0008000000004000
(1591048218.695358) can0 212#057607EF67B53FFF
(1591048218.715607) can0 308#0004BB40001FFF00
(1591048218.715609) can0 248#0008000000004000
(1591048218.715610) can0 308#0004B340011FFF00
(1591048218.736398) can0 309#1FFFFFFF0FFF00
(1591048218.736401) can0 248#0008000000004000
(1591048218.736402) can0 309#1FFFFFFF0FFF00
(1591048218.756922) can0 236#10261000F0000074
(1591048218.756924) can0 312#07EF07FC0A1806FA
(1591048218.756926) can0 236#10261000100000E4
(1591048218.777630) can0 356#3FFF3FFF0BB800
(1591048218.777631) can0 7BC#2C00000000000000
(1591048218.777633) can0 300#009B1FFF1FFF7FFF
(1591048218.798406) can0 328#00007B00D880FFFF
(1591048218.798408) can0 330#FCFCFCFFFFFF3F77
(1591048218.798408) can0 7BC#2E00000000000000
(1591048218.818617) can0 300#009B1FFF1FFF7FFF
(1591048218.818620) can0 328#00007B00D880FFFF
(1591048218.818621) can0 300#001B1FFF9FFF7FFF
(1591048218.839014) can0 328#00007B00D880FFFF
(1591048218.839017) can0 330#FCFCFCFFFFFF3F77
(1591048218.839018) can0 300#001B1FFF9FFF7FFF
(1591048218.859648) can0 328#00007B00D880FFFF
(1591048218.859650) can0 330#FCFCFCFFFFFF3F77
(1591048218.859652) can0 330#FCFCFCFFFFFF3F77
(1591048218.880125) can0 6FD#0193004012266900
(1591048218.880143) can0 315#11000000008E00
(1591048218.880144) can0 315#55000000008E00
(1591048218.900598) can0 210#0000008080000000
(1591048218.900600) can0 255#3FFF3FFF1F40FFFF
(1591048218.900601) can0 315#59000000008E00
(1591048218.920907) can0 210#0000008080000000
(1591048218.920909) can0 255#3FFF3FFF1F40FFFF
(1591048218.920911) can0 210#0000000000000000
(1591048218.941445) can0 255#3FFF3FFF1F40FFFF
(1591048218.941447) can0 308#00048040011FFF00
(1591048218.941448) can0 210#0000000000000000
(1591048218.961865) can0 255#3FFF3FFF1F40FFFF
(1591048218.961866) can0 308#00047C00001FFF00
(1591048218.961867) can0 210#0000008080000000
(1591048218.981976) can0 255#3FFF3FFF1F40FFFF
(1591048218.981977) can0 308#00047640011FFF00
(1591048218.981978) can0 210#0000008080000000
(1591048219.002951) can0 255#3FFF3FFF1F40FFFF
(1591048219.002953) can0 308#00046E00001FFF00
(1591048219.002954) can0 210#0000000000000000
(1591048219.022990) can0 255#3FFF3FFF1F40FFFF
(1591048219.022992) can0 308#00046E40011FFF00
(1591048219.022993) can0 210#0000000000000000
(1591048219.043905) can0 255#3FFF3FFF1F40FFFF
(1591048219.043911) can0 308#00046640001FFF00
(1591048219.043912) can0 210#0000008080000000
(1591048219.064662) can0 255#3FFF3FFF1F40FFFF
(1591048219.064664) can0 308#00046140011FFF00
(1591048219.064665) can0 210#0000008080000000
(1591048219.085241) can0 255#3FFF3FFF1F40FFFF
(1591048219.085243) can0 308#00045E00001FFF00
(1591048219.085244) can0 308#00045E40011FFF00
(1591048219.106078) can0 309#1FFFFFFF0FFF00
(1591048219.106080) can0 325#000DE064000100
(1591048219.106081) can0 325#000DE064000100
(1591048219.126814) can0 312#0807081509EA06FA
(1591048219.126817) can0 236#102610004000009C
(1591048219.126818) can0 408#00008C0002000000
(1591048219.147319) can0 325#000DE064000100
(1591048219.147322) can0 312#6807081509EA06FA
(1591048219.147323) can0 312#0807080B09EA06FA
(1591048219.167770) can0 380#0001
(1591048219.167772) can0 236#102610008000003C
(1591048219.167773) can0 236#10261000A000000C
(1591048219.188264) can0 200#0003C000C000C000
(1591048219.188266) can0 208#00206038C000C000
(1591048219.188268) can0 200#0003C000C000C000
(1591048219.208598) can0 208#00206038C000C000
(1591048219.208601) can0 215#00000000000000
(1591048219.208602) can0 200#0003C000C000C000
(1591048219.229264) can0 208#00206038C000C000
(1591048219.229267) can0 215#00000000000000
(1591048219.229268) can0 200#0003C000C000C000
(1591048219.249757) can0 208#00206038C000C000
(1591048219.249759) can0 215#00000000000003
(1591048219.249760) can0 200#0003C000C000C000
(1591048219.270064) can0 208#00206038C000C000
(1591048219.270066) can0 215#00000000000003
(1591048219.270068) can0 215#00000000000000
(1591048219.290684) can0 412#26004E008E00
(1591048219.290686) can0 359#71000082
(1591048219.290687) can0 412#26004E008E00
(1591048219.311526) can0 359#41000082
(1591048219.311528) can0 212#05760812A7B53FFF
(1591048219.311530) can0 412#26004E008E00
(1591048219.331944) can0 359#41000082
(1591048219.331946) can0 212#0576081267B53FFF
(1591048219.331947) can0 412#26004E008E00
(1591048219.352444) can0 359#71000082
(1591048219.352447) can0 101#04
(1591048219.352448) can0 359#71000082
(1591048219.372971) can0 212#05760807A7B53FFF
(1591048219.372973) can0 308#00043A00011FFF00
(1591048219.372987) can0 359#41000082
(1591048219.393461) can0 212#05760812A7B53FFF
(1591048219.393463) can0 308#00043A40001FFF00
(1591048219.393465) can0 359#41000082
(1591048219.414006) can0 212#0576081267B53FFF
(1591048219.414008) can0 308#00043B40011FFF00
(1591048219.414009) can0 359#71000082
(1591048219.434422) can0 212#0576081267B53FFF
(1591048219.434424) can0 308#00043B00001FFF00
(1591048219.434426) can0 359#71000082
(1591048219.454938) can0 101#04
(1591048219.454940) can0 212#05760812A7B53FFF
(1591048219.454941) can0 212#05760812A7B53FFF
(1591048219.475577) can0 308#00043940001FFF00
(1591048219.475579) can0 309#1FFFFFFF0FFF00
(1591048219.475580) can0 212#0576081267B53FFF
(1591048219.496470) can0 308#00043900011FFF00
(1591048219.496472) can0 212#0576081267B53FFF
(1591048219.516862) can0 308#00043940001FFF00
(1591048219.516865) can0 309#1FFFFFFF0FFF00
(1591048219.516866) can0 308#00043740011FFF00
(1591048219.537369) can0 309#1FFFFFFF0FFF00
(1591048219.537371) can0 312#4812081609DE06FA
(1591048219.537372) can0 309#1FFFFFFF0FFF00
(1591048219.557862) can0 312#2812081809D606FA
(1591048219.557864) can0 356#3FFF3FFF0BB800
(1591048219.557866) can0 7BC#1300000000000000
(1591048219.578214) can0 248#0008000000004000
(1591048219.578217) can0 236#10261000100000E4
(1591048219.578218) can0 248#0008000000004000
(1591048219.598813) can0 236#10261000300000D4
(1591048219.598815) can0 300#009B1FFF1FFF7FFF
(1591048219.598816) can0 236#1026100050000084
(1591048219.619008) can0 300#009B1FFF1FFF7FFF
(1591048219.619010) can0 328#00007D00D880FFFF
(1591048219.619012) can0 300#001B1FFF9FFF7FFF
(1591048219.639676) can0 328#00007D00D880FFFF
(1591048219.639678) can0 330#FCFCFCFFFFFF3F77
(1591048219.639680) can0 300#001B1FFF9FFF7FFF
(1591048219.660159) can0 328#00007D00D880FFFF
(1591048219.660161) can0 330#FCFCFCFFFFFF3F77
(1591048219.660163) can0 300#009B1FFF1FFF7FFF
(1591048219.680709) can0 328#00007D00D880FFFF
(1591048219.680711) can0 330#FCFCFCFFFFFF3F77
(1591048219.680712) can0 300#009B1FFF1FFF7FFF
(1591048219.701296) can0 328#00007D00D880FFFF
(1591048219.701298) can0 330#FCFCFCFFFFFF3F77
(1591048219.701299) can0 328#00007D00D880FFFF
(1591048219.721904) can0 330#FCFCFCFFFFFF3F77
(1591048219.721906) can0 315#39000000008E00
(1591048219.721908) can0 318#004E00014E500000
(1591048219.742476) can0 315#7D000000008F00
(1591048219.742478) can0 210#0000000000000000
(1591048219.742479) can0 5FE#00000000000007EA
(1591048219.762836) can0 315#41000000008E00
(1591048219.762839) can0 210#0000000000000000
(1591048219.762840) can0 6FD#0193004012266900
(1591048219.782883) can0 315#05000000008E00
(1591048219.782885) can0 210#0000008080000000
(1591048219.782887) can0 210#0000008080000000
(1591048219.803190) can0 255#3FFF3FFF1F40FFFF
(1591048219.803192) can0 308#00043700001FFF00
(1591048219.803194) can0 210#0000000000000000
(1591048219.823921) can0 255#3FFF3FFF1F40FFFF
(1591048219.823924) can0 308#00043740011FFF00
(1591048219.823925) can0 210#0000000000000000
(1591048219.844947) can0 255#3FFF3FFF1F40FFFF
(1591048219.844950) can0 308#00043700001FFF00
(1591048219.844951) can0 210#0000008080000000
(1591048219.865464) can0 255#3FFF3FFF1F40FFFF
(1591048219.865466) can0 308#00043900011FFF00
(1591048219.865467) can0 210#0000008080000000
(1591048219.885978) can0 255#3FFF3FFF1F40FFFF
(1591048219.885995) can0 308#00043940001FFF00
(1591048219.885997) can0 210#0000000000000000
(1591048219.906521) can0 255#3FFF3FFF1F40FFFF
(1591048219.906523) can0 308#00043900011FFF00
(1591048219.906525) can0 255#3FFF3FFF1F40FFFF
(1591048219.929163) can0 308#00043940001FFF00
(1591048219.929166) can0 309#1FFFFFFF0FFF00
(1591048219.929167) can0 312#4812080C09DE06FA
(1591048219.947189) can0 380#0001
(1591048219.947191) can0 415#000000000000CB
(1591048219.947193) can0 312#2812081609DE06FA
(1591048219.967706) can0 380#0001
(1591048219.967709) can0 325#000DE064000100
(1591048219.967710) can0 380#0001
(1591048219.988089) can0 325#000DE064000100
(1591048219.988091) can0 236#10261000A000000C
(1591048219.988092) can0 6FE#FFEFE7E700000000
(1591048220.008530) can0 325#000DE064000100
(1591048220.008531) can0 236#10261000C000005C
(1591048220.008532) can0 236#10261000E000006C
(1591048220.028683) can0 200#0003C000C000C000
(1591048220.028684) can0 208#00206029C000C000
(1591048220.028685) can0 325#000DE064000100
(1591048220.049459) can0 236#10261000000000FC
(1591048220.049461) can0 200#0003C000C000C000
(1591048220.049463) can0 236#10261000200000CC
(1591048220.069930) can0 200#0003C000C000C000
(1591048220.069932) can0 208#00206029C000C000
(1591048220.069933) can0 200#0003C000C000C000
(1591048220.090406) can0 208#00206029C000C000
(1591048220.090408) can0 215#00000000000000
(1591048220.090410) can0 200#0003C000C000C000
(1591048220.110901) can0 208#00206029C000C000
(1591048220.110903) can0 215#00000000000000
(1591048220.110905) can0 200#0003C000C000C000
(1591048220.131722) can0 208#00206029C000C000
(1591048220.131725) can0 215#00000000000003
(1591048220.131726) can0 208#00206029C000C000
(1591048220.152160) can0 215#00000000000003
(1591048220.152162) can0 412#26004E008E00
(1591048220.152164) can0 412#26004E008E00
(1591048220.172586) can0 359#71000082
(1591048220.172588) can0 212#0576081EA7B53FFF
(1591048220.172589) can0 412#26004E008E00
(1591048220.193169) can0 359#41000082
(1591048220.193171) can0 212#05760812A7B53FFF
(1591048220.193173) can0 359#41000082
(1591048220.213846) can0 212#0576081267B53FFF
(1591048220.213848) can0 308#00044640011FFF00
(1591048220.213849) can0 359#71000082
(1591048220.234122) can0 212#0576081267B53FFF
(1591048220.234124) can0 308#00044240001FFF00
(1591048220.234126) can0 359#71000082
(1591048220.254658) can0 101#04
(1591048220.254660) can0 212#0576081EA7B53FFF
(1591048220.254662) can0 212#0576081EA7B53FFF
(1591048220.275177) can0 308#00044140001FFF00
(1591048220.275180) can0 309#1FFFFFFF0FFF00
(1591048220.275182) can0 212#0576081E67B53FFF
(1591048220.295686) can0 308#00044100011FFF00
(1591048220.295688) can0 309#1FFFFFFF0FFF00
(1591048220.295689) can0 308#00044440001FFF00
(1591048220.316273) can0 309#1FFFFFFF0FFF00
(1591048220.316276) can0 312#281E081809DE06FA
(1591048220.316277) can0 312#481E081209DE06FA
(1591048220.336838) can0 356#3FFF3FFF0BB800
(1591048220.336840) can0 4A0#27DA3319390E004C
(1591048220.336841) can0 356#3FFF3FFF0BB800
(1591048220.357319) can0 7BC#3A00000000000000
(1591048220.357322) can0 248#0008000000004000
(1591048220.357324) can0 7BC#3B00000000000000
(1591048220.377837) can0 248#0008000000004000
(1591048220.377839) can0 236#10261000100000E4
(1591048220.377857) can0 248#0008000000004000
(1591048220.398340) can0 236#10261000300000D4
(1591048220.398343) can0 300#009B1FFF1FFF7FFF
(1591048220.398344) can0 248#0008000000004000
(1591048220.418799) can0 236#1026100050000084
(1591048220.418801) can0 300#009B1FFF1FFF7FFF
(1591048220.418802) can0 248#0008000000004000
(1591048220.439257) can0 236#10261000700000B4
(1591048220.439259) can0 300#001B1FFF9FFF7FFF
(1591048220.439260) can0 236#1026100090000024
(1591048220.459809) can0 300#001B1FFF9FFF7FFF
(1591048220.459811) can0 328#00007B00D880FFFF
(1591048220.459812) can0 300#009B1FFF1FFF7FFF
(1591048220.480204) can0 328#00007B00D880FFFF
(1591048220.480206) can0 330#FCFCFCFFFFFF3F77
(1591048220.480206) can0 300#009B1FFF1FFF7FFF
(1591048220.500709) can0 328#00007D00D880FFFF
(1591048220.500711) can0 330#FCFCFCFFFFFF3F77
(1591048220.500711) can0 300#001B1FFF9FFF800F
(1591048220.521183) can0 328#00007D00D880FFFF
(1591048220.521185) can0 330#FCFCFCFFFFFF3F77
(1591048220.521186) can0 330#FCFCFCFFFFFF3F77
(1591048220.541710) can0 318#004E00014E500000
(1591048220.541711) can0 315#1D000000008F00
(1591048220.541712) can0 315#21000000008F00
(1591048220.562192) can0 210#0000000000000000
(1591048220.562193) can0 255#3FFF3FFF1F40FFFF
(1591048220.562194) can0 315#65000000008E00
(1591048220.582747) can0 210#0000008080000000
(1591048220.582749) can0 255#3FFF3FFF1F40FFFF
(1591048220.582750) can0 315#69000000008F00
(1591048220.603423) can0 210#0000008080000000
(1591048220.603425) can0 255#3FFF3FFF1F40FFFF
(1591048220.603426) can0 210#0000000000000000
(1591048220.623719) can0 255#3FFF3FFF1F40FFFF
(1591048220.623721) can0 308#00044B00011FFF00
(1591048220.623722) can0 210#0000000000000000
(1591048220.644137) can0 255#3FFF3FFF1F40FFFF
(1591048220.644139) can0 308#00044D40001FFF00
(1591048220.644139) can0 210#0000008080000000
(1591048220.664676) can0 255#3FFF3FFF1F40FFFF
(1591048220.664677) can0 308#00044C40011FFF00
(1591048220.664677) can0 255#3FFF3FFF1F40FFFF
(1591048220.685441) can0 308#00044500001FFF00
(1591048220.685441) can0 309#1FFFFFFF0FFF00
(1591048220.685442) can0 309#1FFFFFFF0FFF00
(1591048220.705713) can0 312#481E081A09EA0705
(1591048220.705715) can0 380#0001
(1591048220.705717) can0 380#0001
(1591048220.725871) can0 608#4648005400012E00
(1591048220.725873) can0 325#000DE064000100
(1591048220.725874) can0 408#00008C0002000000
(1591048220.746592) can0 325#000DE064000100
(1591048220.746594) can0 236#10261000600000AC
(1591048220.746595) can0 325#000DE064000100
(1591048220.767099) can0 236#102610008000003C
(1591048220.767101) can0 200#0003C000C000C000
(1591048220.767102) can0 325#000DE064000100
(1591048220.787616) can0 236#10261000A000000C
(1591048220.787618) can0 200#0003C000C000C000
(1591048220.787620) can0 325#000DE064000100
(1591048220.808333) can0 236#10261000C000005C
(1591048220.808335) can0 200#0003C000C000C000
(1591048220.808336) can0 236#10261000E000006C
(1591048220.828468) can0 200#0003C000C000C000
(1591048220.828470) can0 208#0020602AC000C000
(1591048220.828471) can0 200#0003C000C000C000
(1591048220.848343) can0 208#0020602AC000C000
(1591048220.848344) can0 215#00000000000003
(1591048220.848345) can0 200#0003C000C000C000
(1591048220.868998) can0 208#0020602AC000C000
(1591048220.869000) can0 200#0003C000C000C000
(1591048220.889626) can0 208#0020602AC000C000
(1591048220.889638) can0 215#00000000000000
(1591048220.889639) can0 208#0020602AC000C000
(1591048220.910649) can0 215#00000000000000
(1591048220.910651) can0 412#26004E008E00
(1591048220.910652) can0 359#41000082
(1591048220.932123) can0 412#26004E008E00
(1591048220.932124) can0 212#0576082A67B53FFF
(1591048220.932125) can0 359#71000082
(1591048220.951426) can0 412#26004E008E00
(1591048220.951428) can0 101#04
(1591048220.951429) can0 359#71000082
(1591048220.971941) can0 6FB#1107040023224000
(1591048220.971943) can0 412#26004E008E00
(1591048220.971944) can0 6FF#2181024000000000
(1591048220.992532) can0 412#26004E008E00
(1591048220.992533) can0 212#0576081EA7B53FFF
(1591048220.992534) can0 212#0576081E67B53FFF
(1591048221.012993) can0 308#00047800011FFF00
(1591048221.012994) can0 309#1FFFFFFF0FFF00
(1591048221.012995) can0 212#0576081E67B53FFF
(1591048221.033386) can0 308#00047E40001FFF00
(1591048221.033388) can0 309#1FFFFFFF0FFF00
(1591048221.033389) can0 309#1FFFFFFF0FFF00
(1591048221.054401) can0 312#481E080D0A0D0705
(1591048221.054402) can0 356#3FFF3FFF0BB800
(1591048221.054403) can0 356#3FFF3FFF0BB800
(1591048221.074949) can0 7BC#1D00000000000000
(1591048221.074951) can0 248#0008000000004000
(1591048221.074953) can0 248#0008000000004000
(1591048221.095471) can0 236#1026100090000024
(1591048221.095473) can0 300#001B1FFF9FFF7FFF
(1591048221.095474) can0 248#0008000000004000
(1591048221.115654) can0 236#10261000B0000014
(1591048221.115657) can0 300#009B1FFF1FFF800F
(1591048221.115658) can0 248#0008000000004000
(1591048221.136000) can0 236#10261000D0000044
(1591048221.136002) can0 300#009B1FFF1FFF7FFF
(1591048221.136003) can0 248#0008000000004000
(1591048221.156663) can0 236#10261000F0000074
(1591048221.156665) can0 300#001B1FFF9FFF7FFF
(1591048221.156666) can0 248#0008000000004000
(1591048221.177422) can0 236#10261000100000E4
(1591048221.177424) can0 300#001B1FFF9FFF7FFF
(1591048221.177426) can0 248#0008000000004000
(1591048221.197884) can0 236#10261000300000D4
(1591048221.197886) can0 300#009B1FFF1FFF7FFF
(1591048221.197888) can0 248#0008000000004000
(1591048221.218380) can0 236#1026100050000084
(1591048221.218382) can0 300#009B1FFF1FFF7FFF
(1591048221.218383) can0 236#10261000700000B4
(1591048221.238876) can0 300#001B1FFF9FFF7FFF
(1591048221.238879) can0 328#00007B00D880FFFF
(1591048221.238880) can0 300#001B1FFF9FFF7FFF
(1591048221.259354) can0 328#00007D00D880FFFF
(1591048221.259357) can0 330#FCFCFCFFFFFF3F77
(1591048221.259358) can0 300#009B1FFF1FFF7FFF
(1591048221.279968) can0 328#00007B00D880FFFF
(1591048221.279970) can0 330#FCFCFCFFFFFF3F77
(1591048221.279972) can0 300#009B1FFF1FFF7FFF
(1591048221.300514) can0 328#00007D00D880FFFF
(1591048221.300516) can0 330#FCFCFCFFFFFF3F77
(1591048221.300517) can0 328#00007B00D880FFFF
(1591048221.320917) can0 330#FCFCFCFFFFFF3F77
(1591048221.320920) can0 315#39000000008F00
(1591048221.320921) can0 330#FCFCFCFFFFFF3F77
(1591048221.341522) can0 318#004E00014E500000
(1591048221.341524) can0 315#7D000000008E00
(1591048221.341525) can0 315#41000000008F00
(1591048221.361764) can0 210#0000000000000000
(1591048221.361766) can0 255#3FFF3FFF1F40FFFF
(1591048221.361767) can0 315#05000000008F00
(1591048221.382259) can0 210#0000008080000000
(1591048221.382261) can0 255#3FFF3FFF1F40FFFF
(1591048221.382276) can0 315#09000000008E00
(1591048221.402763) can0 210#0000008080000000
(1591048221.402765) can0 255#3FFF3FFF1F40FFFF
(1591048221.402766) can0 210#0000000000000000
(1591048221.423103) can0 255#3FFF3FFF1F40FFFF
(1591048221.423106) can0 308#0004B940011FFF00
(1591048221.423107) can0 315#11000000008E00
(1591048221.443649) can0 255#3FFF3FFF1F40FFFF
(1591048221.443651) can0 308#0004BD40001FFF00
(1591048221.443653) can0 312#481208070A300705
(1591048221.464235) can0 380#0001
(1591048221.464238) can0 325#000DE064000100
(1591048221.464239) can0 312#2812080C0A300705
(1591048221.484720) can0 380#0001
(1591048221.484722) can0 325#000DE064000100
(1591048221.484724) can0 325#000DE064000100
(1591048221.505155) can0 236#10261000200000CC
(1591048221.505157) can0 200#0003C000C000C000
(1591048221.505159) can0 325#000DE064000100
(1591048221.525659) can0 236#102610004000009C
(1591048221.525661) can0 200#0003C000C000C000
(1591048221.525662) can0 408#00008C0002000000
(1591048221.546300) can0 325#000DE064000100
(1591048221.546302) can0 236#10261000600000AC
(1591048221.546303) can0 325#000DE064000100
(1591048221.566570) can0 236#102610008000003C
(1591048221.566572) can0 200#0003C000C000C000
(1591048221.566574) can0 325#000DE064000100
(1591048221.587134) can0 236#10261000A000000C
(1591048221.587137) can0 200#0003C000C000C000
(1591048221.587138) can0 325#000DE064000100
(1591048221.607425) can0 236#10261000C000005C
(1591048221.607427) can0 200#0003C000C000C000
(1591048221.607428) can0 236#10261000E000006C
(1591048221.627620) can0 200#0003C000C000C000
(1591048221.627622) can0 208#0020602AC000C000
(1591048221.627623) can0 200#0003C000C000C000
(1591048221.648085) can0 208#0020602AC000C000
(1591048221.648087) can0 215#00000000000003
(1591048221.648089) can0 200#0003C000C000C000
(1591048221.668931) can0 208#0020602AC000C000
(1591048221.668934) can0 215#00000000000003
(1591048221.668935) can0 200#0003C000C000C000
(1591048221.689344) can0 208#0020602AC000C000
(1591048221.689347) can0 215#00000000000000
(1591048221.689348) can0 200#0003C000C000C000
(1591048221.709903) can0 208#0020602AC000C000
(1591048221.709905) can0 215#00000000000000
(1591048221.709906) can0 208#0020602AC000C000
(1591048221.730273) can0 215#00000000000003
(1591048221.730275) can0 359#01000082
(1591048221.730277) can0 359#31000082
(1591048221.750309) can0 101#04
(1591048221.750311) can0 212#0576082A27A93FFF
(1591048221.750313) can0 212#0576082AE7A93FFF
(1591048221.770785) can0 308#00050800011FFF00
(1591048221.770787) can0 412#26004E008E00
(1591048221.770789) can0 212#0576082AE7A93FFF
(1591048221.790981) can0 308#00050840001FFF00
(1591048221.790983) can0 412#26004E008E00
(1591048221.790984) can0 412#26004E008E00
(1591048221.811176) can0 309#1FFFFFFF0FFF00
(1591048221.811178) can0 312#682A08150A76071D
(1591048221.811179) can0 312#082A08170A76071D
(1591048221.831482) can0 356#3FFF3FFF0BB800
(1591048221.831485) can0 4A0#29D833193710004C
(1591048221.831486) can0 312#682A08170A76071D
(1591048221.852160) can0 356#3FFF3FFF0BB800
(1591048221.852161) can0 7BC#0300514680008000
(1591048221.852163) can0 248#0008000000004000
(1591048221.872235) can0 236#10261000700000B4
(1591048221.872237) can0 300#001B1FFF9FFF7FFF
(1591048221.872238) can0 248#0008000000004000
(1591048221.892557) can0 236#1026100090000024
(1591048221.892560) can0 300#001B1FFF9FFF7FFF
(1591048221.892561) can0 248#0008000000004000
(1591048221.913125) can0 236#10261000B0000014
(1591048221.913127) can0 300#009B1FFF1FFF7FFF
(1591048221.913128) can0 248#0008000000004000
(1591048221.942204) can0 236#10261000D0000044
(1591048221.942206) can0 300#009B1FFF1FFF7FFF
(1591048221.942208) can0 248#0008000000004000
(1591048221.954220) can0 236#10261000F0000074
(1591048221.954222) can0 300#001B1FFF9FFF7FFF
(1591048221.954223) can0 248#0008000000004000
(1591048221.974492) can0 236#10261000100000E4
(1591048221.974493) can0 300#001B1FFF9FFF7FFF
(1591048221.974494) can0 248#0008000000004000
(1591048221.994683) can0 236#10261000300000D4
(1591048221.994685) can0 300#009B1FFF1FFF7FFF
(1591048221.994685) can0 248#0008000000004000
(1591048222.015074) can0 236#1026100050000084
(1591048222.015075) can0 300#009B1FFF1FFF7FFF
(1591048222.015076) can0 236#10261000700000B4
(1591048222.035845) can0 300#001B1FFF9FFF7FFF
(1591048222.035846) can0 328#00007B00D880FFFF
(1591048222.035847) can0 300#001B1FFF9FFF7FFF
(1591048222.056627) can0 328#00007B00D880FFFF
(1591048222.056629) can0 330#FCFCFCFFFFFF3F77
(1591048222.056631) can0 300#009B1FFF1FFF7FFF
(1591048222.076954) can0 328#00007B00D880FFFF
(1591048222.076957) can0 330#FCFCFCFFFFFF3F77
(1591048222.076958) can0 300#009B1FFF1FFF7FFF
(1591048222.097404) can0 328#00007D00D880FFFF
(1591048222.097406) can0 330#FCFCFCFFFFFF3F77
(1591048222.097408) can0 300#001B1FFF9FFF7FFF
(1591048222.118097) can0 328#00007D00D880FFFF
(1591048222.118100) can0 330#FCFCFCFFFFFF3F77
(1591048222.118101) can0 300#001B1FFF9FFF7FFF
(1591048222.138575) can0 328#00007B00D880FFFF
(1591048222.138577) can0 330#FCFCFCFFFFFF3F75
(1591048222.138579) can0 330#FCFCFCFFFFFF3F75
(1591048222.159121) can0 210#0000000000000000
(1591048222.159124) can0 255#3FFF3FFF1F40FFFF
(1591048222.159125) can0 210#0000008080000000
(1591048222.179579) can0 255#3FFF3FFF1F40FFFF
(1591048222.179582) can0 308#00055100011FFF00
(1591048222.179583) can0 255#3FFF3FFF1F40FFFF
(1591048222.199955) can0 308#00055300001FFF00
(1591048222.199957) can0 309#1FFFFFFF0FFF00
(1591048222.199958) can0 309#1FFFFFFF0FFF00
(1591048222.220518) can0 315#2D000000008F00
(1591048222.220520) can0 312#481208140A99071D
(1591048222.220522) can0 318#004E00014E500000
(1591048222.240979) can0 315#71000000008F00
(1591048222.240981) can0 315#35000000008F00
(1591048222.261512) can0 312#4812080D0A99071D
(1591048222.261514) can0 380#0001
(1591048222.261516) can0 325#000DE064000100
(1591048222.282014) can0 236#10261000000000FC
(1591048222.282017) can0 200#0003C000C000C000
(1591048222.282018) can0 325#000DE064000100
(1591048222.302491) can0 236#10261000200000CC
(1591048222.302493) can0 200#0003C000C000C000
(1591048222.302494) can0 325#000DE064000100
(1591048222.323020) can0 236#102610004000009C
(1591048222.323022) can0 359#31000082
(1591048222.323024) can0 408#00008C0002000000
(1591048222.343533) can0 325#000DE064000100
(1591048222.343535) can0 236#10261000600000AC
(1591048222.343536) can0 325#000DE064000100
(1591048222.364139) can0 236#102610008000003C
(1591048222.364141) can0 359#01000082
(1591048222.364142) can0 325#000DE064000100
(1591048222.384477) can0 236#10261000A000000C
(1591048222.384479) can0 359#31000082
(1591048222.384496) can0 325#000DE064000100
(1591048222.405026) can0 236#10261000C000005C
(1591048222.405028) can0 359#31000082
(1591048222.405029) can0 325#000DE064000100
(1591048222.425549) can0 236#10261000E000006C
(1591048222.425551) can0 359#01000082
(1591048222.425553) can0 325#000DE064000100
(1591048222.445948) can0 236#10261000000000FC
(1591048222.445951) can0 359#01000082
(1591048222.445953) can0 359#31000082
(1591048222.466286) can0 200#0003C000C000C000
(1591048222.466287) can0 208#0020602AC000C000
(1591048222.466287) can0 359#31000082
(1591048222.486442) can0 200#0003C000C000C000
(1591048222.486443) can0 208#0020602AC000C000
(1591048222.486443) can0 359#01000082
(1591048222.507008) can0 200#0003C000C000C000
(1591048222.507010) can0 208#0020602AC000C000
(1591048222.507011) can0 359#01000082
(1591048222.527692) can0 200#0003C000C000C000
(1591048222.527694) can0 208#0020602BC000C000
(1591048222.527694) can0 200#0003C000C000C000
(1591048222.548308) can0 208#0020602AC000C000
(1591048222.548309) can0 215#00000000000003
(1591048222.548310) can0 215#00000000000000
(1591048222.569234) can0 212#05760812E7A93FFF
(1591048222.569235) can0 308#00054740011FFF00
(1591048222.569236) can0 309#1FFFFFFF0FFF00
(1591048222.590149) can0 312#281208170A8D071D
(1591048222.590150) can0 356#3FFF3FFF0BB800
(1591048222.590151) can0 412#26004E008E00
