(1614975457.077324) can0 2C4#04FB002800002116
(1614975457.079319) can0 0B0#000000001100
(1614975457.081247) can0 0B2#000000001100
(1614975457.081248) can0 224#0000000000000008
(1614975457.081248) can0 260#08000C0000000381
(1614975457.083173) can0 262#210000008A
(1614975457.085138) can0 2C6#00000000000000D0
(1614975457.087066) can0 020#000007
(1614975457.087067) can0 0B4#00000000000000BC
(1614975457.087067) can0 024#0200020861FE8017
(1614975457.089102) can0 025#0FC50FCE78787846
(1614975457.089103) can0 0BA#060807D3
(1614975457.090996) can0 394#00
(1614975457.090997) can0 2D5#0000
(1614975457.092944) can0 0B0#000000001101
(1614975457.092945) can0 0B2#000000001101
(1614975457.092945) can0 223#002000000000004D
(1614975457.094103) can0 020#000007
(1614975457.094896) can0 0B4#00000000000000BC
(1614975457.096979) can0 025#0FC50FCE78787846
(1614975457.098892) can0 024#0200020A61FE8019
(1614975457.100858) can0 260#08000C0000FFFB78
(1614975457.102747) can0 2C4#04F8002800002113
(1614975457.103791) can0 0B0#000000001102
(1614975457.103791) can0 0B2#000000001102
(1614975457.103792) can0 224#0000000000000008
(1614975457.105755) can0 262#210000008A
(1614975457.105756) can0 2C1#0801BF0015CD0075
(1614975457.107610) can0 2C5#000400CF
(1614975457.109410) can0 020#000007
(1614975457.111329) can0 0B4#00000000000000BC
(1614975457.111330) can0 025#0FC50FCE78787846
(1614975457.111331) can0 0BA#060807D3
(1614975457.113246) can0 024#0200020861FE8017
(1614975457.113247) can0 440#4202000000000000
(1614975457.115198) can0 610#2000000000000000
(1614975457.115199) can0 2D5#0000
(1614975457.117215) can0 0B0#000000001103
(1614975457.117215) can0 0B2#000000001103
(1614975457.117216) can0 223#002000000000004D
(1614975457.119179) can0 2C6#00000000000000D0
(1614975457.121156) can0 260#08000C0000000886
(1614975457.123099) can0 020#000007
(1614975457.123100) can0 0B4#00000000000000BC
(1614975457.123100) can0 025#0FC50FCE78787846
(1614975457.125087) can0 024#0200020A61FE8019
(1614975457.125088) can0 611#2100102000009304
(1614975457.125088) can0 2C4#04F5002800002110
(1614975457.127003) can0 262#210000008A
(1614975457.128900) can0 0B0#000000001104
(1614975457.128901) can0 0B2#000000001104
(1614975457.128902) can0 224#0000000000000008
(1614975457.130821) can0 3A0#0000000000000058
(1614975457.132789) can0 020#000007
(1614975457.134726) can0 0B4#00000000000000BC
(1614975457.134727) can0 024#0200020A61FE8019
(1614975457.134727) can0 025#0FC50FCE78787846
(1614975457.136677) can0 0BA#060807D3
(1614975457.137754) can0 2D5#0000
(1614975457.137755) can0 2C1#0801C00013CE0075
(1614975457.138788) can0 0B0#000000001105
(1614975457.138789) can0 0B2#000000001105
(1614975457.138789) can0 223#002000000000004D
(1614975457.140741) can0 260#08000C0000FFF875
(1614975457.142237) can0 262#210000008A
(1614975457.143728) can0 020#000007
(1614975457.145658) can0 0B4#00000000000000BC
(1614975457.147688) can0 025#0FC50FCE78787846
(1614975457.147689) can0 024#0200020961FE8018
(1614975457.149611) can0 2C4#04F300280000210E
(1614975457.149612) can0 2C6#00000000000000D0
(1614975457.151559) can0 0B0#000000001106
(1614975457.153525) can0 0B2#000000001106
(1614975457.153526) can0 224#0000000000000008
(1614975457.155292) can0 2C5#000400CF
(1614975457.157345) can0 020#000007
(1614975457.159308) can0 0B4#00000000000000BC
(1614975457.159309) can0 025#0FC50FCE78787846
(1614975457.159309) can0 0BA#060707D2
(1614975457.161158) can0 024#0200020A61FE8019
(1614975457.161159) can0 260#08000D0000FFF674
(1614975457.161159) can0 2D5#0000
(1614975457.162237) can0 0B0#000000001107
(1614975457.164204) can0 0B2#000000001107
(1614975457.164205) can0 223#002000000000004D
(1614975457.166158) can0 262#210000008A
(1614975457.168003) can0 020#000007
(1614975457.169068) can0 0B4#00000000000000BC
(1614975457.171106) can0 025#0FC50FCE78787846
(1614975457.171107) can0 2C1#0801BE0016CD0075
(1614975457.171107) can0 024#0200020861FE8017
(1614975457.173023) can0 2C4#04F400280000210F
(1614975457.174827) can0 0B0#000000001108
(1614975457.175896) can0 0B2#000000001108
(1614975457.175897) can0 224#0000000000000008
(1614975457.178708) can0 2C6#00000000000000D0
(1614975457.180651) can0 260#08000C0000FFFE7B
(1614975457.182602) can0 020#000007
(1614975457.182603) can0 0B4#00000000000000BC
(1614975457.182603) can0 024#0200020A61FF801A
(1614975457.184545) can0 025#0FC50FCE78787846
(1614975457.184546) can0 0BA#060707D2
(1614975457.184546) can0 4C3#0300120700000000
(1614975457.186680) can0 2D5#0000
(1614975457.186681) can0 262#210000008A
(1614975457.187882) can0 0B0#000000001109
(1614975457.187884) can0 0B2#000000001109
(1614975457.189743) can0 223#002000000000004D
(1614975457.189744) can0 621#1100000000000000
(1614975457.190660) can0 020#000007
(1614975457.191523) can0 0B4#00000000000000BC
(1614975457.192624) can0 025#0FC50FCE78787846
(1614975457.194548) can0 024#0200020A61FE8019
(1614975457.196393) can0 2C4#04F100280000210C
(1614975457.198333) can0 0B0#00000000110A
(1614975457.200287) can0 0B2#00000000110A
(1614975457.202403) can0 224#0000000000000008
(1614975457.202405) can0 260#08000C0000000C8A
(1614975457.202406) can0 2C1#0801C60016CE007E
(1614975457.204284) can0 442#4002000000000000
(1614975457.204285) can0 2C5#000400CF
(1614975457.206167) can0 020#000007
(1614975457.207145) can0 0B4#00000000000000BC
(1614975457.207146) can0 025#0FC50FCE78787846
(1614975457.207147) can0 0BA#060807D3
(1614975457.208616) can0 024#0200020861FE8017
(1614975457.208617) can0 262#210000008A
(1614975457.208618) can0 2D5#0000
(1614975457.209838) can0 2C6#00000000000000D0
(1614975457.211674) can0 0B0#00000000110B
(1614975457.213740) can0 0B2#00000000110B
(1614975457.213741) can0 223#002000000000004D
(1614975457.214798) can0 020#000007
(1614975457.215752) can0 0B4#00000000000000BC
(1614975457.217477) can0 025#0FC50FCE78787846
(1614975457.219642) can0 024#0200020A61FE8019
(1614975457.221381) can0 2C4#04EE002800002109
(1614975457.222442) can0 260#08000C0000000482
(1614975457.224518) can0 0B0#00000000110C
(1614975457.224519) can0 0B2#00000000110C
(1614975457.224520) can0 224#0000000000000008
(1614975457.226487) can0 262#210000008A
(1614975457.228198) can0 020#000007
(1614975457.229340) can0 0B4#00000000000000BC
(1614975457.231427) can0 024#0200020961FE8018
(1614975457.231429) can0 025#0FC50FCE78787846
(1614975457.231430) can0 0BA#060807D3
(1614975457.233228) can0 2D5#0000
(1614975457.233230) can0 3A0#0000000000000058
(1614975457.235307) can0 2C1#0801C40014CE007A
(1614975457.237028) can0 0B0#00000000110D
(1614975457.237029) can0 0B2#00000000110D
(1614975457.237030) can0 223#002000000000004D
(1614975457.238945) can0 620#1000000030600050
(1614975457.241054) can0 260#08000D0000FFF674
(1614975457.242942) can0 020#000007
(1614975457.242944) can0 0B4#00000000000000BC
(1614975457.242945) can0 025#0FC50FCE78787846
(1614975457.244985) can0 024#0200020A61FF801A
(1614975457.244986) can0 2C4#04EF00280000210A
(1614975457.244987) can0 2C6#00000000000000D0
(1614975457.246933) can0 262#210000008A
(1614975457.248774) can0 0B0#00000000110E
(1614975457.248776) can0 0B2#00000000110E
(1614975457.248777) can0 224#0000000000000008
(1614975457.249968) can0 630#1700000000000000
(1614975457.251689) can0 2C5#000400CF
(1614975457.252749) can0 020#000007
(1614975457.254738) can0 0B4#00000000000000BC
(1614975457.254739) can0 025#0FC50FCE82828264
(1614975457.254740) can0 0BA#060707D2
(1614975457.256749) can0 024#0200020A61FE8019
(1614975457.256751) can0 2D5#0000
(1614975457.258576) can0 4C1#0100090800000000
(1614975457.260443) can0 0B0#00000000110F
(1614975457.260445) can0 0B2#00000000110F
(1614975457.262407) can0 223#002000000000004D
(1614975457.262408) can0 260#08000C0000000785
(1614975457.264343) can0 2C1#0801C10014CE0077
(1614975457.266268) can0 020#000007
(1614975457.268243) can0 0B4#00000000000000BC
(1614975457.268245) can0 025#0FC50FCE78787846
(1614975457.268246) can0 262#210000008A
(1614975457.270287) can0 2C4#04E9002800002104
(1614975457.270289) can0 024#0200020861FE8017
(1614975457.272211) can0 0B0#000000001100
(1614975457.274204) can0 0B2#000000001100
(1614975457.274205) can0 224#0000000000000008
(1614975457.275224) can0 2C6#00000000000000D0
(1614975457.277214) can0 020#000007
(1614975457.279020) can0 0B4#00000000000000BC
(1614975457.279022) can0 024#0200020961FE8018
(1614975457.279023) can0 025#0FC50FCE78787846
(1614975457.281284) can0 0BA#060707D2
(1614975457.281286) can0 2D5#0000
(1614975457.283010) can0 260#08000C000000007E
(1614975457.285028) can0 0B0#000000001101
(1614975457.285030) can0 0B2#000000001101
(1614975457.285030) can0 223#002000000000004D
(1614975457.286833) can0 262#210000008A
(1614975457.288839) can0 2C4#04E00028000021FB
(1614975457.289832) can0 020#000007
(1614975457.289833) can0 0B4#00000000000000BC
(1614975457.291664) can0 025#0FC50FCE78787846
(1614975457.291665) can0 024#0200020861FE8017
(1614975457.292880) can0 0B0#000000001102
(1614975457.293702) can0 0B2#000000001102
(1614975457.295555) can0 224#0000000000000008
(1614975457.297640) can0 2C1#0801D00019CE008B
(1614975457.299553) can0 2C5#000400CF
(1614975457.301494) can0 440#4202000000000000
(1614975457.303486) can0 2D5#0000
(1614975457.303488) can0 020#000007
(1614975457.303489) can0 0B4#00000000000000BC
(1614975457.304378) can0 025#0FC50FCE78787846
(1614975457.304379) can0 0BA#060707D2
(1614975457.304380) can0 260#08000C0000000280
(1614975457.306327) can0 024#0200020A61FF801A
(1614975457.308298) can0 2C6#00000000000000D0
(1614975457.308300) can0 262#210000008A
(1614975457.310331) can0 0B0#000000001103
(1614975457.310333) can0 0B2#000000001103
(1614975457.310334) can0 223#002000000000004D
(1614975457.311477) can0 2C4#04DA0028000021F5
(1614975457.313348) can0 020#000007
(1614975457.315312) can0 0B4#00000000000000BC
(1614975457.315313) can0 025#0FC50FCE78787846
(1614975457.317306) can0 024#0200020A61FD8018
(1614975457.318997) can0 0B0#000000001104
(1614975457.320991) can0 0B2#000000001104
(1614975457.320992) can0 224#0000000000000008
(1614975457.322953) can0 260#08000C0000000381
(1614975457.324887) can0 2D5#0000
(1614975457.326856) can0 020#000007
(1614975457.326858) can0 0B4#00000000000000BC
(1614975457.328806) can0 024#0200020961FD8017
(1614975457.328808) can0 025#0FC50FCE78787846
(1614975457.328809) can0 0BA#060907D4
(1614975457.330754) can0 262#210000008A
(1614975457.330755) can0 2C1#0801D80019CE0093
(1614975457.332927) can0 0B0#000000001105
(1614975457.332929) can0 0B2#000000001105
(1614975457.334859) can0 223#002000000000004D
(1614975457.334861) can0 3A0#0000000000000058
(1614975457.336806) can0 2C4#04D10028000021EC
(1614975457.338657) can0 020#000007
(1614975457.338659) can0 0B4#00000000000000BC
(1614975457.339745) can0 025#0FC50FCE78787846
(1614975457.339747) can0 024#0200020A61FE8019
(1614975457.339748) can0 2C6#00000000000000D0
(1614975457.341626) can0 260#08000C0000FFFE7B
(1614975457.343643) can0 0B0#000000001106
(1614975457.345604) can0 0B2#000000001106
(1614975457.345606) can0 224#0000000000000008
(1614975457.347576) can0 2C5#000400CF
(1614975457.349529) can0 262#210000008A
(1614975457.349531) can0 2D5#0000
(1614975457.351309) can0 020#000007
(1614975457.351311) can0 0B4#00000000000000BC
(1614975457.351322) can0 025#0FC50FCE78787846
(1614975457.353452) can0 0BA#060807D3
(1614975457.353454) can0 024#0200020861FE8017
(1614975457.355401) can0 0B0#000000001107
(1614975457.357349) can0 0B2#000000001107
(1614975457.357351) can0 223#002000000000004D
(1614975457.359262) can0 2C1#0801E9001FCF00AB
(1614975457.361212) can0 2C4#04CA0028000021E5
(1614975457.363007) can0 4DD#1E00000500000000
(1614975457.363008) can0 020#000007
(1614975457.363010) can0 0B4#00000000000000BC
(1614975457.364150) can0 025#0FC50FCE78787846
(1614975457.364157) can0 260#08000C0000FFFE7B
(1614975457.364158) can0 3B7#0080000000000000
(1614975457.366163) can0 024#0200020961FE8018
(1614975457.368067) can0 262#210000008A
(1614975457.370083) can0 0B0#000000001108
(1614975457.370084) can0 0B2#000000001108
(1614975457.370085) can0 224#0000000000000008
(1614975457.371917) can0 2C6#00000000000000D0
(1614975457.372884) can0 2D5#0000
(1614975457.374835) can0 020#000007
(1614975457.374837) can0 0B4#00000000000000BC
(1614975457.374838) can0 024#0200020A61FE8019
(1614975457.376842) can0 025#0FC50FCE78787846
(1614975457.376843) can0 0BA#060707D2
(1614975457.378835) can0 0B0#000000001109
(1614975457.380556) can0 0B2#000000001109
(1614975457.382718) can0 223#002000000000004D
(1614975457.383607) can0 260#08000C0000FFFA77
(1614975457.383608) can0 2C4#04BC0028000021D7
(1614975457.385530) can0 020#000007
(1614975457.386429) can0 0B4#00000000000000BC
(1614975457.386430) can0 025#0FC50FCE78787846
(1614975457.388393) can0 024#0200020861FE8017
(1614975457.388394) can0 262#210000008A
(1614975457.390352) can0 2C1#08020E0022D000D5
(1614975457.392292) can0 442#4002000000000000
(1614975457.394217) can0 0B0#00000000110A
(1614975457.394218) can0 0B2#00000000110A
(1614975457.394219) can0 224#0000000000000008
(1614975457.395443) can0 394#00
(1614975457.395445) can0 2C5#000400CF
(1614975457.397357) can0 2D5#0000
(1614975457.399311) can0 020#000007
(1614975457.399312) can0 0B4#00000000000000BC
(1614975457.399313) can0 025#0FC50FCE78787846
(1614975457.401384) can0 0BA#060707D2
(1614975457.401385) can0 024#0200020A61FE8019
(1614975457.403285) can0 2C6#00000000000000D0
(1614975457.405152) can0 260#08000C0000FFF976
(1614975457.405154) can0 0B0#00000000110B
(1614975457.405155) can0 0B2#00000000110B
(1614975457.407271) can0 223#002000000000004D
(1614975457.408991) can0 2C4#04B50028000021D0
(1614975457.408992) can0 262#210000008A
(1614975457.410151) can0 020#000007
(1614975457.410152) can0 0B4#00000000000000BC
(1614975457.411860) can0 025#0FC50FCE78787846
(1614975457.411862) can0 024#0200020961FD8017
(1614975457.413324) can0 0B0#00000000110C
(1614975457.415850) can0 0B2#00000000110C
(1614975457.417770) can0 224#0000000000000008
(1614975457.419743) can0 2D5#0000
(1614975457.421638) can0 020#000007
(1614975457.423598) can0 0B4#00000000000000BC
(1614975457.423599) can0 024#0200020A61FE8019
(1614975457.423600) can0 025#0FC50FCE78787846
(1614975457.425504) can0 0BA#060807D3
(1614975457.425506) can0 260#08000C0000FFFD7A
(1614975457.425507) can0 2C1#080207001BD000C7
(1614975457.426482) can0 0B0#00000000110D
(1614975457.428428) can0 0B2#00000000110D
(1614975457.428440) can0 223#002000000000004D
(1614975457.429415) can0 262#210000008A
(1614975457.431355) can0 2C4#04B40028000021CF
(1614975457.433312) can0 3A0#0000000000000058
(1614975457.435285) can0 2C6#00000000000000D0
(1614975457.435286) can0 020#000007
(1614975457.435287) can0 0B4#00000000000000BC
(1614975457.436377) can0 025#0FC50FCE78787846
(1614975457.436378) can0 024#0200020B61FF801B
(1614975457.437417) can0 0B0#00000000110E
(1614975457.438316) can0 0B2#00000000110E
(1614975457.439367) can0 224#0000000000000008
(1614975457.440163) can0 2C5#000400CF
(1614975457.441388) can0 2D5#0000
(1614975457.443119) can0 260#08000C0000000A88
(1614975457.445057) can0 020#000007
(1614975457.446992) can0 0B4#00000000000000BC
(1614975457.448965) can0 025#0FC50FCE78787846
(1614975457.448966) can0 0BA#060807D3
(1614975457.448967) can0 024#0200020861FE8017
(1614975457.450989) can0 262#210000008A
(1614975457.452834) can0 0B0#00000000110F
(1614975457.454776) can0 0B2#00000000110F
(1614975457.454777) can0 223#002000000000004D
(1614975457.456743) can0 2C4#04B30028000021CE
(1614975457.456745) can0 2C1#0801FA0026CF00C3
(1614975457.458857) can0 020#000007
(1614975457.460716) can0 0B4#00000000000000BC
(1614975457.460718) can0 025#0FC50FCE78787846
(1614975457.460719) can0 024#0200020961FE8018
(1614975457.462921) can0 260#08000C0000000280
(1614975457.464784) can0 0B0#000000001100
(1614975457.466666) can0 0B2#000000001100
(1614975457.466667) can0 224#0000000000000008
(1614975457.466668) can0 2C6#00000000000000D0
(1614975457.467661) can0 2D5#0000
(1614975457.469692) can0 262#210000008A
(1614975457.471806) can0 020#000007
(1614975457.471808) can0 0B4#00000000000000BC
(1614975457.471809) can0 024#0200020961FE8018
(1614975457.473659) can0 025#0FC50FCE78787846
(1614975457.473661) can0 0BA#060707D2
(1614975457.473662) can0 3B3#04B028
(1614975457.475548) can0 0B0#000000001101
(1614975457.477400) can0 0B2#000000001101
(1614975457.477402) can0 223#002000000000004D
(1614975457.478423) can0 2C4#04B00028000021CB
(1614975457.479567) can0 020#000007
(1614975457.480294) can0 0B4#00000000000000BC
(1614975457.481339) can0 025#0FC50FCE78787846
(1614975457.483219) can0 024#0200020A61FE8019
(1614975457.484293) can0 260#08000C0000FFF774
(1614975457.486238) can0 2C1#0801FB0028CF00C6
(1614975457.488060) can0 0B0#000000001102
(1614975457.490161) can0 0B2#000000001102
(1614975457.490162) can0 224#0000000000000008
(1614975457.490163) can0 262#210000008A
(1614975457.492045) can0 440#4202000000000000
(1614975457.492046) can0 2D5#0000
(1614975457.492047) can0 2C5#000400CF
(1614975457.494078) can0 020#000007
(1614975457.496002) can0 0B4#00000000000000BC
(1614975457.496003) can0 025#0FC50FCE78787846
(1614975457.496005) can0 0BA#060807D3
(1614975457.498077) can0 024#0200020B61FF801B
(1614975457.498079) can0 2C6#00000000000000D0
(1614975457.499929) can0 0B0#000000001103
(1614975457.501768) can0 0B2#000000001103
(1614975457.501770) can0 223#002000000000004D
(1614975457.502862) can0 2C4#04AF0028000021CA
(1614975457.504858) can0 260#08000C000000007E
(1614975457.506567) can0 020#000007
(1614975457.508642) can0 0B4#00000000000000BC
(1614975457.508655) can0 025#0FC50FCE78787846
(1614975457.508656) can0 024#0200020961FE8018
(1614975457.510480) can0 262#210000008A
(1614975457.512438) can0 0B0#000000001104
(1614975457.513453) can0 0B2#000000001104
(1614975457.513454) can0 224#0000000000000008
(1614975457.513455) can0 2D5#0000
(1614975457.517313) can0 020#000007
(1614975457.519263) can0 0B4#00000000000000BC
(1614975457.521498) can0 025#0FC50FCE78787846
(1614975457.521500) can0 024#0200020961FF8019
(1614975457.521501) can0 0BA#060707D2
(1614975457.523240) can0 2C1#0801F90026CF00C2
(1614975457.525463) can0 0B0#000000001105
(1614975457.525470) can0 0B2#000000001105
(1614975457.527308) can0 223#002000000000004D
(1614975457.527309) can0 260#08000C0000FFF16E
(1614975457.527310) can0 2C4#04AD0028000021C8
(1614975457.529140) can0 2C6#00000000000000D0
(1614975457.530990) can0 262#210000008A
(1614975457.530992) can0 020#000007
(1614975457.530992) can0 0B4#00000000000000BC
(1614975457.532951) can0 025#0FC50FCE78787846
(1614975457.532952) can0 024#0200020A61FE8019
(1614975457.535029) can0 3A0#0000000000000058
(1614975457.536847) can0 0B0#000000001106
(1614975457.538820) can0 0B2#000000001106
(1614975457.538821) can0 224#0000000000000008
(1614975457.538823) can0 2D5#0000
(1614975457.540751) can0 2C5#000400CF
(1614975457.540752) can0 620#1000000030600050
(1614975457.542728) can0 020#000007
(1614975457.544685) can0 0B4#00000000000000BC
(1614975457.544686) can0 025#0FC50FCE78787846
(1614975457.544687) can0 0BA#060807D3
(1614975457.546638) can0 024#0200020861FE8017
(1614975457.546640) can0 260#08000C0000000D8B
(1614975457.548701) can0 0B0#000000001107
(1614975457.550549) can0 0B2#000000001107
(1614975457.550551) can0 223#002000000000004D
(1614975457.550552) can0 2C4#04AC0028000021C7
(1614975457.552492) can0 262#210000008A
(1614975457.552493) can0 2C1#0801F8002BCF00C6
(1614975457.553581) can0 020#000007
(1614975457.555426) can0 0B4#00000000000000BC
(1614975457.555427) can0 025#0FC50FCE78787846
(1614975457.557392) can0 024#0200020961FF8019
(1614975457.559434) can0 0B0#000000001108
(1614975457.561483) can0 0B2#000000001108
(1614975457.563426) can0 224#0000000000000008
(1614975457.563428) can0 2C6#00000000000000D0
(1614975457.563429) can0 2D5#0000
(1614975457.565405) can0 260#08000D000000108F
(1614975457.567190) can0 020#000007
(1614975457.569101) can0 0B4#00000000000000BC
(1614975457.569103) can0 025#0FC50FCE78787846
(1614975457.569104) can0 024#0200020961FE8018
(1614975457.571154) can0 0BA#060707D2
(1614975457.571161) can0 262#210000008A
(1614975457.573123) can0 2C4#04A90028000021C4
(1614975457.575197) can0 0B0#000000001109
(1614975457.575199) can0 0B2#000000001109
(1614975457.575200) can0 223#002000000000004D
(1614975457.576910) can0 020#000007
(1614975457.579268) can0 0B4#00000000000000BC
(1614975457.580865) can0 025#0FC50FCE78787846
(1614975457.580866) can0 024#0200020861FE8017
(1614975457.582775) can0 442#4002000000000000
(1614975457.583767) can0 2C1#0801F9002BCF00C7
(1614975457.585802) can0 2D5#0000
(1614975457.585803) can0 0B0#00000000110A
(1614975457.585804) can0 0B2#00000000110A
(1614975457.587679) can0 224#0000000000000008
(1614975457.587691) can0 260#08000D0000FFFF7D
(1614975457.589851) can0 2C5#000400CF
(1614975457.591588) can0 262#210000008A
(1614975457.591590) can0 020#000007
(1614975457.591591) can0 0B4#00000000000000BC
(1614975457.593743) can0 025#0FC50FCE78787846
(1614975457.593744) can0 0BA#060707D2
(1614975457.593745) can0 024#0200020A61FF801A
(1614975457.595720) can0 2C6#00000000000000D0
(1614975457.597659) can0 2C4#04A90028000021C4
(1614975457.597660) can0 0B0#00000000110B
(1614975457.599412) can0 0B2#00000000110B
(1614975457.599413) can0 223#002000000000004D
(1614975457.601351) can0 020#000007
(1614975457.603268) can0 0B4#00000000000000BC
(1614975457.605233) can0 025#0FC50FCE82828264
(1614975457.605234) can0 024#0200020961FD8017
(1614975457.607186) can0 260#08000D0000FFFB79
(1614975457.609155) can0 2D5#0000
(1614975457.611216) can0 0B0#00000000110C
(1614975457.611217) can0 0B2#00000000110C
(1614975457.611218) can0 224#0000000000000008
(1614975457.613059) can0 262#210000008A
(1614975457.615088) can0 610#2000000000000000
(1614975457.615090) can0 2C1#0801FC002FCF00CE
(1614975457.617145) can0 020#000007
(1614975457.617146) can0 0B4#00000000000000BC
(1614975457.617147) can0 024#0200020961FE8018
(1614975457.619051) can0 025#0FC50FCE78787846
(1614975457.619053) can0 0BA#060807D3
(1614975457.620879) can0 2C4#04A40028000021BF
(1614975457.622842) can0 0B0#00000000110D
(1614975457.622844) can0 0B2#00000000110D
(1614975457.622845) can0 223#002000000000004D
(1614975457.624881) can0 2C6#00000000000000D0
(1614975457.627001) can0 260#08000C0000001492
(1614975457.628971) can0 020#000007
(1614975457.628973) can0 0B4#00000000000000BC
(1614975457.628974) can0 025#0FC50FCE78787846
(1614975457.630603) can0 024#0200020A61FE8019
(1614975457.632713) can0 262#210000008A
(1614975457.632715) can0 2D5#0000
(1614975457.634541) can0 3A0#0000000000000058
(1614975457.634542) can0 0B0#00000000110E
(1614975457.634543) can0 0B2#00000000110E
(1614975457.636499) can0 224#0000000000000008
(1614975457.636501) can0 2C5#000400CF
(1614975457.638564) can0 020#000007
(1614975457.639452) can0 0B4#00000000000000BC
(1614975457.639453) can0 025#0FC50FCE78787846
(1614975457.639454) can0 0BA#060807D3
(1614975457.641360) can0 024#0200020861FE8017
(1614975457.643360) can0 2C4#049E0028000021B9
(1614975457.645386) can0 0B0#00000000110F
(1614975457.647600) can0 0B2#00000000110F
(1614975457.647602) can0 223#002000000000004D
(1614975457.647603) can0 260#08000C000000017F
(1614975457.649235) can0 2C1#0802040033D000DC
(1614975457.650326) can0 262#210000008A
(1614975457.652197) can0 020#000007
(1614975457.652198) can0 0B4#00000000000000BC
(1614975457.652199) can0 025#0FC50FCE78787846
(1614975457.653408) can0 024#0200020A61FE8019
(1614975457.655279) can0 2D5#0000
(1614975457.657211) can0 2C6#00000000000000D0
(1614975457.659142) can0 0B0#000000001100
(1614975457.659144) can0 0B2#000000001100
(1614975457.659145) can0 224#0000000000000008
(1614975457.661114) can0 4C8#0900010600000000
(1614975457.662902) can0 020#000007
(1614975457.664886) can0 0B4#00000000000000BC
(1614975457.664888) can0 024#0200020A61FD8018
(1614975457.664889) can0 025#0FC50FCE78787846
(1614975457.666843) can0 0BA#060807D3
(1614975457.666844) can0 3B7#0080000000000000
(1614975457.668726) can0 260#08000C0000FFF370
(1614975457.668727) can0 2C4#049A0028000021B5
(1614975457.669739) can0 0B0#000000001101
(1614975457.669741) can0 0B2#000000001101
(1614975457.669742) can0 223#002000000000004D
(1614975457.671731) can0 262#210000008A
(1614975457.673772) can0 020#000007
(1614975457.675723) can0 0B4#00000000000000BC
(1614975457.677629) can0 025#0FC50FCE78787846
(1614975457.677631) can0 024#0200020A61FE8019
(1614975457.679463) can0 2C1#0801FF002ACF00CC
(1614975457.679465) can0 2D5#0000
(1614975457.681434) can0 440#4202000000000000
(1614975457.683417) can0 0B0#000000001102
(1614975457.683418) can0 0B2#000000001102
(1614975457.683419) can0 224#0000000000000008
(1614975457.685392) can0 2C5#000400CF
(1614975457.686536) can0 260#08000C0000FFF673
(1614975457.688687) can0 020#000007
(1614975457.688688) can0 0B4#00000000000000BC
(1614975457.688689) can0 025#0FC50FCE78787846
(1614975457.690417) can0 0BA#060807D3
(1614975457.690418) can0 420#0000FFFFFF0180AA
(1614975457.690419) can0 024#0200020B61FF801B
(1614975457.692348) can0 2C6#00000000000000D0
(1614975457.692350) can0 638#1300100000000000
(1614975457.692351) can0 2C4#04920028000021AD
(1614975457.693172) can0 262#210000008A
(1614975457.693174) can0 0B0#000000001103
(1614975457.693180) can0 0B2#000000001103
(1614975457.694125) can0 223#002000000000004D
(1614975457.696248) can0 394#00
(1614975457.698041) can0 020#000007
(1614975457.699014) can0 0B4#00000000000000BC
(1614975457.700970) can0 025#0FC50FCE78787846
(1614975457.700971) can0 024#0200020861FD8016
(1614975457.702927) can0 2D5#0000
(1614975457.704868) can0 0B0#000000001104
(1614975457.706815) can0 0B2#000000001104
(1614975457.706816) can0 224#0000000000000008
(1614975457.708752) can0 260#08000C0000FFF471
(1614975457.710702) can0 2C1#080216002CD000E7
(1614975457.712701) can0 020#000007
(1614975457.712703) can0 0B4#00000000000000BC
(1614975457.712704) can0 024#0200020861FE8017
(1614975457.714624) can0 025#0FC50FCE78787846
(1614975457.714626) can0 0BA#060707D2
(1614975457.714627) can0 262#210000008A
(1614975457.716745) can0 2C4#048C0028000021A7
(1614975457.718645) can0 0B0#000000001105
(1614975457.718646) can0 0B2#000000001105
(1614975457.718647) can0 223#002000000000004D
(1614975457.719686) can0 2C6#00000000000000D0
(1614975457.721751) can0 020#000007
(1614975457.723652) can0 0B4#00000000000000BC
(1614975457.725607) can0 025#0FC50FCE78787846
(1614975457.725609) can0 024#0200020B61FF801B
(1614975457.727634) can0 2D5#0000
(1614975457.727641) can0 260#08000C0000000F8D
(1614975457.729537) can0 0B0#000000001106
(1614975457.731252) can0 0B2#000000001106
(1614975457.731253) can0 224#0000000000000008
(1614975457.733222) can0 38A#0804000000
(1614975457.733224) can0 262#210000008A
(1614975457.733225) can0 2C5#000400CF
(1614975457.734428) can0 3A0#0000000000000058
(1614975457.736354) can0 020#000007
(1614975457.736356) can0 0B4#00000000000000BC
(1614975457.736357) can0 025#0FC50FCE78787846
(1614975457.738102) can0 0BA#060807D3
(1614975457.738103) can0 024#0200020961FE8018
(1614975457.738111) can0 2C4#048B0028000021A6
(1614975457.740186) can0 2C1#080214002AD000E3
(1614975457.741158) can0 0B0#000000001107
(1614975457.743104) can0 0B2#000000001107
(1614975457.743106) can0 223#002000000000004D
(1614975457.744276) can0 260#08000C0000FFFD7A
(1614975457.745012) can0 020#000007
(1614975457.746169) can0 0B4#00000000000000BC
(1614975457.748103) can0 025#0FC50FCE78787846
(1614975457.750184) can0 024#0200020A61FE8019
(1614975457.750186) can0 2D5#0000
(1614975457.751770) can0 622#1200000000000000
(1614975457.753934) can0 2C6#00000000000000D0
(1614975457.753936) can0 262#210000008A
(1614975457.753937) can0 0B0#000000001108
(1614975457.756098) can0 0B2#000000001108
(1614975457.756100) can0 224#0000000000000008
(1614975457.757847) can0 624#1A00414949400000
(1614975457.762989) can0 020#000007
(1614975457.763532) can0 0B4#00000000000000BC
(1614975457.763534) can0 024#0200020961FE8018
(1614975457.763535) can0 025#0FC50FCE78787846
(1614975457.763567) can0 0BA#060807D3
(1614975457.763568) can0 2C4#048400280000219F
(1614975457.765412) can0 398#00FA
(1614975457.767361) can0 0B0#000000001109
(1614975457.767362) can0 0B2#000000001109
(1614975457.767363) can0 223#002000000000004D
(1614975457.769327) can0 260#08000C000000017F
(1614975457.771259) can0 020#000007
(1614975457.773230) can0 0B4#00000000000000BC
(1614975457.773231) can0 025#0FC50FCE78787846
(1614975457.773233) can0 024#0200020861FE8017
(1614975457.775282) can0 262#210000008A
(1614975457.775284) can0 442#4002000000000000
(1614975457.775285) can0 2C1#08020E002BD000DE
(1614975457.777157) can0 2D5#0000
(1614975457.779239) can0 0B0#00000000110A
(1614975457.779240) can0 0B2#00000000110A
(1614975457.779241) can0 224#0000000000000008
(1614975457.781063) can0 2C5#000400CF
(1614975457.783123) can0 2C6#00000000000000D0
(1614975457.785051) can0 020#000007
(1614975457.785053) can0 0B4#00000000000000BC
(1614975457.785054) can0 025#0FC50FCE78787846
(1614975457.786911) can0 0BA#060707D2
(1614975457.786912) can0 2C4#048100280000219C
(1614975457.786913) can0 024#0200020B61FF801B
(1614975457.788886) can0 260#08000D0000000382
(1614975457.789923) can0 0B0#00000000110B
(1614975457.789925) can0 0B2#00000000110B
(1614975457.789926) can0 223#002000000000004D
(1614975457.791806) can0 262#210000008A
(1614975457.793777) can0 020#000007
(1614975457.794746) can0 0B4#00000000000000BC
(1614975457.796704) can0 025#0FC50FCE78787846
(1614975457.796705) can0 2D5#0000
(1614975457.796706) can0 024#0200020961FD8017
(1614975457.798526) can0 0B0#00000000110C
(1614975457.800626) can0 0B2#00000000110C
(1614975457.802576) can0 224#0000000000000008
(1614975457.804636) can0 2C1#080219002FD000ED
(1614975457.806559) can0 020#000007
(1614975457.808440) can0 0B4#00000000000000BC
(1614975457.810660) can0 025#0FC50FCE78787846
(1614975457.810662) can0 024#0200020961FD8017
(1614975457.810663) can0 0BA#060807D3
(1614975457.812402) can0 260#08000C0000000583
(1614975457.812403) can0 2C4#047D002800002198
(1614975457.813445) can0 262#210000008A
(1614975457.813447) can0 0B0#00000000110D
(1614975457.813448) can0 0B2#00000000110D
(1614975457.815473) can0 223#002000000000004D
(1614975457.815482) can0 2C6#00000000000000D0
(1614975457.816622) can0 020#000007
(1614975457.817433) can0 0B4#00000000000000BC
(1614975457.819166) can0 025#0FC50FCE78787846
(1614975457.821243) can0 2D5#0000
(1614975457.821244) can0 024#0200020A61FF801A
(1614975457.822546) can0 0B0#00000000110E
(1614975457.823316) can0 0B2#00000000110E
(1614975457.825105) can0 224#0000000000000008
(1614975457.827061) can0 260#08000C0000000886
(1614975457.829028) can0 2C5#000400CF
(1614975457.830955) can0 2C4#047C002800002197
(1614975457.832845) can0 020#000007
(1614975457.832847) can0 0B4#00000000000000BC
(1614975457.832848) can0 025#0FC50FCE78787846
(1614975457.834776) can0 0BA#060707D2
(1614975457.834777) can0 024#01FF020961FD7F14
(1614975457.834778) can0 3A0#0000000000000058
(1614975457.836975) can0 262#210000008A
(1614975457.838949) can0 2C1#0802150039D000F3
(1614975457.838950) can0 0B0#00000000110F
(1614975457.838951) can0 0B2#00000000110F
(1614975457.840993) can0 223#002000000000004D
(1614975457.840995) can0 620#1000000030600050
(1614975457.842699) can0 020#000007
(1614975457.843834) can0 0B4#00000000000000BC
(1614975457.843835) can0 025#0FC50FCE78787846
(1614975457.843837) can0 2D5#0000
(1614975457.845771) can0 024#0200020961FE8018
(1614975457.847725) can0 2C6#00000000000000D0
(1614975457.849660) can0 260#08000D0000FFFF7D
(1614975457.851667) can0 0B0#000000001100
(1614975457.851669) can0 0B2#000000001100
(1614975457.851670) can0 224#0000000000000008
(1614975457.853378) can0 262#210000008A
(1614975457.854503) can0 2C4#0479002800002194
(1614975457.856472) can0 020#000007
(1614975457.856473) can0 0B4#00000000000000BC
(1614975457.856474) can0 024#0200020A61FF801A
(1614975457.858517) can0 025#0FC50FCE78787846
(1614975457.858519) can0 0BA#060707D2
(1614975457.858520) can0 4C6#0700011000000000
(1614975457.860426) can0 0B0#000000001101
(1614975457.862333) can0 0B2#000000001101
(1614975457.864424) can0 223#002000000000004D
(1614975457.864425) can0 4DC#1D00010700000000
(1614975457.866244) can0 2D5#0000
(1614975457.868189) can0 020#000007
(1614975457.870256) can0 0B4#00000000000000BC
(1614975457.870258) can0 025#0FC50FCE78787846
(1614975457.870258) can0 024#0200020861FE8017
(1614975457.871939) can0 260#08000C0000FFF774
(1614975457.871941) can0 2C1#080218003CD000F9
(1614975457.871942) can0 440#4202000000000000
(1614975457.874092) can0 262#210000008A
(1614975457.876141) can0 0B0#000000001102
(1614975457.876144) can0 0B2#000000001102
(1614975457.876145) can0 224#0000000000000008
(1614975457.877956) can0 2C5#000400CF
(1614975457.879911) can0 2C4#0477002800002192
(1614975457.879913) can0 2C6#00000000000000D0
(1614975457.881651) can0 020#000007
(1614975457.881653) can0 0B4#00000000000000BC
(1614975457.881654) can0 025#0FC50FCE78787846
(1614975457.883735) can0 0BA#060707D2
(1614975457.883736) can0 024#0200020A61FF801A
(1614975457.885677) can0 0B0#000000001103
(1614975457.887545) can0 0B2#000000001103
(1614975457.887547) can0 223#002000000000004D
(1614975457.889476) can0 260#08000D0000000483
(1614975457.891418) can0 2D5#0000
(1614975457.893382) can0 020#000007
(1614975457.893389) can0 0B4#00000000000000BC
(1614975457.893402) can0 025#0FC50FCE82828264
(1614975457.894408) can0 024#0200020A61FE8019
(1614975457.894410) can0 262#210000008A
(1614975457.896458) can0 0B0#000000001104
(1614975457.898491) can0 0B2#000000001104
(1614975457.899337) can0 224#0000000000000008
(1614975457.900488) can0 2C1#080210003ED000F3
(1614975457.902283) can0 2C4#0477002800002192
(1614975457.903156) can0 3B0#0000005300
(1614975457.905128) can0 020#000007
(1614975457.905130) can0 0B4#00000000000000BC
(1614975457.905131) can0 024#0200020961FE8018
(1614975457.907064) can0 025#0FC50FCE78787846
(1614975457.907065) can0 0BA#060807D3
(1614975457.909055) can0 260#08000C0000000C8A
(1614975457.910984) can0 0B0#000000001105
(1614975457.910986) can0 0B2#000000001105
(1614975457.910987) can0 223#002000000000004D
(1614975457.912968) can0 2C6#00000000000000D0
(1614975457.914872) can0 262#210000008A
(1614975457.914874) can0 2D5#0000
(1614975457.915981) can0 020#000007
(1614975457.915983) can0 0B4#00000000000000BC
(1614975457.917852) can0 025#0FC50FCE78787846
(1614975457.917853) can0 024#0200020A61FF801A
(1614975457.918972) can0 0B0#000000001106
(1614975457.919876) can0 0B2#000000001106
(1614975457.921748) can0 224#0000000000000008
(1614975457.923840) can0 2C5#000400CF
(1614975457.925766) can0 2C4#047400280000218F
(1614975457.927646) can0 020#000007
(1614975457.929632) can0 0B4#00000000000000BC
(1614975457.929633) can0 025#0FC50FCE78787846
(1614975457.929634) can0 0BA#060707D2
(1614975457.931547) can0 024#0200020961FE8018
(1614975457.931548) can0 260#08000C0000000785
(1614975457.933572) can0 2C1#08021A0044D00003
(1614975457.935455) can0 3A0#0000000000000058
(1614975457.935457) can0 0B0#000000001107
(1614975457.935458) can0 0B2#000000001107
(1614975457.937342) can0 223#002000000000004D
(1614975457.937344) can0 262#210000008A
(1614975457.939327) can0 2D5#0000
(1614975457.941450) can0 020#000007
(1614975457.941451) can0 0B4#00000000000000BC
(1614975457.941453) can0 025#0FC50FCE78787846
(1614975457.943217) can0 024#0200020961FE8018
(1614975457.943218) can0 2C6#00000000000000D0
(1614975457.944312) can0 0B0#000000001108
(1614975457.946157) can0 0B2#000000001108
(1614975457.946159) can0 224#0000000000000008
(1614975457.948225) can0 2C4#047400280000218F
(1614975457.950082) can0 260#08000C0000FFFC79
(1614975457.952125) can0 020#000007
(1614975457.953942) can0 0B4#00000000000000BC
(1614975457.953944) can0 024#0200020A61FF801A
(1614975457.953945) can0 025#0FC50FCE78787846
(1614975457.956017) can0 0BA#060707D2
(1614975457.956018) can0 423#00
(1614975457.957962) can0 262#210000008A
(1614975457.959834) can0 0B0#000000001109
(1614975457.959835) can0 0B2#000000001109
(1614975457.959836) can0 223#002000000000004D
(1614975457.961775) can0 2D5#0000
(1614975457.963792) can0 442#4002000000000000
(1614975457.963794) can0 380#0020000000003700
(1614975457.965693) can0 2C1#08023F003BD10020
(1614975457.965695) can0 020#000007
(1614975457.965696) can0 0B4#00000000000000BC
(1614975457.967824) can0 025#0FC50FCE78787846
(1614975457.967826) can0 024#0200020961FD8017
(1614975457.967827) can0 3B7#0080000000000000
(1614975457.969596) can0 3B4#0000B5C400000000
(1614975457.971663) can0 260#08000C0000000F8D
(1614975457.971664) can0 0B0#00000000110A
(1614975457.971665) can0 0B2#00000000110A
(1614975457.973530) can0 224#0000000000000008
(1614975457.973531) can0 2C4#047200280000218D
(1614975457.973532) can0 2C5#000400CF
(1614975457.975455) can0 2C6#00000000000000D0
(1614975457.975456) can0 262#210000008A
(1614975457.977447) can0 020#000007
(1614975457.977448) can0 0B4#00000000000000BC
(1614975457.977449) can0 025#0FC50FCE78787846
(1614975457.979580) can0 0BA#060807D3
(1614975457.979582) can0 024#0200020961FD8017
(1614975457.981525) can0 0B0#00000000110B
(1614975457.983405) can0 0B2#00000000110B
(1614975457.983406) can0 223#002000000000004D
(1614975457.985445) can0 2D5#0000
(1614975457.987239) can0 3B3#046C28
(1614975457.989293) can0 3B1#0000012100000000
(1614975457.989295) can0 020#000007
(1614975457.989296) can0 0B4#00000000000000BC
(1614975457.991182) can0 025#0FC50FCE78787846
(1614975457.991183) can0 024#0200020A61FF801A
(1614975457.991185) can0 260#08000C0000FFF774
(1614975457.993218) can0 4C7#0800012000000000
(1614975457.994147) can0 3A1#0000000000000000
(1614975457.994148) can0 0B0#00000000110C
(1614975457.994149) can0 0B2#00000000110C
(1614975457.996297) can0 224#0000000000000008
(1614975457.996298) can0 262#210000008A
(1614975457.996299) can0 2C1#080221003DD10004
(1614975457.998258) can0 2C4#046C002800002187
(1614975458.000193) can0 394#00
(1614975458.001912) can0 020#000007
(1614975458.001914) can0 0B4#00000000000000BC
(1614975458.001915) can0 024#0200020861FE8017
(1614975458.004189) can0 025#0FC50FCE78787846
(1614975458.004190) can0 0BA#060707D2
(1614975458.005767) can0 2C6#00000000000000D0
(1614975458.007989) can0 0B0#00000000110D
(1614975458.007990) can0 0B2#00000000110D
(1614975458.007991) can0 223#002000000000004D
(1614975458.009670) can0 2D5#0000
(1614975458.011596) can0 260#08000C0000FFFE7B
(1614975458.013570) can0 020#000007
(1614975458.013571) can0 0B4#00000000000000BC
(1614975458.013572) can0 025#0FC50FCE78787846
(1614975458.015603) can0 024#0200020961FE8018
(1614975458.017480) can0 262#210000008A
(1614975458.019522) can0 0B0#00000000110E
(1614975458.019524) can0 0B2#00000000110E
(1614975458.019525) can0 224#0000000000000008
(1614975458.021664) can0 2C4#0469002800002184
(1614975458.021666) can0 2C5#000400CF
(1614975458.023622) can0 020#000007
(1614975458.025362) can0 0B4#00000000000000BC
(1614975458.025363) can0 025#0FC50FCE78787846
(1614975458.025364) can0 0BA#060707D2
(1614975458.026465) can0 024#0200020A61FE8019
(1614975458.028735) can0 2C1#080273003BD30056
(1614975458.030281) can0 0B0#00000000110F
(1614975458.031353) can0 0B2#00000000110F
(1614975458.031354) can0 223#002000000000004D
(1614975458.031355) can0 260#08000C0000FFFA77
(1614975458.033252) can0 2D5#0000
(1614975458.033254) can0 3A0#0000000000000058
(1614975458.035098) can0 262#210000008A
(1614975458.036147) can0 020#000007
(1614975458.036149) can0 0B4#00000000000000BC
(1614975458.037999) can0 025#0FC50FCE78787846
(1614975458.038001) can0 2C6#00000000000000D0
(1614975458.038002) can0 024#0200020961FD8017
(1614975458.039187) can0 0B0#000000001100
(1614975458.040069) can0 0B2#000000001100
(1614975458.041867) can0 224#0000000000000008
(1614975458.043833) can0 2C4#0465002800002180
(1614975458.045169) can0 020#000007
(1614975458.045993) can0 0B4#00000000000000BC
(1614975458.047853) can0 025#0FC50FCE78787846
(1614975458.049704) can0 024#0200020A61FE8019
(1614975458.049705) can0 0BA#060807D3
(1614975458.051678) can0 260#08000C0000FFF471
(1614975458.053724) can0 640#A800000001500000
(1614975458.055601) can0 0B0#000000001101
(1614975458.055603) can0 0B2#000000001101
(1614975458.055604) can0 223#002000000000004D
(1614975458.057522) can0 262#210000008A
(1614975458.057524) can0 2D5#0000
(1614975458.059560) can0 2C1#08024B0040D20032
(1614975458.060718) can0 440#4202000000000000
(1614975458.060721) can0 020#000007
(1614975458.060722) can0 0B4#00000000000000BC
(1614975458.062507) can0 025#0FC50FCE78787846
(1614975458.062509) can0 024#0200020961FE8018
(1614975458.063256) can0 0B0#000000001102
(1614975458.064459) can0 0B2#000000001102
(1614975458.066328) can0 224#0000000000000008
(1614975458.068292) can0 2C4#046400280000217F
(1614975458.070400) can0 2C5#000400CF
(1614975458.070402) can0 2C6#00000000000000D0
(1614975458.072174) can0 260#08000C0000FFFA77
(1614975458.074118) can0 020#000007
(1614975458.074120) can0 0B4#00000000000000BC
(1614975458.074121) can0 025#0FC50FCE78787846
(1614975458.076181) can0 0BA#060707D2
(1614975458.076182) can0 024#0200020861FD8016
(1614975458.078035) can0 262#210000008A
(1614975458.079962) can0 0B0#000000001103
(1614975458.079964) can0 0B2#000000001103
(1614975458.079965) can0 223#002000000000004D
(1614975458.080965) can0 2D5#0000
(1614975458.082928) can0 020#000007
(1614975458.085043) can0 0B4#00000000000000BC
(1614975458.087008) can0 024#0200020961FF8019
(1614975458.087009) can0 025#0FC50FCE78787846
(1614975458.089087) can0 0B0#000000001104
(1614975458.090747) can0 0B2#000000001104
(1614975458.092711) can0 224#0000000000000008
(1614975458.092712) can0 260#08000D0000FFF06E
(1614975458.092714) can0 2C1#080222003CD10004
(1614975458.094914) can0 2C4#046200280000217D
(1614975458.096631) can0 262#210000008A
(1614975458.097810) can0 020#000007
(1614975458.097812) can0 0B4#00000000000000BC
(1614975458.097813) can0 025#0FC50FCE78787846
(1614975458.099725) can0 024#0200020961FE8018
(1614975458.099727) can0 0BA#060707D2
(1614975458.101491) can0 2C6#00000000000000D0
(1614975458.103643) can0 0B0#000000001105
(1614975458.103645) can0 0B2#000000001105
(1614975458.103646) can0 223#002000000000004D
(1614975458.105604) can0 2D5#0000
(1614975458.107640) can0 020#000007
(1614975458.109447) can0 0B4#00000000000000BC
(1614975458.109448) can0 025#0FC50FCE78787846
(1614975458.111431) can0 024#0200020861FD8016
(1614975458.113220) can0 260#08000C0000FFF774
(1614975458.115427) can0 610#2000000000000000
(1614975458.115429) can0 2C4#046000280000217B
(1614975458.115431) can0 0B0#000000001106
(1614975458.117296) can0 0B2#000000001106
(1614975458.117297) can0 224#0000000000000008
(1614975458.117298) can0 4C3#0300120700000000
(1614975458.119193) can0 262#210000008A
(1614975458.119195) can0 2C5#0003FECC
(1614975458.121284) can0 020#000007
(1614975458.121374) can0 0B4#00000000000000BC
(1614975458.123077) can0 025#0FC50FCE78787846
(1614975458.123079) can0 0BA#060707D2
(1614975458.123080) can0 024#0200020961FF8019
(1614975458.125205) can0 2C1#0802190044D00002
(1614975458.125207) can0 611#2100102000009304
(1614975458.126891) can0 2D5#0000
(1614975458.128930) can0 0B0#000000001107
(1614975458.128931) can0 0B2#000000001107
(1614975458.128933) can0 223#002000000000004D
(1614975458.130721) can0 260#08000C000000007E
(1614975458.132983) can0 2C6#00000000000000D0
(1614975458.134764) can0 020#000007
(1614975458.134766) can0 0B4#00000000000000BC
(1614975458.134767) can0 025#0FC50FCE82828264
(1614975458.135736) can0 3A0#0000000000000058
(1614975458.135738) can0 024#0200020961FE8018
(1614975458.137600) can0 262#210000008A
(1614975458.137601) can0 2C4#045F00280000217A
(1614975458.138603) can0 0B0#000000001108
(1614975458.138604) can0 0B2#000000001108
(1614975458.138605) can0 224#0000000000000008
(1614975458.140560) can0 620#1000000030600050
(1614975458.141543) can0 020#000007
(1614975458.142471) can0 0B4#00000000000000BC
(1614975458.143461) can0 024#0200020961FE8018
(1614975458.145432) can0 025#0FC50FCE6E6E6E28
(1614975458.145434) can0 0BA#060707D2
(1614975458.146926) can0 2D5#0000
(1614975458.149323) can0 0B0#000000001109
(1614975458.151390) can0 0B2#000000001109
(1614975458.153550) can0 223#002000000000004D
(1614975458.153552) can0 260#08000D0000FFF977
(1614975458.155175) can0 442#4002000000000000
(1614975458.155177) can0 2C1#08023F0047D1002C
(1614975458.156454) can0 262#210000008A
(1614975458.156456) can0 020#000007
(1614975458.158265) can0 0B4#00000000000000BC
(1614975458.158267) can0 025#0FC50FCE78787846
(1614975458.158268) can0 024#0200020A61FF801A
(1614975458.160135) can0 2C4#046200280000217D
(1614975458.162147) can0 0B0#00000000110A
(1614975458.163992) can0 0B2#00000000110A
(1614975458.163994) can0 224#0000000000000008
(1614975458.164976) can0 2C6#00000000000000D0
(1614975458.164977) can0 2C5#0003FDCB
(1614975458.166900) can0 4C1#0100090800000000
(1614975458.168842) can0 020#000007
(1614975458.170797) can0 0B4#00000000000000BC
(1614975458.170798) can0 025#0FC50FCE78787846
(1614975458.170799) can0 0BA#060707D2
(1614975458.172765) can0 024#0200020961FD8017
(1614975458.172772) can0 260#08000C000000007E
(1614975458.174748) can0 2D5#0000
(1614975458.175729) can0 0B0#00000000110B
(1614975458.175730) can0 0B2#00000000110B
(1614975458.175731) can0 223#002000000000004D
(1614975458.177697) can0 262#210000008A
(1614975458.179625) can0 020#000007
(1614975458.181646) can0 0B4#00000000000000BC
(1614975458.183714) can0 025#0FC50FCE78787846
(1614975458.183715) can0 024#0200020A61FE8019
(1614975458.185693) can0 2C4#045F00280000217A
(1614975458.187714) can0 2C1#08020B004BD000FB
(1614975458.187716) can0 0B0#00000000110C
(1614975458.187717) can0 0B2#00000000110C
(1614975458.189563) can0 224#0000000000000008
(1614975458.191679) can0 621#1100000000000000
(1614975458.193285) can0 260#08000D0000FFFF7D
(1614975458.193287) can0 020#000007
(1614975458.195401) can0 0B4#00000000000000BC
(1614975458.195402) can0 024#0200020A61FF801A
(1614975458.195404) can0 025#0FC50FCE78787846
(1614975458.196226) can0 0BA#060807D3
(1614975458.196228) can0 2C6#00000000000000D0
(1614975458.198167) can0 2D5#0000
(1614975458.198169) can0 262#210000008A
(1614975458.200103) can0 0B0#00000000110D
(1614975458.200105) can0 0B2#00000000110D
(1614975458.200106) can0 223#002000000000004D
(1614975458.203072) can0 020#000007
(1614975458.205004) can0 0B4#00000000000000BC
(1614975458.207054) can0 025#0FC50FCE78787846
(1614975458.207055) can0 024#0200020861FE8017
(1614975458.208997) can0 2C4#045B002800002176
(1614975458.210138) can0 0B0#00000000110E
(1614975458.212060) can0 0B2#00000000110E
(1614975458.212062) can0 224#0000000000000008
(1614975458.212063) can0 260#08000C0000FFFA77
(1614975458.214019) can0 2C5#0003FBC9
(1614975458.216040) can0 020#000007
(1614975458.217987) can0 0B4#00000000000000BC
(1614975458.217988) can0 025#0FC50FCE82828264
(1614975458.219884) can0 0BA#060707D2
(1614975458.219885) can0 262#210000008A
(1614975458.219886) can0 024#0200020A61FE8019
(1614975458.221745) can0 2C1#08024E0052D20047
(1614975458.221747) can0 2D5#0000
(1614975458.223712) can0 0B0#00000000110F
(1614975458.223713) can0 0B2#00000000110F
(1614975458.225864) can0 223#002000000000004D
(1614975458.227473) can0 2C6#00000000000000D0
(1614975458.228718) can0 020#000007
(1614975458.228720) can0 0B4#00000000000000BC
(1614975458.230598) can0 025#0FC50FCE78787846
(1614975458.230600) can0 024#0200020B61FF801B
(1614975458.232467) can0 2C4#045D002800002178
(1614975458.234555) can0 260#08000D0000FFFE7C
(1614975458.234557) can0 3A0#0000000000000058
(1614975458.236566) can0 0B0#000000001100
(1614975458.236568) can0 0B2#000000001100
(1614975458.236569) can0 224#0000000000000008
(1614975458.238229) can0 262#210000008A
(1614975458.240176) can0 020#000007
(1614975458.242196) can0 0B4#00000000000000BC
(1614975458.242198) can0 024#0200020961FD8017
(1614975458.242199) can0 025#0FC50FCE78787846
(1614975458.243146) can0 0BA#060807D3
(1614975458.244303) can0 2D5#0000
(1614975458.246234) can0 0B0#000000001101
(1614975458.248304) can0 0B2#000000001101
(1614975458.248306) can0 223#002000000000004D
(1614975458.250127) can0 2C1#080247004CD2003A
(1614975458.251977) can0 440#4202000000000000
(1614975458.251979) can0 630#1700000000000000
(1614975458.254082) can0 260#08000D0000000B8A
(1614975458.254084) can0 020#000007
(1614975458.254085) can0 0B4#00000000000000BC
(1614975458.255912) can0 025#0FC50FCE78787846
(1614975458.255913) can0 024#0200020961FE8018
(1614975458.256788) can0 2C4#045C002800002177
(1614975458.258943) can0 262#210000008A
(1614975458.258945) can0 0B0#000000001102
(1614975458.259856) can0 0B2#000000001102
(1614975458.259857) can0 224#0000000000000008
(1614975458.259858) can0 2C6#00000000000000D0
(1614975458.261676) can0 2C5#0003FAC8
(1614975458.263611) can0 020#000007
(1614975458.265585) can0 0B4#00000000000000BC
(1614975458.267529) can0 025#0FC50FCE78787846
(1614975458.267531) can0 0BA#060707D2
(1614975458.267532) can0 3B7#0080000000000000
(1614975458.269490) can0 024#0200020961FF8019
(1614975458.269491) can0 2D5#0000
(1614975458.271426) can0 0B0#000000001103
(1614975458.273678) can0 0B2#000000001103
(1614975458.273688) can0 223#002000000000004D
(1614975458.275525) can0 260#08000D0000001190
(1614975458.277577) can0 020#000007
(1614975458.279281) can0 0B4#00000000000000BC
(1614975458.279282) can0 025#0FC50FCE78787846
(1614975458.279283) can0 262#210000008A
(1614975458.281270) can0 024#0200020961FE8018
(1614975458.281271) can0 2C4#045C002800002177
(1614975458.283154) can0 2C1#080202004BD000F2
(1614975458.285078) can0 0B0#000000001104
(1614975458.285079) can0 0B2#000000001104
(1614975458.285081) can0 224#0000000000000008
(1614975458.286026) can0 020#000007
(1614975458.287063) can0 0B4#00000000000000BC
(1614975458.289010) can0 024#0200020A61FE8019
(1614975458.290111) can0 025#0FC50FCE78787846
(1614975458.290113) can0 0BA#060707D2
(1614975458.291944) can0 2C6#00000000000000D0
(1614975458.291946) can0 2D5#0000
(1614975458.294019) can0 260#08000C0000FFF370
(1614975458.295965) can0 0B0#000000001105
(1614975458.295967) can0 0B2#000000001105
(1614975458.297807) can0 223#002000000000004D
(1614975458.298812) can0 262#210000008A
(1614975458.300884) can0 020#000007
(1614975458.302707) can0 0B4#00000000000000BC
(1614975458.302708) can0 025#0FC50FCE78787846
(1614975458.302709) can0 024#0200020961FE8018
(1614975458.304651) can0 2C4#045D002800002178
(1614975458.304653) can0 394#00
(1614975458.306587) can0 0B0#000000001106
(1614975458.308677) can0 0B2#000000001106
(1614975458.308678) can0 224#0000000000000008
(1614975458.310699) can0 2C5#0003F9C7
(1614975458.312535) can0 2C1#08021A004FD0000E
(1614975458.313583) can0 020#000007
(1614975458.313584) can0 0B4#00000000000000BC
(1614975458.313586) can0 025#0FC50FCE78787846
(1614975458.315606) can0 0BA#060707D2
(1614975458.315607) can0 260#08000C0000FFFA77
(1614975458.315608) can0 024#0200020961FD8017
(1614975458.317629) can0 2D5#0000
(1614975458.319308) can0 262#210000008A
(1614975458.321330) can0 0B0#000000001107
(1614975458.321332) can0 0B2#000000001107
(1614975458.321333) can0 223#002000000000004D
(1614975458.323223) can0 2C6#00000000000000D0
(1614975458.325248) can0 020#000007
(1614975458.327343) can0 0B4#00000000000000BC
(1614975458.327344) can0 025#0FC50FCE78787846
(1614975458.327345) can0 2C4#045C002800002177
(1614975458.329140) can0 024#0200020A61FF801A
(1614975458.331106) can0 0B0#000000001108
(1614975458.333029) can0 0B2#000000001108
(1614975458.333037) can0 224#0000000000000008
(1614975458.334906) can0 3A0#0000000000000058
(1614975458.334907) can0 260#08000C000000007E
(1614975458.337071) can0 020#000007
(1614975458.338928) can0 0B4#00000000000000BC
(1614975458.338930) can0 024#0200020961FE8018
(1614975458.338931) can0 025#0FC50FCE78787846
(1614975458.340003) can0 0BA#060707D2
(1614975458.340004) can0 2D5#0000
(1614975458.340005) can0 262#210000008A
(1614975458.341916) can0 442#4002000000000000
(1614975458.343916) can0 0B0#000000001109
(1614975458.345854) can0 0B2#000000001109
(1614975458.345855) can0 223#002000000000004D
(1614975458.345856) can0 2C1#0801FB004FCF00ED
(1614975458.347861) can0 020#000007
(1614975458.349761) can0 0B4#00000000000000BC
(1614975458.351776) can0 025#0FC50FCE78787846
(1614975458.351777) can0 2C4#0459002800002174
(1614975458.351790) can0 024#0200020961FD8017
(1614975458.353719) can0 260#08000D0000FFF674
(1614975458.355473) can0 2C6#00000000000000D0
(1614975458.357383) can0 0B0#00000000110A
(1614975458.357384) can0 0B2#00000000110A
(1614975458.357385) can0 224#0000000000000008
(1614975458.359360) can0 2C5#0003F7C5
(1614975458.361315) can0 262#210000008A
(1614975458.363331) can0 020#000007
(1614975458.363332) can0 0B4#00000000000000BC
(1614975458.363334) can0 025#0FC50FCE78787846
(1614975458.365312) can0 0BA#060807D3
(1614975458.365313) can0 024#0200020A61FF801A
(1614975458.365314) can0 2D5#0000
(1614975458.367279) can0 0B0#00000000110B
(1614975458.369128) can0 0B2#00000000110B
(1614975458.369135) can0 223#002000000000004D
(1614975458.371068) can0 4DD#1E00000500000000
(1614975458.373046) can0 2C4#045300280000216E
(1614975458.374985) can0 020#000007
(1614975458.374987) can0 0B4#00000000000000BC
(1614975458.376961) can0 025#0FC50FCE78787846
(1614975458.376963) can0 260#08000D0000000382
(1614975458.376964) can0 024#0200020861FD8016
(1614975458.378941) can0 2C1#080203004FD000F7
(1614975458.380849) can0 262#210000008A
(1614975458.380850) can0 0B0#00000000110C
(1614975458.380851) can0 0B2#00000000110C
(1614975458.383103) can0 224#0000000000000008
(1614975458.384753) can0 020#000007
(1614975458.386722) can0 0B4#00000000000000BC
(1614975458.386723) can0 024#0200020961FC8016
(1614975458.386724) can0 025#0FC50FCE78787846
(1614975458.388747) can0 0BA#060707D2
(1614975458.388748) can0 2D5#0000
(1614975458.388750) can0 2C6#00000000000000D0
(1614975458.389625) can0 0B0#00000000110D
(1614975458.391576) can0 0B2#00000000110D
(1614975458.391577) can0 223#002000000000004D
(1614975458.393546) can0 260#08000D0000FFFA78
(1614975458.395620) can0 2C4#044F00280000216A
(1614975458.397442) can0 020#000007
(1614975458.399622) can0 0B4#00000000000000BC
(1614975458.399624) can0 025#0FC50FCE78787846
(1614975458.399625) can0 024#0200020A61FE8019
(1614975458.401539) can0 262#210000008A
(1614975458.403732) can0 0B0#00000000110E
(1614975458.405281) can0 0B2#00000000110E
(1614975458.405282) can0 224#0000000000000008
(1614975458.406413) can0 2C5#0003F6C4
(1614975458.408459) can0 2C1#08023D004AD1002D
(1614975458.410145) can0 2D5#0000
(1614975458.410146) can0 020#000007
(1614975458.410147) can0 0B4#00000000000000BC
(1614975458.412114) can0 025#0FC50FCE78787846
(1614975458.412116) can0 0BA#060807D3
(1614975458.412117) can0 024#0200020A61FD8018
(1614975458.414061) can0 260#08000D0000FFF977
(1614975458.416056) can0 0B0#00000000110F
(1614975458.418054) can0 0B2#00000000110F
(1614975458.418056) can0 223#002000000000004D
(1614975458.420013) can0 2C6#00000000000000D0
(1614975458.421961) can0 262#210000008A
(1614975458.421963) can0 2C4#0449002800002164
(1614975458.423992) can0 020#000007
(1614975458.423993) can0 0B4#00000000000000BC
(1614975458.423994) can0 025#0FC50FCE78787846
(1614975458.425878) can0 024#0200020A61FE8019
(1614975458.427762) can0 0B0#000000001100
(1614975458.429779) can0 0B2#000000001100
(1614975458.429781) can0 224#0000000000000008
(1614975458.431800) can0 2D5#0000
(1614975458.433768) can0 3A0#0000000000000058
(1614975458.435726) can0 020#000007
(1614975458.435728) can0 0B4#00000000000000BC
(1614975458.435729) can0 025#0FC50FCE78787846
(1614975458.437691) can0 0BA#060807D3
(1614975458.437692) can0 260#08000D0000000C8B
(1614975458.437693) can0 024#0200020961FF8019
(1614975458.439647) can0 0B0#000000001101
(1614975458.441618) can0 0B2#000000001101
(1614975458.441620) can0 223#002000000000004D
(1614975458.441621) can0 262#210000008A
(1614975458.443573) can0 2C1#0802450051D2003D
(1614975458.443575) can0 440#4202000000000000
(1614975458.443576) can0 620#1000000030600050
(1614975458.445523) can0 2C4#044300280000215E
(1614975458.446296) can0 020#000007
(1614975458.446297) can0 0B4#00000000000000BC
(1614975458.446298) can0 025#0FC50FCE78787846
(1614975458.448342) can0 024#0200020861FE8017
(1614975458.449310) can0 2C6#00000000000000D0
(1614975458.451186) can0 0B0#000000001102
(1614975458.453220) can0 0B2#000000001102
(1614975458.453222) can0 224#0000000000000008
(1614975458.455155) can0 2C5#0003F4C2
(1614975458.457116) can0 260#08000D0000000E8D
(1614975458.457119) can0 2D5#0000
(1614975458.458982) can0 020#000007
(1614975458.458983) can0 0B4#00000000000000BC
(1614975458.458985) can0 025#0FC50FCE78787846
(1614975458.460916) can0 0BA#060707D2
(1614975458.460918) can0 024#0200020961FE8018
(1614975458.460919) can0 262#210000008A
(1614975458.463027) can0 0B0#000000001103
(1614975458.465043) can0 0B2#000000001103
(1614975458.465045) can0 223#002000000000004D
(1614975458.466812) can0 2C4#043F00280000215A
(1614975458.467903) can0 020#000007
(1614975458.469986) can0 0B4#00000000000000BC
(1614975458.469987) can0 025#0FC50FCE78787846
(1614975458.471981) can0 024#0200020A61FF801A
(1614975458.473855) can0 2C1#0802490052D20042
(1614975458.475803) can0 260#08000D0000000887
(1614975458.477729) can0 0B0#000000001104
(1614975458.477731) can0 0B2#000000001104
(1614975458.477732) can0 224#0000000000000008
(1614975458.479705) can0 2D5#0000
(1614975458.481724) can0 262#210000008A
(1614975458.483526) can0 020#000007
(1614975458.483528) can0 0B4#00000000000000BC
(1614975458.483529) can0 024#0200020861FD8016
(1614975458.484632) can0 025#0FC50FCE78787846
(1614975458.484633) can0 0BA#060707D2
(1614975458.484634) can0 2C6#00000000000000D0
(1614975458.486525) can0 0B0#000000001105
(1614975458.488330) can0 0B2#000000001105
(1614975458.490475) can0 223#002000000000004D
(1614975458.492271) can0 2C4#043D002800002158
(1614975458.493276) can0 020#000007
(1614975458.494412) can0 0B4#00000000000000BC
(1614975458.494414) can0 025#0FC50FCE78787846
(1614975458.494415) can0 024#0200020961FE8018
(1614975458.496288) can0 260#08000D0000000988
(1614975458.498309) can0 3B3#043C28
(1614975458.500044) can0 0B0#000000001106
(1614975458.502042) can0 0B2#000000001106
(1614975458.502044) can0 224#0000000000000008
(1614975458.502045) can0 262#210000008A
(1614975458.503047) can0 2C5#0003F3C1
(1614975458.503048) can0 2C1#0802250052D1001D
(1614975458.504931) can0 2D5#0000
(1614975458.506837) can0 020#000007
(1614975458.506839) can0 0B4#00000000000000BC
(1614975458.506839) can0 025#0FC50FCE78787846
(1614975458.508793) can0 0BA#060707D2
(1614975458.508804) can0 024#0200020961FF8019
(1614975458.509791) can0 0B0#000000001107
(1614975458.511813) can0 0B2#000000001107
(1614975458.513699) can0 223#002000000000004D
(1614975458.515760) can0 2C6#00000000000000D0
(1614975458.515761) can0 2C4#043B002800002156
(1614975458.517602) can0 260#08000D0000000887
(1614975458.519596) can0 020#000007
(1614975458.519598) can0 0B4#00000000000000BC
(1614975458.519599) can0 025#0FC50FCE78787846
(1614975458.521666) can0 024#0200020961FD8017
(1614975458.521667) can0 262#210000008A
(1614975458.523707) can0 0B0#000000001108
(1614975458.525654) can0 0B2#000000001108
(1614975458.525656) can0 224#0000000000000008
(1614975458.527584) can0 2D5#0000
(1614975458.529410) can0 020#000007
(1614975458.530576) can0 0B4#00000000000000BC
(1614975458.530577) can0 024#01FF020961FE8117
(1614975458.530579) can0 025#0FC50FCE78787846
(1614975458.532392) can0 0BA#060807D3
(1614975458.532395) can0 442#4002000000000000
(1614975458.534275) can0 3A0#0000000000000058
(1614975458.536210) can0 2C1#0802150053D0000D
(1614975458.537190) can0 260#08000D0000000C8B
(1614975458.537191) can0 0B0#000000001109
(1614975458.537192) can0 0B2#000000001109
(1614975458.539118) can0 223#002000000000004D
(1614975458.539125) can0 2C4#0439002800002154
(1614975458.540190) can0 262#210000008A
(1614975458.542019) can0 020#000007
(1614975458.542020) can0 0B4#00000000000000BC
(1614975458.542022) can0 025#0FC50FCE82828264
(1614975458.544102) can0 024#0200020961FF8019
(1614975458.546079) can0 2C6#00000000000000D0
(1614975458.548030) can0 0B0#00000000110A
(1614975458.549924) can0 0B2#00000000110A
(1614975458.549926) can0 224#0000000000000008
(1614975458.550833) can0 2C5#0003F2C0
(1614975458.550834) can0 2D5#0000
(1614975458.552818) can0 020#000007
(1614975458.554881) can0 0B4#00000000000000BC
(1614975458.556811) can0 025#0FC50FCE78787846
(1614975458.556812) can0 0BA#060707D2
(1614975458.556814) can0 024#0200020961FE8018
(1614975458.558893) can0 260#08000D0000000887
(1614975458.560814) can0 0B0#00000000110B
(1614975458.562592) can0 0B2#00000000110B
(1614975458.562594) can0 223#002000000000004D
(1614975458.562595) can0 262#210000008A
(1614975458.563543) can0 2C4#0437002800002152
(1614975458.564774) can0 020#000007
(1614975458.566707) can0 0B4#00000000000000BC
(1614975458.566708) can0 025#0FC50FCE78787846
(1614975458.566710) can0 3B7#0080000000000000
(1614975458.568475) can0 2C1#0802230058D10021
(1614975458.568476) can0 024#0200020A61FE8019
(1614975458.570528) can0 0B0#00000000110C
(1614975458.572353) can0 0B2#00000000110C
(1614975458.574278) can0 224#0000000000000008
(1614975458.576240) can0 2D5#0000
(1614975458.578212) can0 260#08000D0000FFF775
(1614975458.578213) can0 2C6#00000000000000D0
(1614975458.580183) can0 020#000007
(1614975458.580185) can0 0B4#00000000000000BC
(1614975458.580186) can0 024#0200020A61FF801A
(1614975458.582106) can0 025#0FC50FCE78787846
(1614975458.582108) can0 0BA#060807D3
(1614975458.582109) can0 262#210000008A
(1614975458.583079) can0 0B0#00000000110D
(1614975458.585037) can0 0B2#00000000110D
(1614975458.585039) can0 223#002000000000004D
(1614975458.585039) can0 2C4#0438002800002153
(1614975458.588138) can0 020#000007
(1614975458.590103) can0 0B4#00000000000000BC
(1614975458.591939) can0 025#0FC50FCE78787846
(1614975458.591940) can0 024#0200020961FD8017
(1614975458.592975) can0 0B0#00000000110E
(1614975458.593940) can0 0B2#00000000110E
(1614975458.596095) can0 224#0000000000000008
(1614975458.597979) can0 260#08000D0000000C8B
(1614975458.599934) can0 2D5#0000
(1614975458.599936) can0 2C1#0802200059D1001F
(1614975458.599937) can0 2C5#0003F0BE
(1614975458.601649) can0 262#210000008A
(1614975458.603719) can0 020#000007
(1614975458.603721) can0 0B4#00000000000000BC
(1614975458.603722) can0 025#0FC50FCE78787846
(1614975458.605552) can0 0BA#060807D3
(1614975458.605554) can0 024#0200020A61FE8019
(1614975458.607731) can0 394#00
(1614975458.609464) can0 0B0#00000000110F
(1614975458.609465) can0 0B2#00000000110F
(1614975458.609466) can0 223#002000000000004D
(1614975458.611403) can0 2C4#0439002800002154
(1614975458.611405) can0 2C6#00000000000000D0
(1614975458.613460) can0 610#2000000000000000
(1614975458.615315) can0 020#000007
(1614975458.615316) can0 0B4#00000000000000BC
(1614975458.615317) can0 025#0FC50FCE78787846
(1614975458.617269) can0 024#0200020961FE8018
(1614975458.618995) can0 260#08000D0000FFF573
(1614975458.620215) can0 0B0#000000001100
(1614975458.620216) can0 0B2#000000001100
(1614975458.622204) can0 224#0000000000000008
(1614975458.622206) can0 2D5#0000
(1614975458.622207) can0 262#210000008A
(1614975458.623198) can0 020#000007
(1614975458.623938) can0 0B4#00000000000000BC
(1614975458.624997) can0 024#0200020961FD8017
(1614975458.627001) can0 025#0FC50FCE78787846
(1614975458.627002) can0 0BA#060707D2
(1614975458.629090) can0 440#4202000000000000
(1614975458.630823) can0 2C1#0801F3005BCF00F1
(1614975458.632778) can0 0B0#000000001101
(1614975458.634631) can0 0B2#000000001101
(1614975458.634633) can0 223#002000000000004D
(1614975458.634634) can0 2C4#043A002800002155
(1614975458.636570) can0 3A0#0000000000000058
(1614975458.638679) can0 260#08000D0000000C8B
(1614975458.640497) can0 020#000007
(1614975458.640499) can0 0B4#00000000000000BC
(1614975458.640500) can0 025#0FC50FCE78787846
(1614975458.642580) can0 024#01FF020A61FE8118
(1614975458.642582) can0 2C6#00000000000000D0
(1614975458.644433) can0 262#210000008A
(1614975458.646424) can0 0B0#000000001102
(1614975458.646426) can0 0B2#000000001102
(1614975458.646427) can0 224#0000000000000008
(1614975458.648301) can0 2D5#0000
(1614975458.648303) can0 2C5#0003EFBD
(1614975458.650275) can0 020#000007
(1614975458.651166) can0 0B4#00000000000000BC
(1614975458.651168) can0 025#0FC50FCE78787846
(1614975458.651169) can0 0BA#060807D3
(1614975458.652267) can0 024#0200020961FE8018
(1614975458.652269) can0 4C8#0900010600000000
(1614975458.653499) can0 2C4#0439002800002154
(1614975458.654186) can0 0B0#000000001103
(1614975458.655134) can0 0B2#000000001103
(1614975458.655135) can0 223#002000000000004D
(1614975458.657078) can0 260#08000C000000017F
(1614975458.661009) can0 262#210000008A
(1614975458.662958) can0 2C1#0801F1005BCF00EF
(1614975458.663962) can0 020#000007
(1614975458.663964) can0 0B4#00000000000000BC
(1614975458.663975) can0 025#0FC50FCE78787846
(1614975458.665990) can0 024#0200020961FD8017
(1614975458.667845) can0 0B0#000000001104
(1614975458.669811) can0 0B2#000000001104
(1614975458.669812) can0 224#0000000000000008
(1614975458.669813) can0 2D5#0000
(1614975458.671736) can0 2C6#00000000000000D0
(1614975458.673714) can0 020#000007
(1614975458.675781) can0 0B4#00000000000000BC
(1614975458.675783) can0 024#0200020A61FE8019
(1614975458.675784) can0 025#0FC50FCE78787846
(1614975458.676728) can0 0BA#060807D3
(1614975458.678693) can0 260#08000C0000000280
(1614975458.680645) can0 2C4#0439002800002154
(1614975458.682490) can0 0B0#000000001105
(1614975458.682492) can0 0B2#000000001105
(1614975458.682493) can0 223#002000000000004D
(1614975458.684655) can0 262#210000008A
(1614975458.686625) can0 020#000007
(1614975458.688574) can0 0B4#00000000000000BC
(1614975458.688575) can0 025#0FC50FCE78787846
(1614975458.688576) can0 024#0200020A61FF801A
(1614975458.690463) can0 420#0000FFFFFF0180AA
(1614975458.690465) can0 638#1300100000000000
(1614975458.692309) can0 2D5#0000
(1614975458.694233) can0 0B0#000000001106
(1614975458.694234) can0 0B2#000000001106
(1614975458.694235) can0 224#0000000000000008
(1614975458.696291) can0 2C1#0801F4005CCF00F3
(1614975458.696292) can0 2C5#0003EDBB
(1614975458.698130) can0 260#08000D0000000A89
(1614975458.700074) can0 020#000007
(1614975458.700076) can0 0B4#00000000000000BC
(1614975458.700077) can0 025#0FC50FCE78787846
(1614975458.702011) can0 0BA#060707D2
(1614975458.702012) can0 024#0200020961FD8017
(1614975458.704079) can0 262#210000008A
(1614975458.704080) can0 2C4#0437002800002152
(1614975458.706005) can0 2C6#00000000000000D0
(1614975458.706006) can0 0B0#000000001107
(1614975458.706007) can0 0B2#000000001107
(1614975458.707907) can0 223#002000000000004D
(1614975458.709828) can0 020#000007
(1614975458.711748) can0 0B4#00000000000000BC
(1614975458.711750) can0 025#0FC50FCE78787846
(1614975458.713728) can0 024#0200020A61FE8019
(1614975458.715726) can0 2D5#0000
(1614975458.717654) can0 0B0#000000001108
(1614975458.717655) can0 0B2#000000001108
(1614975458.717656) can0 224#0000000000000008
(1614975458.719690) can0 260#08000D0000FFFE7C
(1614975458.721606) can0 020#000007
(1614975458.723742) can0 0B4#00000000000000BC
(1614975458.723744) can0 024#0200020961FE8018
(1614975458.725651) can0 025#0FC50FCE78787846
(1614975458.725652) can0 0BA#060807D3
(1614975458.725653) can0 262#210000008A
(1614975458.727609) can0 442#4002000000000000
(1614975458.727610) can0 2C1#0801F70058CF00F2
(1614975458.727611) can0 2C4#0436002800002151
(1614975458.729478) can0 0B0#000000001109
(1614975458.729480) can0 0B2#000000001109
(1614975458.729486) can0 223#002000000000004D
(1614975458.732362) can0 3A0#0000000000000058
(1614975458.733295) can0 020#000007
(1614975458.734569) can0 0B4#00000000000000BC
(1614975458.734570) can0 025#0FC50FCE78787846
(1614975458.734571) can0 024#0200020961FD8017
(1614975458.736322) can0 2C6#00000000000000D0
(1614975458.737299) can0 260#08000D0000000A89
(1614975458.739224) can0 2D5#0000
(1614975458.741168) can0 620#1000000030600050
(1614975458.741170) can0 0B0#00000000110A
(1614975458.743171) can0 0B2#00000000110A
(1614975458.743172) can0 224#0000000000000008
(1614975458.744259) can0 2C5#0003ECBA
(1614975458.744261) can0 262#210000008A
(1614975458.746191) can0 020#000007
(1614975458.748159) can0 0B4#00000000000000BC
(1614975458.748160) can0 025#0FC50FCE78787846
(1614975458.748161) can0 0BA#060807D3
(1614975458.750217) can0 024#0200020A61FF801A
(1614975458.752197) can0 622#1200000000000000
(1614975458.752199) can0 2C4#0436002800002151
(1614975458.753923) can0 0B0#00000000110B
(1614975458.753924) can0 0B2#00000000110B
(1614975458.753925) can0 223#002000000000004D
(1614975458.760550) can0 2C1#0801EA0056CF00E3
(1614975458.761573) can0 260#08000D000000007F
(1614975458.761601) can0 020#000007
(1614975458.761602) can0 0B4#00000000000000BC
(1614975458.761603) can0 025#0FC50FCE78787846
(1614975458.761629) can0 624#1A00414949400000
(1614975458.761631) can0 024#0200020961FE8018
(1614975458.763653) can0 2D5#0000
(1614975458.765597) can0 262#210000008A
(1614975458.765599) can0 0B0#00000000110C
(1614975458.765600) can0 0B2#00000000110C
(1614975458.767459) can0 224#0000000000000008
(1614975458.769390) can0 2C6#00000000000000D0
(1614975458.771326) can0 020#000007
(1614975458.771327) can0 0B4#00000000000000BC
(1614975458.773303) can0 024#0200020961FD8017
(1614975458.773304) can0 025#0FC50FCE78787846
(1614975458.773305) can0 0BA#060707D2
(1614975458.775299) can0 2C4#0436002800002151
(1614975458.777221) can0 0B0#00000000110D
(1614975458.779172) can0 0B2#00000000110D
(1614975458.779173) can0 223#002000000000004D
(1614975458.779174) can0 260#08000D0000FFF472
(1614975458.781246) can0 020#000007
(1614975458.783089) can0 0B4#00000000000000BC
(1614975458.785045) can0 025#0FC50FCE78787846
(1614975458.785046) can0 024#0200020961FF8019
(1614975458.785047) can0 262#210000008A
(1614975458.786999) can0 2D5#0000
(1614975458.788981) can0 0B0#00000000110E
(1614975458.790917) can0 0B2#00000000110E
(1614975458.790918) can0 224#0000000000000008
(1614975458.790919) can0 2C1#0801E1005DCF00E1
(1614975458.792962) can0 2C5#0003EBB9
(1614975458.794941) can0 020#000007
(1614975458.796879) can0 0B4#00000000000000BC
(1614975458.796881) can0 025#0FC50FCE78787846
(1614975458.796882) can0 0BA#060707D2
(1614975458.798821) can0 024#0200020961FE8018
(1614975458.798823) can0 2C4#0435002800002150
(1614975458.800664) can0 260#08000D0000000584
(1614975458.800665) can0 2C6#00000000000000D0
(1614975458.802642) can0 0B0#00000000110F
(1614975458.802643) can0 0B2#00000000110F
(1614975458.802645) can0 223#002000000000004D
(1614975458.803728) can0 262#210000008A
(1614975458.805690) can0 020#000007
(1614975458.807492) can0 0B4#00000000000000BC
(1614975458.808844) can0 025#0FC50FCE78787846
(1614975458.808846) can0 024#0200020961FD8017
(1614975458.810439) can0 2D5#0000
(1614975458.811586) can0 0B0#000000001100
(1614975458.813523) can0 0B2#000000001100
(1614975458.813525) can0 224#0000000000000008
(1614975458.815629) can0 4C6#0700011000000000
(1614975458.817587) can0 020#000007
(1614975458.819231) can0 0B4#00000000000000BC
(1614975458.821172) can0 024#0200020961FF8019
(1614975458.821173) can0 025#0FC50FCE78787846
(1614975458.821182) can0 0BA#060807D3
(1614975458.823137) can0 260#08000D0000000382
(1614975458.823138) can0 440#4202000000000000
(1614975458.823139) can0 2C1#0801E1005BCF00DF
(1614975458.825166) can0 2C4#043400280000214F
(1614975458.825168) can0 262#210000008A
(1614975458.826085) can0 0B0#000000001101
(1614975458.826087) can0 0B2#000000001101
(1614975458.826088) can0 223#002000000000004D
(1614975458.827887) can0 020#000007
(1614975458.830077) can0 0B4#00000000000000BC
(1614975458.831978) can0 025#0FC50FCE78787846
(1614975458.834137) can0 024#0200020961FE8018
(1614975458.834139) can0 2C6#00000000000000D0
(1614975458.834140) can0 2D5#0000
(1614975458.836083) can0 3A0#0000000000000058
(1614975458.837991) can0 0B0#000000001102
(1614975458.837992) can0 0B2#000000001102
(1614975458.837993) can0 224#0000000000000008
(1614975458.839955) can0 260#08000D0000000180
(1614975458.839957) can0 2C5#0003EAB8
(1614975458.841698) can0 020#000007
(1614975458.843802) can0 0B4#00000000000000BC
(1614975458.843804) can0 025#0FC50FCE78787846
(1614975458.845806) can0 0BA#060707D2
(1614975458.845808) can0 024#0200020961FE8018
(1614975458.845809) can0 262#210000008A
(1614975458.847799) can0 2C4#043100280000214C
(1614975458.849530) can0 0B0#000000001103
(1614975458.849531) can0 0B2#000000001103
(1614975458.850750) can0 223#002000000000004D
(1614975458.852512) can0 2C1#0801E70056CF00E0
(1614975458.853710) can0 020#000007
(1614975458.855565) can0 0B4#00000000000000BC
(1614975458.855566) can0 025#0FC50FCE78787846
(1614975458.857614) can0 024#0200020A61FF801A
(1614975458.857616) can0 2D5#0000
(1614975458.859473) can0 260#08000D000000007F
(1614975458.861439) can0 0B0#000000001104
(1614975458.863204) can0 0B2#000000001104
(1614975458.863206) can0 224#0000000000000008
(1614975458.864424) can0 2C6#00000000000000D0
(1614975458.864427) can0 4DC#1D00010700000000
(1614975458.864428) can0 262#210000008A
(1614975458.866403) can0 020#000007
(1614975458.868453) can0 0B4#00000000000000BC
(1614975458.868454) can0 024#0200020961FE8018
(1614975458.870140) can0 025#0FC50FCE82828264
(1614975458.870141) can0 0BA#060707D2
(1614975458.870142) can0 3B7#0080000000000000
(1614975458.871164) can0 2C4#043300280000214E
(1614975458.873002) can0 0B0#000000001105
(1614975458.873004) can0 0B2#000000001105
(1614975458.874005) can0 223#002000000000004D
(1614975458.877890) can0 020#000007
(1614975458.878991) can0 0B4#00000000000000BC
(1614975458.880803) can0 025#0FC50FCE78787846
(1614975458.880804) can0 024#0200020961FD8017
(1614975458.880805) can0 260#08000C000000108E
(1614975458.882726) can0 2D5#0000
(1614975458.884702) can0 38A#0804000000
(1614975458.886635) can0 2C1#0801F30054CF00EA
(1614975458.886636) can0 262#210000008A
(1614975458.886637) can0 0B0#000000001106
(1614975458.888587) can0 0B2#000000001106
(1614975458.888589) can0 224#0000000000000008
(1614975458.888590) can0 2C5#0003E8B6
(1614975458.890532) can0 020#000007
(1614975458.892492) can0 0B4#00000000000000BC
(1614975458.892494) can0 025#0FC50FCE78787846
(1614975458.892495) can0 0BA#060807D3
(1614975458.894459) can0 024#0200020A61FF801A
(1614975458.894461) can0 2C4#043300280000214E
(1614975458.896691) can0 2C6#00000000000000D0
(1614975458.898586) can0 0B0#000000001107
(1614975458.898588) can0 0B2#000000001107
(1614975458.898589) can0 223#002000000000004D
(1614975458.900653) can0 260#08000C0000FFF673
(1614975458.902365) can0 020#000007
(1614975458.904308) can0 0B4#00000000000000BC
(1614975458.904310) can0 025#0FC50FCE78787846
(1614975458.904311) can0 2D5#0000
(1614975458.906383) can0 024#0200020961FD8017
(1614975458.906384) can0 262#210000008A
(1614975458.906385) can0 3B0#0000005300
(1614975458.908501) can0 0B0#000000001108
(1614975458.910116) can0 0B2#000000001108
(1614975458.910118) can0 224#0000000000000008
(1614975458.912072) can0 394#00
(1614975458.913983) can0 442#4002000000000000
(1614975458.914968) can0 020#000007
(1614975458.914969) can0 0B4#00000000000000BC
(1614975458.916986) can0 024#0200020961FD8017
(1614975458.916988) can0 025#0FC50FCE78787846
(1614975458.916989) can0 0BA#060807D3
(1614975458.919406) can0 2C4#0435002800002150
(1614975458.919407) can0 2C1#0801CF0053CE00C4
(1614975458.921302) can0 260#08000C0000FFFA77
(1614975458.923356) can0 0B0#000000001109
(1614975458.923359) can0 0B2#000000001109
(1614975458.923360) can0 223#002000000000004D
(1614975458.925198) can0 262#210000008A
(1614975458.927173) can0 2C6#00000000000000D0
(1614975458.929204) can0 020#000007
(1614975458.929205) can0 0B4#00000000000000BC
(1614975458.929206) can0 025#0FC50FCE78787846
(1614975458.931041) can0 024#0200020961FF8019
(1614975458.931043) can0 2D5#0000
(1614975458.933009) can0 0B0#00000000110A
(1614975458.934994) can0 0B2#00000000110A
(1614975458.934996) can0 224#0000000000000008
(1614975458.934997) can0 3A0#0000000000000058
(1614975458.937143) can0 2C5#0003E7B5
(1614975458.939143) can0 2C4#043300280000214E
(1614975458.941055) can0 020#000007
(1614975458.941057) can0 0B4#00000000000000BC
(1614975458.941058) can0 025#0FC50FCE78787846
(1614975458.942912) can0 0BA#060707D2
(1614975458.942914) can0 024#0200020961FE8018
(1614975458.942915) can0 260#08000C000000007E
(1614975458.944852) can0 0B0#00000000110B
(1614975458.946729) can0 0B2#00000000110B
(1614975458.946730) can0 223#002000000000004D
(1614975458.946732) can0 262#210000008A
(1614975458.948770) can0 2C1#0801C7004CCE00B5
(1614975458.950611) can0 2D5#0000
(1614975458.952515) can0 020#000007
(1614975458.952517) can0 0B4#00000000000000BC
(1614975458.952518) can0 025#0FC50FCE78787846
(1614975458.954628) can0 024#0200020A61FD8018
(1614975458.956491) can0 0B0#00000000110C
(1614975458.958429) can0 0B2#00000000110C
(1614975458.958431) can0 224#0000000000000008
(1614975458.960365) can0 2C6#00000000000000D0
(1614975458.962705) can0 260#08000B0000000582
(1614975458.962706) can0 423#00
(1614975458.962707) can0 4C7#0800012000000000
(1614975458.964526) can0 2C4#043400280000214F
(1614975458.964528) can0 020#000007
(1614975458.964529) can0 0B4#00000000000000BC
(1614975458.966641) can0 024#0200020A61FE8019
(1614975458.966642) can0 025#0FC50FCE78787846
(1614975458.966644) can0 0BA#060907D4
(1614975458.968423) can0 380#0020000000003700
(1614975458.968425) can0 262#210000008A
(1614975458.970368) can0 0B0#00000000110D
(1614975458.970378) can0 0B2#00000000110D
(1614975458.970379) can0 223#002000000000004D
(1614975458.971896) can0 2D5#0000
(1614975458.974262) can0 020#000007
(1614975458.976302) can0 0B4#00000000000000BC
(1614975458.977950) can0 025#0FC50FCE78787846
(1614975458.977952) can0 024#0200020A61FD8018
(1614975458.979967) can0 2C1#0801BF003FCD009F
(1614975458.981934) can0 260#08000C0000FFFC79
(1614975458.983843) can0 0B0#00000000110E
(1614975458.983844) can0 0B2#00000000110E
(1614975458.983846) can0 224#0000000000000008
(1614975458.985887) can0 2C5#0003E6B4
(1614975458.987741) can0 2C4#043300280000214E
(1614975458.987742) can0 262#210000008A
(1614975458.987743) can0 3B1#0000012100000000
(1614975458.989701) can0 020#000007
(1614975458.989703) can0 0B4#00000000000000BC
(1614975458.989704) can0 025#0FC50FCE78787846
(1614975458.991706) can0 0BA#060907D4
(1614975458.991708) can0 024#0200020A61FD8018
(1614975458.991709) can0 2C6#00000000000000D0
(1614975458.993531) can0 3B4#0000B4C400000000
(1614975458.995485) can0 0B0#00000000110F
(1614975458.995570) can0 0B2#00000000110F
(1614975458.995572) can0 223#002000000000004D
(1614975458.997470) can0 3A1#0000000000000000
(1614975458.999448) can0 2D5#0000
(1614975459.001405) can0 020#000007
(1614975459.001407) can0 0B4#00000000000000BC
(1614975459.001407) can0 025#0FC50FCE78787846
(1614975459.003464) can0 024#0200020961FF8019
(1614975459.003466) can0 260#08000C0000FFFF7C
(1614975459.005317) can0 0B0#000000001100
(1614975459.006362) can0 0B2#000000001100
(1614975459.006364) can0 224#0000000000000008
(1614975459.006365) can0 262#210000008A
(1614975459.008247) can0 2C4#043200280000214D
(1614975459.010227) can0 3B3#043328
(1614975459.012174) can0 440#4202000000000000
(1614975459.012175) can0 020#000007
(1614975459.012176) can0 0B4#00000000000000BC
(1614975459.014088) can0 024#0200020861FE8017
(1614975459.014090) can0 025#0FC50FCE78787846
(1614975459.014091) can0 0BA#060707D2
(1614975459.016122) can0 2C1#0801BA003ACD0095
(1614975459.017020) can0 0B0#000000001101
(1614975459.018937) can0 0B2#000000001101
(1614975459.018939) can0 223#002000000000004D
(1614975459.020498) can0 260#08000C0000FFF774
(1614975459.022409) can0 2C6#00000000000000D0
(1614975459.022410) can0 2D5#0000
(1614975459.024371) can0 020#000007
(1614975459.024373) can0 0B4#00000000000000BC
(1614975459.024374) can0 025#0FC50FCE78787846
(1614975459.026534) can0 024#0200020A61FD8018
(1614975459.026536) can0 380#0020800000003700
(1614975459.028729) can0 262#210000008A
(1614975459.030328) can0 0B0#000000001102
(1614975459.030329) can0 0B2#000000001102
(1614975459.030330) can0 224#0000000000000008
(1614975459.032222) can0 2C5#0003E4B2
(1614975459.034234) can0 2C4#043000280000214B
(1614975459.036138) can0 3A0#0000000016000058
(1614975459.036140) can0 020#000007
(1614975459.038066) can0 0B4#00000000000000BC
(1614975459.038067) can0 025#0FC50FCE78787846
(1614975459.038068) can0 0BA#060907D4
(1614975459.039090) can0 024#0200020A61FF801A
(1614975459.041110) can0 620#1000000030600050
(1614975459.041114) can0 0B0#000000001103
(1614975459.043058) can0 0B2#000000001103
(1614975459.043060) can0 223#002000000000004D
(1614975459.043071) can0 260#08000C0000000B89
(1614975459.044923) can0 2C1#0801B20031CD0084
(1614975459.046964) can0 2D5#0000
(1614975459.048929) can0 262#210000008A
(1614975459.048930) can0 020#000007
(1614975459.048932) can0 0B4#00000000000000BC
(1614975459.050870) can0 025#0FC50FCE78787846
(1614975459.050871) can0 4C3#0300120700000000
(1614975459.050872) can0 024#0200020961FD8017
(1614975459.051770) can0 0B0#000000001104
(1614975459.053684) can0 0B2#000000001104
(1614975459.053685) can0 224#0000000000000008
(1614975459.055897) can0 2C6#00000000000000D0
(1614975459.055899) can0 640#A800000001500000
(1614975459.057652) can0 2C4#042B002800002146
(1614975459.058849) can0 020#000007
(1614975459.060866) can0 0B4#00000000000000BC
(1614975459.060868) can0 024#0200020961FE8018
(1614975459.060868) can0 025#0FC50FCE78787846
(1614975459.062511) can0 0BA#060807D3
(1614975459.062512) can0 260#08000C0000000280
(1614975459.063522) can0 0B0#000000001105
(1614975459.064598) can0 0B2#000000001105
(1614975459.066608) can0 223#002000000000004D
(1614975459.066610) can0 3D6#00000000000000
(1614975459.068396) can0 262#210000008A
(1614975459.070614) can0 2D5#0000
(1614975459.072292) can0 020#000007
(1614975459.074295) can0 0B4#00000000000000BC
(1614975459.074296) can0 025#0FC50FCE78787846
(1614975459.074297) can0 024#0200020961FF8019
(1614975459.075275) can0 2C1#0801D90035CE00B0
(1614975459.077166) can0 0B0#000000001106
(1614975459.079082) can0 0B2#000000001106
(1614975459.079083) can0 224#0000000000000008
(1614975459.081016) can0 4C1#0100090800000000
(1614975459.081018) can0 2C4#042A002800002145
(1614975459.081019) can0 2C5#0003E3B1
(1614975459.083006) can0 260#08000B0000FFF672
(1614975459.084088) can0 020#000007
(1614975459.084090) can0 0B4#00000000000000BC
(1614975459.084091) can0 025#0FC50FCE78787846
(1614975459.086148) can0 0BA#060707D2
(1614975459.086150) can0 024#0200020961FD8017
(1614975459.086151) can0 2C6#00000000000000D0
(1614975459.087916) can0 262#210000008A
(1614975459.089163) can0 0B0#000000001107
(1614975459.091043) can0 0B2#000000001107
(1614975459.091045) can0 223#002000000000004D
(1614975459.092807) can0 2D5#0000
(1614975459.093769) can0 020#000007
(1614975459.094995) can0 0B4#00000000000000BC
(1614975459.094997) can0 025#0FC50FCE78787846
(1614975459.096637) can0 024#0200020961FE8018
(1614975459.098873) can0 0B0#000000001108
(1614975459.099634) can0 0B2#000000001108
(1614975459.100840) can0 224#0000000000000008
(1614975459.102785) can0 260#08000B000000017E
(1614975459.102787) can0 442#4002000000000000
(1614975459.104685) can0 2C4#0425002800002140
(1614975459.106664) can0 2C1#0801CD0033CE00A2
(1614975459.108632) can0 262#210000008A
(1614975459.108633) can0 020#000007
(1614975459.110565) can0 0B4#00000000000000BC
(1614975459.110567) can0 024#0200020961FF8019
(1614975459.110568) can0 025#0FC50FCE82828264
(1614975459.112665) can0 0BA#060707D2
(1614975459.114407) can0 610#2000000000000000
(1614975459.116485) can0 0B0#000000001109
(1614975459.116487) can0 0B2#000000001109
(1614975459.116488) can0 223#002000000000004D
(1614975459.118202) can0 2D5#0000
(1614975459.118204) can0 2C6#00000000000000D0
(1614975459.120407) can0 020#000007
(1614975459.122269) can0 0B4#00000000000000BC
(1614975459.122270) can0 025#0FC50FCE78787846
(1614975459.122271) can0 024#0200020861FE8017
(1614975459.124327) can0 260#08000B000000007D
(1614975459.126208) can0 611#2100102000009304
(1614975459.128147) can0 0B0#00000000110A
(1614975459.128148) can0 0B2#00000000110A
(1614975459.128149) can0 224#0000000000000008
(1614975459.130026) can0 2C4#041F00280000213A
(1614975459.130027) can0 262#210000008A
(1614975459.130028) can0 2C5#0003E2B0
(1614975459.132169) can0 020#000007
(1614975459.133856) can0 0B4#00000000000000BC
(1614975459.133857) can0 025#0FC50FCE78787846
(1614975459.133858) can0 0BA#060707D2
(1614975459.135845) can0 024#0200020961FE8018
(1614975459.137740) can0 3A0#0000000016000058
(1614975459.139653) can0 0B0#00000000110B
(1614975459.139655) can0 0B2#00000000110B
(1614975459.139656) can0 223#002000000000004D
(1614975459.141600) can0 2C1#0801DE0026CE00A6
(1614975459.141602) can0 2D5#0000
(1614975459.143560) can0 260#08000A000000007C
(1614975459.145510) can0 020#000007
(1614975459.145512) can0 0B4#00000000000000BC
(1614975459.145513) can0 025#0FC50FCE78787846
(1614975459.147454) can0 024#0200020A61FF801A
(1614975459.149464) can0 262#210000008A
(1614975459.149465) can0 2C6#00000000000000D0
(1614975459.151393) can0 0B0#00000000110C
(1614975459.151394) can0 0B2#00000000110C
(1614975459.151395) can0 224#0000000000000008
(1614975459.153459) can0 2C4#041C002800002137
(1614975459.155332) can0 020#000007
(1614975459.157241) can0 0B4#00000000000000BC
(1614975459.157243) can0 025#0FC50FCE78787846
(1614975459.157244) can0 0BA#060707D2
(1614975459.159197) can0 024#0200020961FD8017
(1614975459.161136) can0 0B0#00000000110D
(1614975459.163102) can0 0B2#00000000110D
(1614975459.163104) can0 223#002000000000004D
(1614975459.165137) can0 260#08000B0000FFF571
(1614975459.165139) can0 2D5#0000
(1614975459.165140) can0 398#00FE
(1614975459.167068) can0 262#210000008A
(1614975459.169043) can0 020#000007
(1614975459.169044) can0 0B4#00000000000000BC
(1614975459.170909) can0 025#0FC50FCE78787846
(1614975459.170911) can0 024#0200020A61FE8019
(1614975459.170912) can0 3B7#0080000000000000
(1614975459.172860) can0 2C1#0801E30023CF00A9
(1614975459.174827) can0 0B0#00000000110E
(1614975459.174829) can0 0B2#00000000110E
(1614975459.176773) can0 224#0000000000000008
(1614975459.176775) can0 2C4#0418002800002133
(1614975459.178860) can0 2C5#0003E0AE
(1614975459.180767) can0 020#000007
(1614975459.182643) can0 0B4#00000000000000BC
(1614975459.182644) can0 025#0FC50FCE78787846
(1614975459.182645) can0 0BA#060807D3
(1614975459.183616) can0 024#0200020961FF8019
(1614975459.183617) can0 2C6#00000000000000D0
(1614975459.183619) can0 260#08000C0000FFF875
(1614975459.185569) can0 0B0#00000000110F
(1614975459.187517) can0 0B2#00000000110F
(1614975459.187519) can0 223#002000000000004D
(1614975459.187520) can0 2D5#0000
(1614975459.189468) can0 262#210000008A
(1614975459.190583) can0 621#1100000000000000
(1614975459.192488) can0 020#000007
(1614975459.192490) can0 0B4#00000000000000BC
(1614975459.192491) can0 025#0FC50FCE78787846
(1614975459.194353) can0 024#0200020861FE8017
(1614975459.196280) can0 2C4#0418002800002133
(1614975459.198276) can0 0B0#000000001100
(1614975459.200206) can0 0B2#000000001100
(1614975459.200208) can0 224#0000000000000008
(1614975459.201203) can0 440#4202000000000000
(1614975459.203167) can0 2C1#0801CA0023CE008F
(1614975459.204149) can0 260#08000B0000FFF773
(1614975459.204151) can0 020#000007
(1614975459.204152) can0 0B4#00000000000000BC
(1614975459.206047) can0 024#0200020961FD8017
(1614975459.206048) can0 025#0FC50FCE78787846
(1614975459.206049) can0 0BA#060707D2
(1614975459.208018) can0 262#210000008A
(1614975459.209998) can0 0B0#000000001101
(1614975459.211951) can0 0B2#000000001101
(1614975459.211952) can0 223#002000000000004D
(1614975459.211954) can0 2D5#0000
(1614975459.213922) can0 2C6#00000000000000D0
(1614975459.213929) can0 394#00
(1614975459.215913) can0 020#000007
(1614975459.217820) can0 0B4#00000000000000BC
(1614975459.217821) can0 025#0FC50FCE78787846
(1614975459.217822) can0 024#0200020961FF8019
(1614975459.218567) can0 2C4#041300280000212E
(1614975459.219731) can0 0B0#000000001102
(1614975459.221320) can0 0B2#000000001102
(1614975459.223314) can0 224#0000000000000008
(1614975459.225177) can0 260#08000C0000001896
(1614975459.225178) can0 2C5#0003DFAD
(1614975459.227108) can0 020#000007
(1614975459.229054) can0 0B4#00000000000000BC
(1614975459.231017) can0 025#0FC50FCE78787846
(1614975459.231018) can0 0BA#060707D2
(1614975459.231019) can0 024#0200020961FD8017
(1614975459.232120) can0 262#210000008A
(1614975459.233974) can0 2C1#0801AE001ACD0069
(1614975459.233975) can0 2D5#0000
(1614975459.233976) can0 0B0#000000001103
(1614975459.235894) can0 0B2#000000001103
(1614975459.235895) can0 223#002000000000004D
(1614975459.235896) can0 3A0#0000000016000058
(1614975459.237388) can0 020#000007
(1614975459.237971) can0 0B4#00000000000000BC
(1614975459.239791) can0 025#0FC50FCE78787846
(1614975459.241755) can0 024#0200020961FD8017
(1614975459.243728) can0 260#08000B0000000380
(1614975459.245667) can0 2C6#00000000000000D0
(1614975459.247629) can0 2C4#040D002800002128
(1614975459.247631) can0 0B0#000000001104
(1614975459.247632) can0 0B2#000000001104
(1614975459.249699) can0 224#0000000000000008
(1614975459.249700) can0 262#210000008A
(1614975459.251538) can0 630#1700000000000000
(1614975459.253506) can0 020#000007
(1614975459.253507) can0 0B4#00000000000000BC
(1614975459.253508) can0 024#0200020961FE8018
(1614975459.255478) can0 025#0FC50FCE78787846
(1614975459.255480) can0 0BA#060807D3
(1614975459.257404) can0 2D5#0000
(1614975459.259347) can0 0B0#000000001105
(1614975459.259349) can0 0B2#000000001105
(1614975459.259350) can0 223#002000000000004D
(1614975459.261092) can0 260#08000C0000FFF16E
(1614975459.263369) can0 020#000007
(1614975459.265221) can0 0B4#00000000000000BC
(1614975459.267179) can0 025#0FC50FCE78787846
(1614975459.267180) can0 024#0200020A61FE8019
(1614975459.267181) can0 2C1#0801C10019CE007C
(1614975459.269110) can0 2C4#040C002800002127
(1614975459.270104) can0 262#210000008A
(1614975459.270105) can0 0B0#000000001106
(1614975459.272032) can0 0B2#000000001106
(1614975459.272045) can0 224#0000000000000008
(1614975459.274007) can0 2C5#0003DEAC
(1614975459.275969) can0 2C6#00000000000000D0
(1614975459.277921) can0 020#000007
(1614975459.277922) can0 0B4#00000000000000BC
(1614975459.277923) can0 025#0FC50FCE78787846
(1614975459.279860) can0 0BA#060807D3
(1614975459.279862) can0 024#0200020A61FD8018
(1614975459.281792) can0 2D5#0000
(1614975459.283773) can0 0B0#000000001107
(1614975459.283775) can0 0B2#000000001107
(1614975459.283776) can0 223#002000000000004D
(1614975459.285728) can0 260#08000B000000108D
(1614975459.287779) can0 020#000007
(1614975459.288781) can0 0B4#00000000000000BC
(1614975459.288783) can0 025#0FC50FCE78787846
(1614975459.290636) can0 262#210000008A
(1614975459.290638) can0 024#0200020961FE8018
(1614975459.292559) can0 2C4#0406002800002121
(1614975459.294514) can0 442#4002000000000000
(1614975459.296584) can0 0B0#000000001108
(1614975459.296585) can0 0B2#000000001108
(1614975459.296586) can0 224#0000000000000008
(1614975459.297470) can0 2C1#0801A90022CD006C
(1614975459.299389) can0 020#000007
(1614975459.301370) can0 0B4#00000000000000BC
(1614975459.301371) can0 024#0200020861FE8017
(1614975459.303294) can0 025#0FC50FCE78787846
(1614975459.303296) can0 0BA#060707D2
(1614975459.305322) can0 2D5#0000
(1614975459.305323) can0 260#08000B0000FFFB77
(1614975459.306337) can0 0B0#000000001109
(1614975459.306339) can0 0B2#000000001109
(1614975459.308194) can0 223#002000000000004D
(1614975459.308196) can0 2C6#00000000000000D0
(1614975459.310127) can0 262#210000008A
(1614975459.312102) can0 020#000007
(1614975459.314158) can0 0B4#00000000000000BC
(1614975459.314159) can0 025#0FC50FCE78787846
(1614975459.314160) can0 024#0200020961FE8018
(1614975459.315988) can0 2C4#040000280000211B
(1614975459.317968) can0 0B0#00000000110A
(1614975459.319919) can0 0B2#00000000110A
(1614975459.319921) can0 224#0000000000000008
(1614975459.321976) can0 2C5#0003DCAA
(1614975459.323806) can0 020#000007
(1614975459.325807) can0 0B4#00000000000000BC
(1614975459.325809) can0 025#0FC50FCE78787846
(1614975459.325811) can0 0BA#060707D2
(1614975459.327744) can0 024#0200020A61FE8019
(1614975459.327745) can0 260#08000B0000FFF975
(1614975459.329716) can0 2D5#0000
(1614975459.329718) can0 2C1#0801B00021CD0072
(1614975459.331628) can0 262#210000008A
(1614975459.331630) can0 0B0#00000000110B
(1614975459.331631) can0 0B2#00000000110B
(1614975459.333576) can0 223#002000000000004D
(1614975459.335545) can0 3A0#0000000016000058
(1614975459.337456) can0 020#000007
(1614975459.337457) can0 0B4#00000000000000BC
(1614975459.339441) can0 025#0FC50FCE78787846
(1614975459.339442) can0 024#0200020A61FE8019
(1614975459.341602) can0 2C4#03F7002800002111
(1614975459.341604) can0 2C6#00000000000000D0
(1614975459.341605) can0 620#1000000030600050
(1614975459.343478) can0 0B0#00000000110C
(1614975459.345379) can0 0B2#00000000110C
(1614975459.345381) can0 224#0000000000000008
(1614975459.346332) can0 260#08000B0000000481
(1614975459.348495) can0 020#000007
(1614975459.350221) can0 0B4#00000000000000BC
(1614975459.350222) can0 025#0FC50FCE78787846
(1614975459.350223) can0 0BA#060807D3
(1614975459.352314) can0 024#0200020A61FE8019
(1614975459.352316) can0 262#210000008A
(1614975459.352316) can0 2D5#0000
(1614975459.354221) can0 0B0#00000000110D
(1614975459.356172) can0 0B2#00000000110D
(1614975459.356174) can0 223#002000000000004D
(1614975459.357720) can0 020#000007
(1614975459.359106) can0 0B4#00000000000000BC
(1614975459.361144) can0 024#0200020961FF8019
(1614975459.363126) can0 025#0FC50FCE78787846
(1614975459.363128) can0 2C1#0801BC001CCD0079
(1614975459.364970) can0 2C4#03F100280000210B
(1614975459.366946) can0 260#08000B0000000E8B
(1614975459.368828) can0 0B0#00000000110E
(1614975459.368830) can0 0B2#00000000110E
(1614975459.368831) can0 224#0000000000000008
(1614975459.369962) can0 2C5#0003DBA9
(1614975459.371879) can0 262#210000008A
(1614975459.371880) can0 2C6#00000000000000D0
(1614975459.373739) can0 020#000007
(1614975459.373741) can0 0B4#00000000000000BC
(1614975459.373742) can0 025#0FC50FCE78787846
(1614975459.375783) can0 024#0200020961FE8018
(1614975459.375785) can0 0BA#060707D2
(1614975459.375786) can0 2D5#0000
(1614975459.377736) can0 0B0#00000000110F
(1614975459.379557) can0 0B2#00000000110F
(1614975459.381439) can0 223#002000000000004D
(1614975459.381440) can0 4DD#1E00000500000000
(1614975459.383560) can0 020#000007
(1614975459.385366) can0 0B4#00000000000000BC
(1614975459.387343) can0 025#0FC50FCE82828264
(1614975459.387344) can0 260#08000B0000FFF06C
(1614975459.387345) can0 024#0200020A61FD8018
(1614975459.389271) can0 2C4#03ED002800002107
(1614975459.391298) can0 440#4202000000000000
(1614975459.391300) can0 262#210000008A
(1614975459.393314) can0 0B0#000000001100
(1614975459.393316) can0 0B2#000000001100
(1614975459.393317) can0 224#0000000000000008
(1614975459.394166) can0 2C1#0801B8001DCD0076
(1614975459.396084) can0 020#000007
(1614975459.398044) can0 0B4#00000000000000BC
(1614975459.398045) can0 025#0FC50FCE78787846
(1614975459.398047) can0 0BA#060907D4
(1614975459.399034) can0 024#0200020961FE8018
(1614975459.399035) can0 2D5#0000
(1614975459.400013) can0 2C6#00000000000000D0
(1614975459.401137) can0 0B0#000000001101
(1614975459.403016) can0 0B2#000000001101
(1614975459.404312) can0 223#002000000000004D
(1614975459.405890) can0 260#08000C0000FFFF7C
(1614975459.407865) can0 020#000007
(1614975459.409772) can0 0B4#00000000000000BC
(1614975459.411791) can0 024#0200020961FF8019
(1614975459.411793) can0 025#0FC50FCE78787846
(1614975459.411794) can0 2C4#03E8002800002102
(1614975459.413681) can0 262#210000008A
(1614975459.415634) can0 0B0#000000001102
(1614975459.417617) can0 0B2#000000001102
(1614975459.417618) can0 224#0000000000000008
(1614975459.419548) can0 2C5#0003DAA8
(1614975459.421476) can0 020#000007
(1614975459.423448) can0 0B4#00000000000000BC
(1614975459.423450) can0 025#0FC50FCE78787846
(1614975459.423451) can0 024#0200020961FE8018
(1614975459.425515) can0 0BA#060707D2
(1614975459.425517) can0 2D5#0000
(1614975459.425518) can0 2C1#0801A5001DCD0063
(1614975459.427477) can0 260#08000B000000007D
(1614975459.429317) can0 0B0#000000001103
(1614975459.429318) can0 0B2#000000001103
(1614975459.431272) can0 223#002000000000004D
(1614975459.433210) can0 262#210000008A
(1614975459.435283) can0 020#000007
(1614975459.435284) can0 0B4#00000000000000BC
(1614975459.435285) can0 025#0FC50FCE78787846
(1614975459.437111) can0 2C4#03E50028000021FF
(1614975459.437113) can0 024#0200020A61FE8019
(1614975459.437114) can0 2C6#00000000000000D0
(1614975459.439108) can0 3A0#0000000016000058
(1614975459.441064) can0 0B0#000000001104
(1614975459.441065) can0 0B2#000000001104
(1614975459.441066) can0 224#0000000000000008
(1614975459.442118) can0 020#000007
(1614975459.442967) can0 0B4#00000000000000BC
(1614975459.444177) can0 025#0FC50FCE78787846
(1614975459.446035) can0 0BA#060807D3
(1614975459.446036) can0 2D5#0000
(1614975459.446037) can0 260#08000C0000000C8A
(1614975459.446937) can0 024#0200020961FE8018
(1614975459.448112) can0 0B0#000000001105
(1614975459.448892) can0 0B2#000000001105
(1614975459.450805) can0 223#002000000000004D
(1614975459.452737) can0 262#210000008A
(1614975459.454809) can0 2C1#080196001DCC0053
(1614975459.456680) can0 020#000007
(1614975459.458606) can0 0B4#00000000000000BC
(1614975459.458608) can0 024#0200020961FE8018
(1614975459.458609) can0 025#0FC50FCE78787846
(1614975459.460575) can0 2C4#03DE0028000021F8
(1614975459.461560) can0 0B0#000000001106
(1614975459.463640) can0 0B2#000000001106
(1614975459.463642) can0 224#0000000000000008
(1614975459.465742) can0 2C5#0003D8A6
(1614975459.467442) can0 260#08000B0000FFF16D
(1614975459.467443) can0 2C6#00000000000000D0
(1614975459.468589) can0 020#000007
(1614975459.470633) can0 0B4#00000000000000BC
(1614975459.470635) can0 025#0FC50FCE78787846
(1614975459.470641) can0 024#0200020A61FE8019
(1614975459.472606) can0 0BA#060707D2
(1614975459.472608) can0 2D5#0000
(1614975459.472609) can0 3B7#0080000000000000
(1614975459.474442) can0 262#210000008A
(1614975459.476429) can0 0B0#000000001107
(1614975459.476431) can0 0B2#000000001107
(1614975459.476432) can0 223#002000000000004D
(1614975459.478103) can0 2C4#03DB0028000021F5
(1614975459.479523) can0 020#000007
(1614975459.481154) can0 0B4#00000000000000BC
(1614975459.482307) can0 025#0FC50FCE78787846
(1614975459.482309) can0 024#0200020861FE8017
(1614975459.484052) can0 442#4002000000000000
(1614975459.485247) can0 260#08000C0000000B89
(1614975459.487141) can0 0B0#000000001108
(1614975459.487142) can0 0B2#000000001108
(1614975459.489087) can0 224#0000000000000008
(1614975459.489088) can0 2C1#0801950019CC004E
(1614975459.491059) can0 262#210000008A
(1614975459.492873) can0 2D5#0000
(1614975459.493881) can0 020#000007
(1614975459.493883) can0 0B4#00000000000000BC
(1614975459.493884) can0 025#0FC50FCE78787846
(1614975459.495975) can0 0BA#060707D2
(1614975459.495976) can0 024#0200020961FD8017
(1614975459.497955) can0 2C6#00000000000000D0
(1614975459.499840) can0 0B0#000000001109
(1614975459.501863) can0 0B2#000000001109
(1614975459.501865) can0 223#002000000000004D
(1614975459.503641) can0 2C4#03DA0028000021F4
(1614975459.504708) can0 020#000007
(1614975459.506572) can0 0B4#00000000000000BC
(1614975459.506573) can0 025#0FC50FCE78787846
(1614975459.506574) can0 024#0200020A61FD8018
(1614975459.508599) can0 260#08000B0000FFFC78
(1614975459.509528) can0 0B0#00000000110A
(1614975459.511460) can0 0B2#00000000110A
(1614975459.511462) can0 224#0000000000000008
(1614975459.511463) can0 262#210000008A
(1614975459.513329) can0 2C5#0003D7A5
(1614975459.515286) can0 2D5#0000
(1614975459.517239) can0 394#00
(1614975459.519269) can0 020#000007
(1614975459.519270) can0 0B4#00000000000000BC
(1614975459.519272) can0 025#0FC50FCE78787846
(1614975459.521307) can0 0BA#060907D4
(1614975459.521308) can0 024#0200020961FE8018
(1614975459.521309) can0 2C1#08018B001ECC0049
(1614975459.523134) can0 3B3#03DA28
(1614975459.524297) can0 0B0#00000000110B
(1614975459.524298) can0 0B2#00000000110B
(1614975459.524300) can0 223#002000000000004D
(1614975459.526270) can0 260#08000B0000000885
(1614975459.527975) can0 2C4#03D90028000021F3
(1614975459.529501) can0 020#000007
(1614975459.529503) can0 0B4#00000000000000BC
(1614975459.531073) can0 025#0FC50FCE78787846
(1614975459.531075) can0 2C6#00000000000000D0
(1614975459.531076) can0 024#0200020961FE8018
(1614975459.532979) can0 262#210000008A
