;$FILEVERSION=1.1
;$STARTTIME=45701.6875023264
;
;   Start time: 2/13/2025 16:30:00.201.0
;   Generated by PCAN-View v4.3.4.615
;
;   Message Number
;   |         Time Offset (ms)
;   |         |        Type
;   |         |        |        ID (hex)
;   |         |        |        |     Data Length
;   |         |        |        |     |   Data Bytes (hex) ...
;   |         |        |        |     |   |
;---+--   ----+----  --+--  ----+---  +  -+ -- -- -- -- -- -- --
     1)         6.1  Rx         0386  8  00 C0 00 80 00 40 00 80 
     2)         6.4  Rx         0387  8  00 00 00 00 00 02 02 00 
     3)         8.7  Rx         0365  2  00 00 
     4)        18.7  Rx         0365  2  00 00 
     5)        18.9  Rx         0450  6  FF 1B 00 00 00 00 
     6)        19.1  Rx         0471  6  04 50 10 00 00 6C 
     7)        26.1  Rx         0386  8  00 00 00 C0 00 40 00 80 
     8)        26.4  Rx         0387  8  00 00 00 00 00 03 03 00 
     9)        28.8  Rx         0365  2  00 00 
    10)        29.0  Rx         0436  4  00 00 00 00 
    11)        38.7  Rx         0365  2  00 00 
    12)        38.9  Rx         0450  6  FF 1B 00 00 00 00 
    13)        39.1  Rx         0471  6  04 50 10 00 00 70 
    14)        46.1  Rx         0386  8  00 40 00 C0 00 40 00 80 
    15)        46.4  Rx         0387  8  00 00 00 00 00 04 04 00 
    16)        48.7  Rx         0365  2  00 00 
    17)        58.7  Rx         0365  2  00 00 
    18)        58.9  Rx         0450  6  FF 1B 00 00 00 00 
    19)        59.1  Rx         0471  6  04 50 10 00 00 74 
    20)        66.2  Rx         0386  8  00 80 00 C0 00 40 00 80 
    21)        66.4  Rx         0387  8  00 00 00 00 00 05 05 00 
    22)        68.8  Rx         0365  2  00 00 
    23)        78.9  Rx         0365  2  00 00 
    24)        79.1  Rx         0436  4  00 00 00 00 
    25)        79.3  Rx         0450  6  FF 1B 00 00 00 00 
    26)        79.5  Rx         0471  6  04 50 10 00 00 78 
    27)        79.8  Rx         050E  8  20 00 00 00 00 00 00 00 
    28)        80.0  Rx         0593  6  01 00 FF FF FF FF 
    29)        80.3  Rx         0520  8  00 00 00 00 00 00 00 00 
    30)        80.5  Rx         0541  8  00 41 03 00 C0 00 00 10 
    31)        80.8  Rx         0553  8  00 00 00 00 01 00 80 00 
    32)        81.1  Rx         0569  8  00 04 3C 00 00 00 00 00 
    33)        81.3  Rx         0578  6  10 41 00 00 FF 03 
    34)        86.2  Rx         0386  8  00 C0 00 C0 00 40 00 80 
    35)        86.4  Rx         0387  8  00 00 00 00 00 06 06 00 
    36)        88.8  Rx         0365  2  00 00 
    37)        98.7  Rx         0365  2  00 00 
    38)        98.9  Rx         0450  6  FF 1B 00 00 00 00 
    39)        99.1  Rx         0471  6  04 50 10 00 00 BC 
    40)       106.1  Rx         0386  8  00 00 00 00 00 40 00 80 
    41)       106.4  Rx         0387  8  00 00 00 00 00 07 07 00 
    42)       108.8  Rx         0365  2  00 00 
    43)       118.7  Rx         0365  2  00 00 
    44)       119.0  Rx         0450  6  FF 1B 00 00 00 00 
    45)       119.2  Rx         0471  6  04 50 10 00 00 00 
    46)       126.1  Rx         0386  8  00 40 00 00 00 40 00 80 
    47)       126.4  Rx         0387  8  00 00 00 00 00 08 08 00 
    48)       128.7  Rx         0365  2  00 00 
    49)       128.9  Rx         0436  4  00 00 00 00 
    50)       138.6  Rx         0365  2  00 00 
    51)       138.9  Rx         0450  6  FF 1B 00 00 00 00 
    52)       139.1  Rx         0471  6  04 50 10 00 00 04 
    53)       146.1  Rx         0386  8  00 80 00 00 00 40 00 80 
    54)       146.4  Rx         0387  8  00 00 00 00 00 09 09 00 
    55)       148.8  Rx         0365  2  00 00 
    56)       158.7  Rx         0365  2  00 00 
    57)       158.9  Rx         0450  6  FF 1B 00 00 00 00 
    58)       159.2  Rx         0471  6  04 50 10 00 00 08 
    59)       166.2  Rx         0386  8  00 C0 00 00 00 40 00 80 
    60)       166.4  Rx         0387  8  00 00 00 00 00 0A 0A 00 
    61)       168.7  Rx         0365  2  00 00 
    62)       178.8  Rx         0365  2  00 00 
    63)       179.0  Rx         0436  4  00 00 00 00 
    64)       179.2  Rx         0450  6  FF 1B 00 00 00 00 
    65)       179.4  Rx         0471  6  04 50 10 00 00 4C 
    66)       179.7  Rx         0520  8  00 00 00 00 00 00 00 00 
    67)       179.9  Rx         0541  8  00 41 03 00 C0 00 00 10 
    68)       180.2  Rx         0569  8  00 04 3C 00 00 00 00 00 
    69)       180.5  Rx         0578  6  10 41 00 00 FF 03 
    70)       186.2  Rx         0386  8  00 00 00 40 00 40 00 80 
    71)       186.4  Rx         0387  8  00 00 00 00 00 0B 0B 00 
    72)       188.9  Rx         0365  2  00 00 
    73)       198.7  Rx         0365  2  00 00 
    74)       199.0  Rx         0450  6  FF 1B 00 00 00 00 
    75)       199.2  Rx         0471  6  04 50 10 00 00 10 
    76)       206.1  Rx         0386  8  00 40 00 40 00 40 00 80 
    77)       206.4  Rx         0387  8  00 00 00 00 00 0C 0C 00 
    78)       208.7  Rx         0365  2  00 00 
    79)       218.7  Rx         0365  2  00 00 
    80)       218.9  Rx         0450  6  FF 1B 00 00 00 00 
    81)       219.2  Rx         0471  6  04 50 10 00 00 14 
    82)       226.1  Rx         0386  8  00 80 00 40 00 40 00 80 
    83)       226.4  Rx         0387  8  00 00 00 00 00 0D 0D 00 
    84)       228.8  Rx         0365  2  00 00 
    85)       229.0  Rx         0436  4  00 00 00 00 
    86)       238.7  Rx         0365  2  00 00 
    87)       239.0  Rx         0450  6  FF 1B 00 00 00 00 
    88)       239.2  Rx         0471  6  04 50 10 00 00 18 
    89)       246.2  Rx         0386  8  00 C0 00 40 00 40 00 80 
    90)       246.4  Rx         0387  8  00 00 00 00 00 0E 0E 00 
    91)       248.8  Rx         0365  2  00 00 
    92)       258.7  Rx         0365  2  00 00 
    93)       258.9  Rx         0450  6  FF 1B 00 00 00 00 
    94)       259.2  Rx         0471  6  04 50 10 00 00 5C 
    95)       266.2  Rx         0386  8  00 00 00 80 00 40 00 80 
    96)       266.4  Rx         0387  8  00 00 00 00 00 00 00 00 
    97)       268.9  Rx         0365  2  00 00 
    98)       278.9  Rx         0365  2  00 00 
    99)       279.1  Rx         0436  4  00 00 00 00 
   100)       279.4  Rx         0450  6  FF 1B 00 00 00 00 
   101)       279.6  Rx         0471  6  04 50 10 00 00 20 
   102)       279.8  Rx         050E  8  20 00 00 00 00 00 00 00 
   103)       280.0  Rx         0593  6  01 00 FF FF FF FF 
   104)       280.3  Rx         0520  8  00 00 00 00 00 00 00 00 
   105)       280.5  Rx         0541  8  00 41 03 00 C0 00 00 10 
   106)       280.8  Rx         0553  8  00 00 00 00 01 00 80 00 
   107)       281.1  Rx         0569  8  00 04 3C 00 00 00 00 00 
   108)       281.3  Rx         0578  6  10 41 00 00 FF 03 
   109)       281.5  Rx         05D0  8  78 8D 09 00 00 00 00 00 
   110)       281.8  Rx         05D3  8  0F 00 00 00 00 00 00 00 
   111)       286.2  Rx         0386  8  00 40 00 80 00 40 00 80 
   112)       286.4  Rx         0387  8  00 00 00 00 00 01 01 00 
   113)       288.8  Rx         0365  2  00 00 
   114)       298.7  Rx         0365  2  00 00 
   115)       298.9  Rx         0450  6  FF 1B 00 00 00 00 
   116)       299.1  Rx         0471  6  04 50 10 00 00 24 
   117)       306.2  Rx         0386  8  00 80 00 80 00 40 00 80 
   118)       306.4  Rx         0387  8  00 00 00 00 00 02 02 00 
   119)       308.8  Rx         0365  2  00 00 
   120)       318.7  Rx         0365  2  00 00 
   121)       319.0  Rx         0450  6  FF 1B 00 00 00 00 
   122)       319.2  Rx         0471  6  04 50 10 00 00 28 
   123)       326.2  Rx         0386  8  00 C0 00 80 00 40 00 80 
   124)       326.4  Rx         0387  8  00 00 00 00 00 03 03 00 
   125)       328.8  Rx         0365  2  00 00 
   126)       328.9  Rx         0436  4  00 00 00 00 
   127)       338.7  Rx         0365  2  00 00 
   128)       339.0  Rx         0450  6  FF 1B 00 00 00 00 
   129)       339.2  Rx         0471  6  04 50 10 00 00 6C 
   130)       346.2  Rx         0386  8  00 00 00 C0 00 40 00 80 
   131)       346.4  Rx         0387  8  00 00 00 00 00 04 04 00 
   132)       348.9  Rx         0365  2  00 00 
   133)       358.7  Rx         0365  2  00 00 
   134)       359.0  Rx         0450  6  FF 1B 00 00 00 00 
   135)       359.2  Rx         0471  6  04 50 10 00 00 70 
   136)       366.2  Rx         0386  8  00 40 00 C0 00 40 00 80 
   137)       366.4  Rx         0387  8  00 00 00 00 00 05 05 00 
   138)       368.8  Rx         0365  2  00 00 
   139)       378.8  Rx         0365  2  00 00 
   140)       379.1  Rx         0436  4  00 00 00 00 
   141)       379.3  Rx         0450  6  FF 1B 00 00 00 00 
   142)       379.5  Rx         0471  6  04 50 10 00 00 74 
   143)       379.8  Rx         0520  8  00 00 00 00 00 00 00 00 
   144)       380.0  Rx         0541  8  00 41 03 00 C0 00 00 10 
   145)       380.3  Rx         0569  8  00 04 3C 00 00 00 00 00 
   146)       380.6  Rx         0578  6  10 41 00 00 FF 03 
   147)       386.2  Rx         0386  8  00 80 00 C0 00 40 00 80 
   148)       386.4  Rx         0387  8  00 00 00 00 00 06 06 00 
   149)       388.9  Rx         0365  2  00 00 
   150)       398.8  Rx         0365  2  00 00 
   151)       399.0  Rx         0450  6  FF 1B 00 00 00 00 
   152)       399.3  Rx         0471  6  04 50 10 00 00 78 
   153)       406.2  Rx         0386  8  00 C0 00 C0 00 40 00 80 
   154)       406.4  Rx         0387  8  00 00 00 00 00 07 07 00 
   155)       408.8  Rx         0365  2  00 00 
   156)       418.7  Rx         0365  2  00 00 
   157)       419.0  Rx         0450  6  FF 1B 00 00 00 00 
   158)       419.2  Rx         0471  6  04 50 10 00 00 BC 
   159)       426.2  Rx         0386  8  00 00 00 00 00 40 00 80 
   160)       426.5  Rx         0387  8  00 00 00 00 00 08 08 00 
   161)       428.9  Rx         0365  2  00 00 
   162)       429.1  Rx         0436  4  00 00 00 00 
   163)       438.8  Rx         0365  2  00 00 
   164)       439.1  Rx         0450  6  FF 1B 00 00 00 00 
   165)       439.3  Rx         0471  6  04 50 10 00 00 00 
   166)       446.2  Rx         0386  8  00 40 00 00 00 40 00 80 
   167)       446.5  Rx         0387  8  00 00 00 00 00 09 09 00 
   168)       448.8  Rx         0365  2  00 00 
   169)       458.8  Rx         0365  2  00 00 
   170)       459.0  Rx         0450  6  FF 1B 00 00 00 00 
   171)       459.2  Rx         0471  6  04 50 10 00 00 04 
   172)       466.2  Rx         0386  8  00 80 00 00 00 40 00 80 
   173)       466.4  Rx         0387  8  00 00 00 00 00 0A 0A 00 
   174)       468.9  Rx         0365  2  00 00 
   175)       479.0  Rx         0365  2  00 00 
   176)       479.2  Rx         0436  4  00 00 00 00 
   177)       479.4  Rx         0450  6  FF 1B 00 00 00 00 
   178)       479.6  Rx         0471  6  04 50 10 00 00 08 
   179)       479.9  Rx         050E  8  20 00 00 00 00 00 00 00 
   180)       480.1  Rx         0593  6  01 00 FF FF FF FF 
   181)       480.4  Rx         0520  8  00 00 00 00 00 00 00 00 
   182)       480.6  Rx         0541  8  00 41 03 00 C0 00 00 10 
   183)       480.9  Rx         0553  8  00 00 00 00 01 00 80 00 
   184)       481.2  Rx         0569  8  00 04 3C 00 00 00 00 00 
   185)       481.4  Rx         0578  6  10 41 00 00 FF 03 
   186)       486.2  Rx         0386  8  00 C0 00 00 00 40 00 80 
   187)       486.5  Rx         0387  8  00 00 00 00 00 0B 0B 00 
   188)       488.8  Rx         0365  2  00 00 
   189)       498.7  Rx         0365  2  00 00 
   190)       499.0  Rx         0450  6  FF 1B 00 00 00 00 
   191)       499.2  Rx         0471  6  04 50 10 00 00 4C 
   192)       506.2  Rx         0386  8  00 00 00 40 00 40 00 80 
   193)       506.5  Rx         0387  8  00 00 00 00 00 0C 0C 00 
   194)       508.9  Rx         0365  2  00 00 
   195)       518.8  Rx         0365  2  00 00 
   196)       519.0  Rx         0450  6  FF 1B 00 00 00 00 
   197)       519.3  Rx         0471  6  04 50 10 00 00 10 
   198)       526.2  Rx         0386  8  00 40 00 40 00 40 00 80 
   199)       526.5  Rx         0387  8  00 00 00 00 00 0D 0D 00 
   200)       528.8  Rx         0365  2  00 00 
   201)       529.0  Rx         0436  4  00 00 00 00 
   202)       538.8  Rx         0365  2  00 00 
   203)       539.0  Rx         0450  6  FF 1B 00 00 00 00 
   204)       539.2  Rx         0471  6  04 50 10 00 00 14 
   205)       546.2  Rx         0386  8  00 80 00 40 00 40 00 80 
   206)       546.5  Rx         0387  8  00 00 00 00 00 0E 0E 00 
   207)       548.9  Rx         0365  2  00 00 
   208)       558.8  Rx         0365  2  00 00 
   209)       559.1  Rx         0450  6  FF 1B 00 00 00 00 
   210)       559.3  Rx         0471  6  04 50 10 00 00 18 
   211)       566.2  Rx         0386  8  00 C0 00 40 00 40 00 80 
   212)       566.5  Rx         0387  8  00 00 00 00 00 00 00 00 
   213)       568.8  Rx         0365  2  00 00 
   214)       578.9  Rx         0365  2  00 00 
   215)       579.0  Rx         0436  4  00 00 00 00 
   216)       579.3  Rx         0450  6  FF 1B 00 00 00 00 
   217)       579.5  Rx         0471  6  04 50 10 00 00 5C 
   218)       579.8  Rx         0520  8  00 00 00 00 00 00 00 00 
   219)       580.1  Rx         0541  8  00 41 03 00 C0 00 00 10 
   220)       580.3  Rx         0569  8  00 04 3C 00 00 00 00 00 
   221)       580.5  Rx         0578  6  10 41 00 00 FF 03 
   222)       586.2  Rx         0386  8  00 00 00 80 00 40 00 80 
   223)       586.5  Rx         0387  8  00 00 00 00 00 01 01 00 
   224)       588.9  Rx         0365  2  00 00 
   225)       598.8  Rx         0365  2  00 00 
   226)       599.0  Rx         0450  6  FF 1B 00 00 00 00 
   227)       599.3  Rx         0471  6  04 50 10 00 00 20 
   228)       606.2  Rx         0386  8  00 40 00 80 00 40 00 80 
   229)       606.5  Rx         0387  8  00 00 00 00 00 02 02 00 
   230)       608.8  Rx         0365  2  00 00 
   231)       618.8  Rx         0365  2  00 00 
   232)       619.0  Rx         0450  6  FF 1B 00 00 00 00 
   233)       619.2  Rx         0471  6  04 50 10 00 00 24 
   234)       626.2  Rx         0386  8  00 80 00 80 00 40 00 80 
   235)       626.5  Rx         0387  8  00 00 00 00 00 03 03 00 
   236)       629.0  Rx         0365  2  00 00 
   237)       629.1  Rx         0436  4  00 00 00 00 
   238)       638.9  Rx         0365  2  00 00 
   239)       639.1  Rx         0450  6  FF 1B 00 00 00 00 
   240)       639.3  Rx         0471  6  04 50 10 00 00 28 
   241)       646.2  Rx         0386  8  00 C0 00 80 00 40 00 80 
   242)       646.5  Rx         0387  8  00 00 00 00 00 04 04 00 
   243)       648.8  Rx         0365  2  00 00 
   244)       658.8  Rx         0365  2  00 00 
   245)       659.0  Rx         0450  6  FF 1B 00 00 00 00 
   246)       659.3  Rx         0471  6  04 50 10 00 00 6C 
   247)       666.2  Rx         0386  8  00 00 00 C0 00 40 00 80 
   248)       666.5  Rx         0387  8  00 00 00 00 00 05 05 00 
   249)       668.9  Rx         0365  2  00 00 
   250)       679.0  Rx         0365  2  00 00 
   251)       679.3  Rx         0436  4  00 00 00 00 
   252)       679.5  Rx         0450  6  FF 1B 00 00 00 00 
   253)       679.7  Rx         0471  6  04 50 10 00 00 70 
   254)       679.9  Rx         050E  8  20 00 00 00 00 00 00 00 
   255)       680.2  Rx         0593  6  01 00 FF FF FF FF 
   256)       680.4  Rx         0520  8  00 00 00 00 00 00 00 00 
   257)       680.7  Rx         0541  8  00 41 03 00 C0 00 00 10 
   258)       680.9  Rx         0553  8  00 00 00 00 01 00 80 00 
   259)       681.2  Rx         0569  8  00 04 3C 00 00 00 00 00 
   260)       681.4  Rx         0578  6  10 41 00 00 FF 03 
   261)       686.3  Rx         0386  8  00 40 00 C0 00 40 00 80 
   262)       686.5  Rx         0387  8  00 00 00 00 00 06 06 00 
   263)       688.9  Rx         0365  2  00 00 
   264)       698.8  Rx         0365  2  00 00 
   265)       699.0  Rx         0450  6  FF 1B 00 00 00 00 
   266)       699.3  Rx         0471  6  04 50 10 00 00 74 
   267)       706.2  Rx         0386  8  00 80 00 C0 00 40 00 80 
   268)       706.5  Rx         0387  8  00 00 00 00 00 07 07 00 
   269)       709.0  Rx         0365  2  00 00 
   270)       718.8  Rx         0365  2  00 00 
   271)       719.1  Rx         0450  6  FF 1B 00 00 00 00 
   272)       719.3  Rx         0471  6  04 50 10 00 00 78 
   273)       726.2  Rx         0386  8  00 C0 00 C0 00 40 00 80 
   274)       726.5  Rx         0387  8  00 00 00 00 00 08 08 00 
   275)       728.8  Rx         0365  2  00 00 
   276)       729.1  Rx         0436  4  00 00 00 00 
   277)       738.8  Rx         0365  2  00 00 
   278)       739.0  Rx         0450  6  FF 1B 00 00 00 00 
   279)       739.2  Rx         0471  6  04 50 10 00 00 BC 
   280)       746.2  Rx         0386  8  00 00 00 00 00 40 00 80 
   281)       746.5  Rx         0387  8  00 00 00 00 00 09 09 00 
   282)       748.9  Rx         0365  2  00 00 
   283)       758.8  Rx         0365  2  00 00 
   284)       759.1  Rx         0450  6  FF 1B 00 00 00 00 
   285)       759.3  Rx         0471  6  04 50 10 00 00 00 
   286)       766.3  Rx         0386  8  00 40 00 00 00 40 00 80 
   287)       766.5  Rx         0387  8  00 00 00 00 00 0A 0A 00 
   288)       768.9  Rx         0365  2  00 00 
   289)       778.9  Rx         0365  2  00 00 
   290)       779.1  Rx         0436  4  00 00 00 00 
   291)       779.3  Rx         0450  6  FF 1B 00 00 00 00 
   292)       779.5  Rx         0471  6  04 50 10 00 00 04 
   293)       779.8  Rx         0520  8  00 00 00 00 00 00 00 00 
   294)       780.1  Rx         0541  8  00 41 03 00 C0 00 00 10 
   295)       780.3  Rx         0569  8  00 04 3C 00 00 00 00 00 
   296)       780.5  Rx         0578  6  10 41 00 00 FF 03 
   297)       786.3  Rx         0386  8  00 80 00 00 00 40 00 80 
   298)       786.5  Rx         0387  8  00 00 00 00 00 0B 0B 00 
   299)       789.0  Rx         0365  2  00 00 
   300)       798.9  Rx         0365  2  00 00 
   301)       799.1  Rx         0450  6  FF 1B 00 00 00 00 
   302)       799.3  Rx         0471  6  04 50 10 00 00 08 
   303)       806.3  Rx         0386  8  00 C0 00 00 00 40 00 80 
   304)       806.5  Rx         0387  8  00 00 00 00 00 0C 0C 00 
   305)       808.8  Rx         0365  2  00 00 
   306)       818.8  Rx         0365  2  00 00 
   307)       819.1  Rx         0450  6  FF 1B 00 00 00 00 
   308)       819.3  Rx         0471  6  04 50 10 00 00 4C 
   309)       826.2  Rx         0386  8  00 00 00 40 00 40 00 80 
   310)       826.5  Rx         0387  8  00 00 00 00 00 0D 0D 00 
   311)       829.0  Rx         0365  2  00 00 
   312)       829.2  Rx         0436  4  00 00 00 00 
   313)       838.9  Rx         0365  2  00 00 
   314)       839.1  Rx         0450  6  FF 1B 00 00 00 00 
   315)       839.3  Rx         0471  6  04 50 10 00 00 10 
   316)       846.3  Rx         0386  8  00 40 00 40 00 40 00 80 
   317)       846.5  Rx         0387  8  00 00 00 00 00 0E 0E 00 
   318)       848.9  Rx         0365  2  00 00 
   319)       858.8  Rx         0365  2  00 00 
   320)       859.1  Rx         0450  6  FF 1B 00 00 00 00 
   321)       859.3  Rx         0471  6  04 50 10 00 00 14 
   322)       866.3  Rx         0386  8  00 80 00 40 00 40 00 80 
   323)       866.5  Rx         0387  8  00 00 00 00 00 00 00 00 
   324)       869.0  Rx         0365  2  00 00 
   325)       879.0  Rx         0365  2  00 00 
   326)       879.2  Rx         0436  4  00 00 00 00 
   327)       879.4  Rx         0450  6  FF 1B 00 00 00 00 
   328)       879.7  Rx         0471  6  04 50 10 00 00 18 
   329)       880.0  Rx         050E  8  20 00 00 00 00 00 00 00 
   330)       880.2  Rx         0593  6  01 00 FF FF FF FF 
   331)       880.4  Rx         0520  8  00 00 00 00 00 00 00 00 
   332)       880.7  Rx         0541  8  00 41 03 00 C0 00 00 10 
   333)       880.9  Rx         0553  8  00 00 00 00 01 00 80 00 
   334)       881.2  Rx         0569  8  00 04 3C 00 00 00 00 00 
   335)       881.5  Rx         0578  6  10 41 00 00 FF 03 
   336)       886.3  Rx         0386  8  00 C0 00 40 00 40 00 80 
   337)       886.5  Rx         0387  8  00 00 00 00 00 01 01 00 
   338)       888.9  Rx         0365  2  00 00 
   339)       898.8  Rx         0365  2  00 00 
   340)       899.1  Rx         0450  6  FF 1B 00 00 00 00 
   341)       899.3  Rx         0471  6  04 50 10 00 00 5C 
   342)       906.3  Rx         0386  8  00 00 00 80 00 40 00 80 
   343)       906.5  Rx         0387  8  00 00 00 00 00 02 02 00 
   344)       909.0  Rx         0365  2  00 00 
   345)       918.9  Rx         0365  2  00 00 
   346)       919.1  Rx         0450  6  FF 1B 00 00 00 00 
   347)       919.3  Rx         0471  6  04 50 10 00 00 20 
   348)       926.3  Rx         0386  8  00 40 00 80 00 40 00 80 
   349)       926.5  Rx         0387  8  00 00 00 00 00 03 03 00 
   350)       928.9  Rx         0365  2  00 00 
   351)       929.1  Rx         0436  4  00 00 00 00 
   352)       938.8  Rx         0365  2  00 00 
   353)       939.1  Rx         0450  6  FF 1B 00 00 00 00 
   354)       939.3  Rx         0471  6  04 50 10 00 00 24 
   355)       946.3  Rx         0386  8  00 80 00 80 00 40 00 80 
   356)       946.5  Rx         0387  8  00 00 00 00 00 04 04 00 
   357)       949.0  Rx         0365  2  00 00 
   358)       958.9  Rx         0365  2  00 00 
   359)       959.1  Rx         0450  6  FF 1B 00 00 00 00 
   360)       959.4  Rx         0471  6  04 50 10 00 00 28 
   361)       966.3  Rx         0386  8  00 C0 00 80 00 40 00 80 
   362)       966.5  Rx         0387  8  00 00 00 00 00 05 05 00 
   363)       968.9  Rx         0365  2  00 00 
   364)       978.9  Rx         0365  2  00 00 
   365)       979.1  Rx         0436  4  00 00 00 00 
   366)       979.3  Rx         0450  6  FF 1B 00 00 00 00 
   367)       979.6  Rx         0471  6  04 50 10 00 00 6C 
   368)       979.9  Rx         0520  8  00 00 00 00 00 00 00 00 
   369)       980.1  Rx         0541  8  00 41 03 00 C0 00 00 10 
   370)       980.4  Rx         0569  8  00 04 3C 00 00 00 00 00 
   371)       980.6  Rx         0578  6  10 41 00 00 FF 03 
   372)       986.3  Rx         0386  8  00 00 00 C0 00 40 00 80 
   373)       986.5  Rx         0387  8  00 00 00 00 00 06 06 00 
   374)       989.0  Rx         0365  2  00 00 
   375)       998.9  Rx         0365  2  00 00 
   376)       999.1  Rx         0450  6  FF 1B 00 00 00 00 
   377)       999.4  Rx         0471  6  04 50 10 00 00 70 
   378)      1006.3  Rx         0386  8  00 40 00 C0 00 40 00 80 
   379)      1006.5  Rx         0387  8  00 00 00 00 00 07 07 00 
   380)      1008.9  Rx         0365  2  00 00 
   381)      1018.9  Rx         0365  2  00 00 
   382)      1019.1  Rx         0450  6  FF 1B 00 00 00 00 
   383)      1019.3  Rx         0471  6  04 50 10 00 00 74 
   384)      1026.3  Rx         0386  8  00 80 00 C0 00 40 00 80 
   385)      1026.5  Rx         0387  8  00 00 00 00 00 08 08 00 
   386)      1029.0  Rx         0365  2  00 00 
   387)      1029.2  Rx         0436  4  00 00 00 00 
   388)      1038.9  Rx         0365  2  00 00 
   389)      1039.1  Rx         0450  6  FF 1B 00 00 00 00 
   390)      1039.4  Rx         0471  6  04 50 10 00 00 78 
   391)      1046.3  Rx         0386  8  00 C0 00 C0 00 40 00 80 
   392)      1046.5  Rx         0387  8  00 00 00 00 00 09 09 00 
   393)      1048.9  Rx         0365  2  00 00 
   394)      1058.9  Rx         0365  2  00 00 
   395)      1059.1  Rx         0450  6  FF 1B 00 00 00 00 
   396)      1059.3  Rx         0471  6  04 50 10 00 00 BC 
   397)      1066.3  Rx         0386  8  00 00 00 00 00 40 00 80 
   398)      1066.5  Rx         0387  8  00 00 00 00 00 0A 0A 00 
   399)      1069.0  Rx         0365  2  00 00 
   400)      1079.1  Rx         0365  2  00 00 
   401)      1079.3  Rx         0436  4  00 00 00 00 
   402)      1079.5  Rx         0450  6  FF 1B 00 00 00 00 
   403)      1079.7  Rx         0471  6  04 50 10 00 00 00 
   404)      1080.0  Rx         050E  8  20 00 00 00 00 00 00 00 
   405)      1080.2  Rx         0593  6  01 00 FF FF FF FF 
   406)      1080.4  Rx         0520  8  00 00 00 00 00 00 00 00 
   407)      1080.7  Rx         0541  8  00 41 03 00 C0 00 00 10 
   408)      1081.0  Rx         0553  8  00 00 00 00 01 00 80 00 
   409)      1081.3  Rx         0569  8  00 04 3C 00 00 00 00 00 
   410)      1081.5  Rx         0578  6  10 41 00 00 FF 03 
   411)      1086.3  Rx         0386  8  00 40 00 00 00 40 00 80 
   412)      1086.6  Rx         0387  8  00 00 00 00 00 0B 0B 00 
   413)      1089.0  Rx         0365  2  00 00 
   414)      1098.8  Rx         0365  2  00 00 
   415)      1099.1  Rx         0450  6  FF 1B 00 00 00 00 
   416)      1099.3  Rx         0471  6  04 50 10 00 00 04 
   417)      1106.3  Rx         0386  8  00 80 00 00 00 40 00 80 
