;$FILEVERSION=1.1
;$STARTTIME=45617.6630215162
;
;   Start time: 11/21/2024 15:54:45.059.0
;   Generated by PCAN-View v4.3.4.615
;
;   Message Number
;   |         Time Offset (ms)
;   |         |        Type
;   |         |        |        ID (hex)
;   |         |        |        |     Data Length
;   |         |        |        |     |   Data Bytes (hex) ...
;   |         |        |        |     |   |
;---+--   ----+----  --+--  ----+---  +  -+ -- -- -- -- -- -- --
     2)         0.1  Rx         04B0  8  4D 00 80 00 50 00 00 FA 
     3)         3.2  Rx         0326  8  01 90 02 85 01 90 00 00 
     4)         3.6  Rx         0041  8  00 00 00 00 00 00 00 00 
     5)         4.3  Rx         072E  8  07 62 C2 44 24 70 E7 B3 
     6)         8.1  Rx         0217  8  00 00 00 00 00 00 00 00 
     7)        13.6  Rx         0084  8  18 00 01 46 36 25 0F 00 
     8)        15.8  Rx         0726  8  03 22 C2 45 00 00 00 00 
     9)        18.1  Rx         0076  8  3E 80 40 00 00 00 00 00 
    10)        18.3  Rx         0077  8  00 00 0F FE 7F FF FB FE 
    11)        18.6  Rx         007D  8  00 00 F9 60 00 3F EF FE 
    12)        18.8  Rx         0213  8  FF FF 00 00 80 11 FF 41 
    13)        19.3  Rx         0216  8  00 00 00 00 AA 00 00 00 
    14)        19.6  Rx         0217  8  00 00 00 00 00 00 00 00 
    15)        19.8  Rx         0415  8  00 00 C4 FB 0F FE 0F FE 
    16)        20.0  Rx         04B0  8  4D 00 80 00 60 00 00 F9 
    17)        23.8  Rx         0041  8  00 00 00 00 00 00 00 00 
    18)        24.5  Rx         072E  8  07 62 C2 45 00 00 00 00 
    19)        28.1  Rx         0217  8  00 00 00 00 00 00 00 00 
    20)        33.6  Rx         0242  8  03 C7 1F EB C6 00 03 00 
    21)        35.8  Rx         0726  8  03 22 C2 46 00 00 00 00 
    22)        38.1  Rx         0076  8  3E 80 40 00 00 00 00 00 
    23)        38.3  Rx         0077  8  00 00 0F FE 7F FF FB FE 
    24)        38.6  Rx         007D  8  00 00 F8 70 00 3F EF FE 
    25)        38.8  Rx         0213  8  FF FF 00 00 80 11 FF 41 
    26)        39.3  Rx         0216  8  00 00 00 00 AA 00 00 00 
    27)        39.6  Rx         0217  8  00 00 00 00 00 00 00 00 
    28)        39.8  Rx         0415  8  00 00 C8 FA 0F FE 0F FE 
    29)        40.0  Rx         04B0  8  4D 00 80 00 70 00 00 F8 
    30)        43.7  Rx         0041  8  00 00 00 00 00 00 00 00 
    31)        44.0  Rx         042C  8  84 00 00 00 38 B0 00 00 
    32)        44.4  Rx         072E  8  07 62 C2 46 00 00 00 00 
    33)        48.1  Rx         0217  8  00 00 00 00 00 00 00 00 
    34)        49.1  Rx         0083  8  0F E0 80 00 00 00 00 00 
    35)        55.8  Rx         0726  8  03 22 C2 53 00 00 00 00 
    36)        58.1  Rx         0076  8  3E 80 40 00 00 00 00 00 
    37)        58.3  Rx         0077  8  00 00 0F FE 7F FF FB FE 
    38)        58.5  Rx         007D  8  00 00 F7 80 00 3F EF FE 
    39)        58.8  Rx         0213  8  FF FF 00 00 80 11 FF 41 
    40)        59.3  Rx         0216  8  00 00 00 00 AA 00 00 00 
    41)        59.5  Rx         0217  8  00 00 00 00 00 00 00 00 
    42)        59.8  Rx         0415  8  00 00 CC F9 0F FE 0F FE 
    43)        60.0  Rx         0416  8  63 20 FB 08 01 02 40 00 
    44)        60.3  Rx         04B0  8  4D 00 80 00 80 00 00 F7 
    45)        63.7  Rx         0041  8  00 00 00 00 00 00 00 00 
    46)        64.3  Rx         072E  8  07 62 C2 53 00 00 00 00 
    47)        66.5  Rx         0430  8  00 00 82 08 64 01 00 00 
    48)        66.8  Rx         0434  8  26 5B 10 09 0F FF 02 00 
    49)        67.0  Rx         0435  8  28 20 10 11 4E 00 00 00 
    50)        68.1  Rx         0217  8  00 00 00 00 00 00 00 00 
    51)        72.3  Rx         0455  8  00 00 00 00 00 00 00 00 
    52)        73.7  Rx         0242  8  03 C7 1F EB C6 00 03 00 
    53)        75.7  Rx         0726  8  03 22 C2 54 00 00 00 00 
    54)        78.1  Rx         0076  8  3E 80 40 00 00 00 00 00 
    55)        78.3  Rx         0077  8  00 00 0F FE 7F FF FB FE 
    56)        78.6  Rx         007D  8  00 00 F6 90 00 3F EF FE 
    57)        78.8  Rx         0213  8  FF FF 00 00 80 11 FF 41 
    58)        79.3  Rx         0216  8  00 00 00 00 AA 00 00 00 
    59)        79.5  Rx         0217  8  00 00 00 00 00 00 00 00 
    60)        79.8  Rx         0415  8  00 00 D0 F8 0F FE 0F FE 
    61)        80.0  Rx         04B0  8  4D 00 80 00 90 00 00 F6 
    62)        83.8  Rx         0041  8  00 00 00 00 00 00 00 00 
    63)        84.5  Rx         072E  8  07 62 C2 54 00 00 00 00 
    64)        88.1  Rx         0217  8  00 00 00 00 00 00 00 00 
    65)        93.7  Rx         03B6  8  08 00 09 00 00 00 00 00 
    66)        93.9  Rx         03B7  8  00 00 03 00 63 B9 58 92 
    67)        94.1  Rx         03B8  8  FF FF FF FF 00 00 00 00 
    68)        94.4  Rx         042C  8  84 00 00 00 38 B0 00 00 
    69)        95.8  Rx         0726  8  03 22 C2 55 00 00 00 00 
    70)        98.1  Rx         0076  8  3E 80 40 00 00 00 00 00 
    71)        98.3  Rx         0077  8  00 00 0F FE 7F FF FB FE 
    72)        98.6  Rx         007D  8  00 00 F5 A0 00 3F EF FE 
    73)        98.8  Rx         0213  8  FF FF 00 00 80 11 FF 41 
    74)        99.3  Rx         0216  8  00 00 00 00 AA 00 00 00 
    75)        99.5  Rx         0217  8  00 00 00 00 00 00 00 00 
    76)        99.8  Rx         0415  8  00 00 D4 F7 0F FE 0F FE 
    77)       100.0  Rx         04B0  8  4D 00 80 00 A0 00 00 F5 
    78)       103.6  Rx         0041  8  00 00 00 00 00 00 00 00 
    79)       104.3  Rx         072E  8  07 62 C2 55 00 00 00 00 
    80)       105.1  Rx         0326  8  01 90 02 85 01 90 00 00 
    81)       108.0  Rx         035E  8  00 00 00 00 00 00 00 00 
    82)       108.3  Rx         0217  8  00 00 00 00 00 00 00 00 
    83)       113.8  Rx         0242  8  03 C7 1F EB C6 00 03 00 
    84)       115.8  Rx         0726  8  03 22 C2 58 00 00 00 00 
    85)       118.1  Rx         0076  8  3E 80 40 00 00 00 00 00 
    86)       118.3  Rx         0077  8  00 00 0F FE 7F FF FB FE 
    87)       118.5  Rx         007D  8  00 00 F4 B0 00 3F EF FE 
    88)       118.8  Rx         0213  8  FF FF 00 00 80 11 FF 41 
    89)       119.3  Rx         0216  8  00 00 00 00 AA 00 00 00 
    90)       119.5  Rx         0217  8  00 00 00 00 00 00 00 00 
    91)       119.8  Rx         0415  8  00 00 D8 F6 0F FE 0F FE 
    92)       120.0  Rx         04B0  8  4D 00 80 00 B0 00 00 F4 
    93)       123.7  Rx         0041  8  00 00 00 00 00 00 00 00 
    94)       124.4  Rx         072E  8  07 62 C2 58 80 00 00 00 
    95)       128.1  Rx         0217  8  00 00 00 00 00 00 00 00 
    96)       134.8  Rx         0726  8  03 22 40 B6 00 00 00 00 
    97)       138.0  Rx         0076  8  3E 80 40 00 00 00 00 00 
    98)       138.3  Rx         0077  8  00 00 0F FE 7F FF FB FE 
    99)       138.5  Rx         007D  8  00 00 F3 C0 00 3F EF FE 
   100)       138.8  Rx         0213  8  FF FF 00 00 80 11 FF 41 
   101)       139.3  Rx         0216  8  00 00 00 00 AA 00 00 00 
   102)       139.5  Rx         0217  8  00 00 00 00 00 00 00 00 
   103)       139.7  Rx         0415  8  00 00 DC F5 0F FE 0F FE 
   104)       140.0  Rx         04B0  8  4D 00 80 00 C0 00 00 F3 
   105)       143.8  Rx         0041  8  00 00 00 00 00 00 00 00 
   106)       144.0  Rx         042C  8  84 00 00 00 38 B0 00 00 
   107)       144.4  Rx         072E  8  04 62 40 B6 02 00 00 00 
   108)       148.1  Rx         0217  8  00 00 00 00 00 00 00 00 
   109)       149.0  Rx         0083  8  0F E0 80 00 00 00 00 00 
   110)       152.9  Rx         0581  8  81 00 FF FF FF FF FF FF 
   111)       153.6  Rx         0242  8  03 C7 1F EB C6 00 03 00 
   112)       153.9  Rx         03B5  8  00 EE 00 EE 00 F3 00 F3 
   113)       155.7  Rx         0726  8  03 22 40 B7 00 00 00 00 
   114)       158.0  Rx         0076  8  3E 80 40 00 00 00 00 00 
   115)       158.3  Rx         0077  8  00 00 0F FE 7F FF FB FE 
   116)       158.6  Rx         007D  8  00 00 F2 D0 00 3F EF FE 
   117)       158.8  Rx         0213  8  FF FF 00 00 80 11 FF 41 
   118)       159.2  Rx         0216  8  00 00 00 00 AA 00 00 00 
   119)       159.5  Rx         0217  8  00 00 00 00 00 00 00 00 
   120)       159.8  Rx         0415  8  00 00 E0 F4 0F FE 0F FE 
   121)       160.0  Rx         0416  8  64 20 FA 08 01 02 40 00 
   122)       160.3  Rx         04B0  8  4D 00 80 00 D0 00 00 F2 
   123)       163.6  Rx         0041  8  00 00 00 00 00 00 00 00 
   124)       164.3  Rx         072E  8  04 62 40 B7 02 00 00 00 
   125)       166.5  Rx         0430  8  04 00 82 08 64 01 04 00 
   126)       166.7  Rx         0434  8  26 5B 10 09 0F FF 02 00 
   127)       167.0  Rx         0435  8  28 20 10 11 4E 00 00 00 
   128)       168.1  Rx         0217  8  00 00 00 00 00 00 00 00 
   129)       172.3  Rx         0455  8  00 00 00 00 00 00 00 00 
   130)       175.7  Rx         0726  8  03 22 C1 9E 00 00 00 00 
   131)       178.1  Rx         0076  8  3E 80 40 00 00 00 00 00 
   132)       178.3  Rx         0077  8  00 00 0F FE 7F FF FB FE 
   133)       178.5  Rx         007D  8  00 00 F1 E0 00 3F EF FE 
   134)       178.8  Rx         0213  8  FF FF 00 00 80 11 FF 41 
   135)       179.2  Rx         0216  8  00 00 00 00 AA 00 00 00 
   136)       179.5  Rx         0217  8  00 00 00 00 00 00 00 00 
   137)       179.8  Rx         0415  8  00 00 E4 F3 0F FE 0F FE 
   138)       180.0  Rx         04B0  8  4D 00 80 00 E0 00 00 F1 
   139)       183.6  Rx         0041  8  00 00 00 00 00 00 00 00 
   140)       184.2  Rx         072E  8  04 62 C1 9E 00 00 00 00 
   141)       188.0  Rx         0217  8  00 00 00 00 00 00 00 00 
   142)       193.6  Rx         0242  8  03 C7 1F EB C6 00 03 00 
   143)       193.8  Rx         03B3  8  10 40 02 00 E6 05 80 28 
   144)       194.1  Rx         040A  8  C1 02 32 34 30 33 33 FF 
   145)       194.3  Rx         042C  8  84 00 00 00 38 B0 00 00 
   146)       195.7  Rx         0726  8  03 22 C0 03 00 00 00 00 
   147)       198.1  Rx         0076  8  3E 80 40 00 00 00 00 00 
   148)       198.3  Rx         0077  8  00 00 0F FE 7F FF FB FE 
   149)       198.6  Rx         007D  8  00 00 F0 F0 00 3F EF FE 
   150)       198.8  Rx         0213  8  FF FF 00 00 80 11 FF 41 
   151)       199.3  Rx         0216  8  00 00 00 00 AA 00 00 00 
   152)       199.6  Rx         0217  8  00 00 00 00 00 00 00 00 
   153)       199.8  Rx         0415  8  00 00 E8 F2 0F FE 0F FE 
   154)       200.0  Rx         04B0  8  4D 00 80 00 F0 00 00 F0 
   155)       203.1  Rx         0326  8  01 90 02 85 01 90 00 00 
   156)       203.8  Rx         0041  8  00 00 00 00 00 00 00 00 
   157)       204.5  Rx         072E  8  04 62 C0 03 00 00 00 00 
   158)       208.0  Rx         0217  8  00 00 00 00 00 00 00 00 
   159)       215.7  Rx         0726  8  03 22 41 A9 00 00 00 00 
   160)       218.0  Rx         0076  8  3E 80 40 00 00 00 00 00 
   161)       218.3  Rx         0077  8  00 00 0F FE 7F FF FB FE 
   162)       218.5  Rx         007D  8  00 00 FF 00 00 3F EF FE 
   163)       218.8  Rx         0213  8  FF FF 00 00 80 11 FF 41 
   164)       219.2  Rx         0216  8  00 00 00 00 AA 00 00 00 
   165)       219.5  Rx         0217  8  00 00 00 00 00 00 00 00 
   166)       219.7  Rx         0415  8  00 00 EC F1 0F FE 0F FE 
   167)       220.0  Rx         04B0  8  4D 00 80 00 00 00 00 FF 
   168)       223.7  Rx         0041  8  00 00 00 00 00 00 00 00 
   169)       224.3  Rx         072E  8  07 62 41 A9 01 08 00 00 
   170)       228.1  Rx         0217  8  00 00 00 00 00 00 00 00 
   171)       233.8  Rx         0242  8  03 C7 1F EB C6 00 03 00 
   172)       235.7  Rx         0726  8  03 22 41 A9 00 00 00 00 
   173)       238.0  Rx         0076  8  3E 80 40 00 00 00 00 00 
   174)       238.3  Rx         0077  8  00 00 0F FE 7F FF FB FE 
   175)       238.6  Rx         007D  8  00 00 FE 10 00 3F EF FE 
   176)       238.8  Rx         0213  8  FF FF 00 00 80 11 FF 41 
   177)       239.2  Rx         0216  8  00 00 00 00 AA 00 00 00 
   178)       239.5  Rx         0217  8  00 00 00 00 00 00 00 00 
   179)       239.7  Rx         0415  8  00 00 F0 F0 0F FE 0F FE 
   180)       240.0  Rx         04B0  8  4D 00 80 00 10 00 00 FE 
   181)       243.6  Rx         0041  8  00 00 00 00 00 00 00 00 
   182)       243.9  Rx         042C  8  84 00 00 00 38 B0 00 00 
   183)       244.3  Rx         072E  8  07 62 41 A9 01 08 00 00 
   184)       248.0  Rx         0217  8  00 00 00 00 00 00 00 00 
   185)       248.9  Rx         0083  8  0F E0 80 00 00 00 00 00 
   186)       254.8  Rx         0726  8  03 22 41 A9 00 00 00 00 
   187)       258.0  Rx         0076  8  3E 80 40 00 00 00 00 00 
   188)       258.3  Rx         0077  8  00 00 0F FE 7F FF FB FE 
   189)       258.5  Rx         007D  8  00 00 FD 20 00 3F EF FE 
   190)       258.8  Rx         0213  8  FF FF 00 00 80 11 FF 41 
   191)       259.2  Rx         0216  8  00 00 00 00 AA 00 00 00 
   192)       259.5  Rx         0217  8  00 00 00 00 00 00 00 00 
   193)       259.7  Rx         0415  8  00 00 F4 EF 0F FE 0F FE 
   194)       260.0  Rx         0416  8  65 20 F9 08 01 02 40 00 
   195)       260.2  Rx         04B0  8  4D 00 80 00 20 00 00 FD 
   196)       263.7  Rx         0041  8  00 00 00 00 00 00 00 00 
   197)       264.4  Rx         072E  8  07 62 41 A9 01 08 00 00 
   198)       266.5  Rx         0430  8  00 00 82 08 64 01 00 00 
   199)       266.8  Rx         0434  8  26 5B 10 09 0F FF 02 00 
   200)       267.0  Rx         0435  8  28 20 10 11 4E 00 00 00 
   201)       268.0  Rx         0217  8  00 00 00 00 00 00 00 00 
   202)       272.2  Rx         0455  8  00 00 00 00 00 00 00 00 
   203)       273.6  Rx         0242  8  03 C7 1F EB C6 00 03 00 
   204)       275.7  Rx         0726  8  03 22 41 A9 00 00 00 00 
   205)       278.0  Rx         0076  8  3E 80 40 00 00 00 00 00 
   206)       278.3  Rx         0077  8  00 00 0F FE 7F FF FB FE 
   207)       278.5  Rx         007D  8  00 00 FC 30 00 3F EF FE 
   208)       278.8  Rx         0213  8  FF FF 00 00 80 11 FF 41 
   209)       279.3  Rx         0216  8  00 00 00 00 AA 00 00 00 
   210)       279.5  Rx         0217  8  00 00 00 00 00 00 00 00 
   211)       279.7  Rx         0415  8  00 00 F8 EE 0F FE 0F FE 
   212)       280.0  Rx         04B0  8  4D 00 80 00 30 00 00 FC 
   213)       283.6  Rx         0041  8  00 00 00 00 00 00 00 00 
   214)       284.3  Rx         072E  8  07 62 41 A9 01 08 00 00 
   215)       288.0  Rx         0217  8  00 00 00 00 00 00 00 00 
   216)       293.7  Rx         042C  8  84 00 00 00 38 B0 00 00 
   217)       295.7  Rx         0726  8  03 22 41 A9 00 00 00 00 
   218)       298.0  Rx         0076  8  3E 80 40 00 00 00 00 00 
   219)       298.2  Rx         0077  8  00 00 0F FE 7F FF FB FE 
   220)       298.5  Rx         007D  8  00 00 FB 40 00 3F EF FE 
   221)       298.8  Rx         0213  8  FF FF 00 00 80 11 FF 41 
   222)       299.2  Rx         0216  8  00 00 00 00 AA 00 00 00 
   223)       299.5  Rx         0217  8  00 00 00 00 00 00 00 00 
   224)       299.7  Rx         0415  8  00 00 FC ED 0F FE 0F FE 
   225)       300.0  Rx         04B0  8  4D 00 80 00 40 00 00 FB 
   226)       303.5  Rx         0041  8  00 00 00 00 00 00 00 00 
   227)       304.0  Rx         0326  8  01 90 02 85 01 90 00 00 
   228)       304.3  Rx         072E  8  07 62 41 A9 01 08 00 00 
   229)       308.0  Rx         0217  8  00 00 00 00 00 00 00 00 
   230)       313.5  Rx         0242  8  03 C7 1F EB C6 00 03 00 
   231)       315.7  Rx         0726  8  03 22 41 A9 00 00 00 00 
   232)       318.0  Rx         0076  8  3E 80 40 00 00 00 00 00 
   233)       318.3  Rx         0077  8  00 00 0F FE 7F FF FB FE 
   234)       318.5  Rx         007D  8  00 00 FA 50 00 3F EF FE 
   235)       318.8  Rx         0213  8  FF FF 00 00 80 11 FF 41 
   236)       319.2  Rx         0216  8  00 00 00 00 AA 00 00 00 
   237)       319.5  Rx         0217  8  00 00 00 00 00 00 00 00 
   238)       319.7  Rx         0415  8  00 00 C0 FC 0F FE 0F FE 
   239)       320.0  Rx         04B0  8  4D 00 80 00 50 00 00 FA 
   240)       323.7  Rx         0041  8  00 00 00 00 00 00 00 00 
   241)       324.4  Rx         072E  8  07 62 41 A9 01 08 00 00 
   242)       328.0  Rx         0217  8  00 00 00 00 00 00 00 00 
   243)       335.7  Rx         0726  8  03 22 41 A9 00 00 00 00 
   244)       338.0  Rx         0076  8  3E 80 40 00 00 00 00 00 
   245)       338.3  Rx         0077  8  00 00 0F FE 7F FF FB FE 
   246)       338.5  Rx         007D  8  00 00 F9 60 00 3F EF FE 
   247)       338.7  Rx         0213  8  FF FF 00 00 80 11 FF 41 
   248)       339.2  Rx         0216  8  00 00 00 00 AA 00 00 00 
   249)       339.5  Rx         0217  8  00 00 00 00 00 00 00 00 
   250)       339.7  Rx         0415  8  00 00 C4 FB 0F FE 0F FE 
   251)       340.0  Rx         04B0  8  4D 00 80 00 60 00 00 F9 
   252)       343.6  Rx         0041  8  00 00 00 00 00 00 00 00 
   253)       343.8  Rx         03B6  8  08 00 0A 00 00 00 00 00 
   254)       344.0  Rx         03B7  8  00 00 00 00 63 B9 59 49 
   255)       344.3  Rx         042C  8  84 00 00 00 38 B0 00 00 
   256)       344.5  Rx         072E  8  07 62 41 A9 01 08 00 00 
   257)       348.0  Rx         0217  8  00 00 00 00 00 00 00 00 
   258)       348.8  Rx         0083  8  0F E0 80 00 00 00 00 00 
   259)       353.7  Rx         0242  8  03 C7 1F EB C6 00 03 00 
   260)       355.7  Rx         0726  8  03 22 41 A9 00 00 00 00 
   261)       358.0  Rx         0076  8  3E 80 40 00 00 00 00 00 
   262)       358.2  Rx         0077  8  00 00 0F FE 7F FF FB FE 
   263)       358.5  Rx         007D  8  00 00 F8 70 00 3F EF FE 
   264)       358.7  Rx         0213  8  FF FF 00 00 80 11 FF 41 
   265)       359.2  Rx         0216  8  00 00 00 00 AA 00 00 00 
   266)       359.5  Rx         0217  8  00 00 00 00 00 00 00 00 
   267)       359.7  Rx         0415  8  00 00 C8 FA 0F FE 0F FE 
   268)       359.9  Rx         0416  8  66 20 F8 08 01 02 40 00 
   269)       360.2  Rx         04B0  8  4D 00 80 00 70 00 00 F8 
   270)       363.6  Rx         0041  8  00 00 00 00 00 00 00 00 
   271)       364.3  Rx         072E  8  07 62 41 A9 01 08 00 00 
   272)       366.5  Rx         0430  8  00 00 82 08 64 01 00 00 
   273)       366.7  Rx         0434  8  26 5B 10 09 0F FF 02 00 
   274)       367.0  Rx         0435  8  28 20 10 11 4E 00 00 00 
   275)       368.0  Rx         0217  8  00 00 00 00 00 00 00 00 
   276)       372.3  Rx         0455  8  00 00 00 00 00 00 00 00 
   277)       374.8  Rx         0726  8  03 22 41 A9 00 00 00 00 
   278)       378.0  Rx         0076  8  3E 80 40 00 00 00 00 00 
   279)       378.2  Rx         0077  8  00 00 0F FE 7F FF FB FE 
   280)       378.5  Rx         007D  8  00 00 F7 80 00 3F EF FE 
   281)       378.8  Rx         0213  8  FF FF 00 00 80 11 FF 41 
   282)       379.2  Rx         0216  8  00 00 00 00 AA 00 00 00 
   283)       379.5  Rx         0217  8  00 00 00 00 00 00 00 00 
   284)       379.7  Rx         0415  8  00 00 CC F9 0F FE 0F FE 
   285)       380.0  Rx         04B0  8  4D 00 80 00 80 00 00 F7 
   286)       383.7  Rx         0041  8  00 00 00 00 00 00 00 00 
   287)       384.4  Rx         072E  8  07 62 41 A9 01 08 00 00 
   288)       388.0  Rx         0217  8  00 00 00 00 00 00 00 00 
   289)       393.6  Rx         0242  8  03 C7 1F EB C6 00 03 00 
   290)       393.8  Rx         040A  8  C1 04 01 75 07 F9 55 C2 
   291)       394.0  Rx         042C  8  84 00 00 00 38 B0 00 00 
   292)       395.7  Rx         0726  8  03 22 41 A9 00 00 00 00 
   293)       398.0  Rx         0076  8  3E 80 40 00 00 00 00 00 
   294)       398.3  Rx         0077  8  00 00 0F FE 7F FF FB FE 
   295)       398.5  Rx         007D  8  00 00 F6 90 00 3F EF FE 
   296)       398.7  Rx         0213  8  FF FF 00 00 80 11 FF 41 
   297)       399.2  Rx         0216  8  00 00 00 00 AA 00 00 00 
   298)       399.4  Rx         0217  8  00 00 00 00 00 00 00 00 
   299)       399.7  Rx         0415  8  00 00 D0 F8 0F FE 0F FE 
   300)       400.0  Rx         04B0  8  4D 00 80 00 90 00 00 F6 
   301)       403.1  Rx         0326  8  01 90 02 85 01 90 00 00 
   302)       403.6  Rx         0041  8  00 00 00 00 00 00 00 00 
   303)       404.3  Rx         072E  8  07 62 41 A9 01 08 00 00 
   304)       408.0  Rx         0217  8  00 00 00 00 00 00 00 00 
   305)       415.7  Rx         0726  8  03 22 41 A9 00 00 00 00 
   306)       418.0  Rx         0076  8  3E 80 40 00 00 00 00 00 
   307)       418.2  Rx         0077  8  00 00 0F FE 7F FF FB FE 
   308)       418.5  Rx         007D  8  00 00 F5 A0 00 3F EF FE 
   309)       418.7  Rx         0213  8  FF FF 00 00 80 11 FF 41 
   310)       419.2  Rx         0216  8  00 00 00 00 AA 00 00 00 
   311)       419.5  Rx         0217  8  00 00 00 00 00 00 00 00 
   312)       419.7  Rx         0415  8  00 00 D4 F7 0F FE 0F FE 
   313)       419.9  Rx         04B0  8  4D 00 80 00 A0 00 00 F5 
   314)       423.6  Rx         0041  8  00 00 00 00 00 00 00 00 
   315)       424.2  Rx         072E  8  07 62 41 A9 01 08 00 00 
   316)       428.0  Rx         0217  8  00 00 00 00 00 00 00 00 
   317)       433.6  Rx         0242  8  03 C7 1F EB C6 00 03 00 
   318)       435.7  Rx         0726  8  03 22 41 A9 00 00 00 00 
   319)       438.0  Rx         0076  8  3E 80 40 00 00 00 00 00 
   320)       438.2  Rx         0077  8  00 00 0F FE 7F FF FB FE 
   321)       438.5  Rx         007D  8  00 00 F4 B0 00 3F EF FE 
   322)       438.7  Rx         0213  8  FF FF 00 00 80 11 FF 41 
   323)       439.2  Rx         0216  8  00 00 00 00 AA 00 00 00 
   324)       439.5  Rx         0217  8  00 00 00 00 00 00 00 00 
   325)       439.7  Rx         0415  8  00 00 D8 F6 0F FE 0F FE 
   326)       439.9  Rx         04B0  8  4D 00 80 00 B0 00 00 F4 
   327)       443.8  Rx         0041  8  00 00 00 00 00 00 00 00 
   328)       444.0  Rx         042C  8  84 00 00 00 38 B0 00 00 
   329)       444.5  Rx         072E  8  07 62 41 A9 01 08 00 00 
   330)       448.0  Rx         0217  8  00 00 00 00 00 00 00 00 
   331)       448.7  Rx         0083  8  0F E0 80 00 00 00 00 00 
   332)       455.7  Rx         0726  8  03 22 41 A9 00 00 00 00 
   333)       458.0  Rx         0076  8  3E 80 40 00 00 00 00 00 
   334)       458.2  Rx         0077  8  00 00 0F FE 7F FF FB FE 
   335)       458.5  Rx         007D  8  00 00 F3 C0 00 3F EF FE 
   336)       458.7  Rx         0213  8  FF FF 00 00 80 11 FF 41 
   337)       459.2  Rx         0216  8  00 00 00 00 AA 00 00 00 
   338)       459.4  Rx         0217  8  00 00 00 00 00 00 00 00 
   339)       459.7  Rx         0415  8  00 00 DC F5 0F FE 0F FE 
   340)       459.9  Rx         0416  8  67 20 F7 08 01 02 40 00 
   341)       460.2  Rx         04B0  8  4D 00 80 00 C0 00 00 F3 
   342)       463.6  Rx         0041  8  00 00 00 00 00 00 00 00 
   343)       464.2  Rx         072E  8  07 62 41 A9 01 08 00 00 
   344)       466.5  Rx         0430  8  00 00 82 08 64 01 00 00 
   345)       466.7  Rx         0434  8  26 5B 10 09 0F FF 02 00 
   346)       466.9  Rx         0435  8  28 20 10 11 4E 00 00 00 
   347)       468.0  Rx         0217  8  00 00 00 00 00 00 00 00 
   348)       472.2  Rx         0455  8  00 00 00 00 00 00 00 00 
   349)       473.7  Rx         0242  8  03 C7 1F EB C6 00 03 00 
   350)       475.7  Rx         0726  8  03 22 40 F0 00 00 00 00 
   351)       478.0  Rx         0076  8  3E 80 40 00 00 00 00 00 
   352)       478.2  Rx         0077  8  00 00 0F FE 7F FF FB FE 
   353)       478.5  Rx         007D  8  00 00 F2 D0 00 3F EF FE 
   354)       478.7  Rx         0213  8  FF FF 00 00 80 11 FF 41 
   355)       479.2  Rx         0216  8  00 00 00 00 AA 00 00 00 
   356)       479.4  Rx         0217  8  00 00 00 00 00 00 00 00 
   357)       479.7  Rx         0415  8  00 00 E0 F4 0F FE 0F FE 
   358)       480.0  Rx         04B0  8  4D 00 80 00 D0 00 00 F2 
   359)       483.5  Rx         0041  8  00 00 00 00 00 00 00 00 
   360)       484.2  Rx         072E  8  04 62 40 F0 02 00 00 00 
   361)       488.0  Rx         0217  8  00 00 00 00 00 00 00 00 
   362)       493.5  Rx         042C  8  84 00 00 00 38 B0 00 00 
   363)       495.7  Rx         0726  8  03 22 40 F4 00 00 00 00 
   364)       498.0  Rx         0076  8  3E 80 40 00 00 00 00 00 
   365)       498.2  Rx         0077  8  00 00 0F FE 7F FF FB FE 
   366)       498.5  Rx         007D  8  00 00 F1 E0 00 3F EF FE 
   367)       498.7  Rx         0213  8  FF FF 00 00 80 11 FF 41 
   368)       499.2  Rx         0216  8  00 00 00 00 AA 00 00 00 
   369)       499.4  Rx         0217  8  00 00 00 00 00 00 00 00 
   370)       499.7  Rx         0415  8  00 00 E4 F3 0F FE 0F FE 
   371)       499.9  Rx         04B0  8  4D 00 80 00 E0 00 00 F1 
   372)       503.0  Rx         0326  8  01 90 02 85 01 90 00 00 
   373)       503.8  Rx         0041  8  00 00 00 00 00 00 00 00 
   374)       504.4  Rx         072E  8  04 62 40 F4 02 00 00 00 
   375)       508.0  Rx         0217  8  00 00 00 00 00 00 00 00 
   376)       513.5  Rx         0242  8  03 C7 1F EB C6 00 03 00 
   377)       515.7  Rx         0726  8  03 22 C2 58 00 00 00 00 
   378)       518.0  Rx         0076  8  3E 80 40 00 00 00 00 00 
   379)       518.2  Rx         0077  8  00 00 0F FE 7F FF FB FE 
   380)       518.4  Rx         007D  8  00 00 F0 F0 00 3F EF FE 
   381)       518.7  Rx         0213  8  FF FF 00 00 80 11 FF 41 
   382)       519.2  Rx         0216  8  00 00 00 00 AA 00 00 00 
   383)       519.4  Rx         0217  8  00 00 00 00 00 00 00 00 
   384)       519.7  Rx         0415  8  00 00 E8 F2 0F FE 0F FE 
   385)       519.9  Rx         04B0  8  4D 00 80 00 F0 00 00 F0 
   386)       523.6  Rx         0041  8  00 00 00 00 00 00 00 00 
   387)       524.2  Rx         072E  8  07 62 C2 58 80 00 00 00 
   388)       528.0  Rx         0217  8  00 00 00 00 00 00 00 00 
   389)       535.6  Rx         0726  8  03 22 C2 58 00 00 00 00 
   390)       537.9  Rx         0076  8  3E 80 40 00 00 00 00 00 
   391)       538.2  Rx         0077  8  00 00 0F FE 7F FF FB FE 
   392)       538.5  Rx         007D  8  00 00 FF 00 00 3F EF FE 
   393)       538.7  Rx         0213  8  FF FF 00 00 80 11 FF 41 
   394)       539.2  Rx         0216  8  00 00 00 00 AA 00 00 00 
   395)       539.4  Rx         0217  8  00 00 00 00 00 00 00 00 
   396)       539.6  Rx         0415  8  00 00 EC F1 0F FE 0F FE 
   397)       539.9  Rx         04B0  8  4D 00 80 00 00 00 00 FF 
   398)       543.6  Rx         0041  8  00 00 00 00 00 00 00 00 
   399)       543.9  Rx         042C  8  84 00 00 00 38 B0 00 00 
   400)       544.3  Rx         072E  8  07 62 C2 58 80 00 00 00 
   401)       548.0  Rx         0217  8  00 00 00 00 00 00 00 00 
   402)       548.7  Rx         0083  8  0F E0 80 00 00 00 00 00 
   403)       553.5  Rx         0242  8  03 C7 1F EB C6 00 03 00 
   404)       555.6  Rx         0726  8  03 22 C2 58 00 00 00 00 
   405)       558.0  Rx         0076  8  3E 80 40 00 00 00 00 00 
   406)       558.2  Rx         0077  8  00 00 0F FE 7F FF FB FE 
   407)       558.4  Rx         007D  8  00 00 FE 10 00 3F EF FE 
   408)       558.7  Rx         0213  8  FF FF 00 00 80 11 FF 41 
   409)       559.1  Rx         0216  8  00 00 00 00 AA 00 00 00 
   410)       559.4  Rx         0217  8  00 00 00 00 00 00 00 00 
   411)       559.7  Rx         0415  8  00 00 F0 F0 0F FE 0F FE 
   412)       559.9  Rx         0416  8  68 20 F6 08 01 02 40 00 
   413)       560.1  Rx         04B0  8  4D 00 80 00 10 00 00 FE 
   414)       563.7  Rx         0041  8  00 00 00 00 00 00 00 00 
   415)       564.4  Rx         072E  8  07 62 C2 58 80 00 00 00 
   416)       566.4  Rx         0430  8  00 00 82 08 64 01 00 00 
   417)       566.7  Rx         0434  8  26 5B 10 09 0F FF 02 00 
   418)       567.0  Rx         0435  8  28 20 10 11 4E 00 00 00 
   419)       568.0  Rx         0217  8  00 00 00 00 00 00 00 00 
   420)       572.2  Rx         0455  8  00 00 00 00 00 00 00 00 
   421)       575.7  Rx         0726  8  03 22 C2 58 00 00 00 00 
   422)       578.0  Rx         0076  8  3E 80 40 00 00 00 00 00 
   423)       578.2  Rx         0077  8  00 00 0F FE 7F FF FB FE 
   424)       578.5  Rx         007D  8  00 00 FD 20 00 3F EF FE 
   425)       578.7  Rx         0213  8  FF FF 00 00 80 11 FF 41 
   426)       579.2  Rx         0216  8  00 00 00 00 AA 00 00 00 
   427)       579.4  Rx         0217  8  00 00 00 00 00 00 00 00 
   428)       579.7  Rx         0415  8  00 00 F4 EF 0F FE 0F FE 
   429)       579.9  Rx         04B0  8  4D 00 80 00 20 00 00 FD 
   430)       583.6  Rx         0041  8  00 00 00 00 00 00 00 00 
   431)       584.2  Rx         072E  8  07 62 C2 58 80 00 00 00 
   432)       587.9  Rx         0217  8  00 00 00 00 00 00 00 00 
   433)       593.6  Rx         0242  8  03 C7 1F EB C6 00 03 00 
   434)       593.9  Rx         038D  8  20 00 00 00 00 00 00 00 
   435)       594.1  Rx         03B6  8  08 00 0B 00 00 00 00 00 
   436)       594.3  Rx         03B7  8  00 00 01 00 63 B9 61 9D 
   437)       594.6  Rx         03B8  8  FF FF FF FF 00 00 00 00 
   438)       594.9  Rx         03E3  8  00 01 04 11 80 01 00 00 
   439)       595.1  Rx         03EB  8  01 04 14 00 00 10 00 00 
   440)       595.3  Rx         040A  8  C1 10 40 88 20 24 80 00 
   441)       595.6  Rx         042C  8  84 00 00 00 38 B0 00 00 
   442)       595.8  Rx         043C  8  31 78 44 44 2B D9 88 14 
   443)       596.1  Rx         0447  8  21 00 00 4B 02 00 00 00 
   444)       596.3  Rx         0726  8  03 22 C2 58 00 00 00 00 
   445)       598.0  Rx         0076  8  3E 80 40 00 00 00 00 00 
   446)       598.2  Rx         0077  8  00 00 0F FE 7F FF FB FE 
   447)       598.4  Rx         007D  8  00 00 FC 30 00 3F EF FE 
   448)       598.7  Rx         0213  8  FF FF 00 00 80 11 FF 41 
   449)       599.2  Rx         0216  8  00 00 00 00 AA 00 00 00 
   450)       599.4  Rx         0217  8  00 00 00 00 00 00 00 00 
   451)       599.7  Rx         0415  8  00 00 F8 EE 0F FE 0F FE 
   452)       599.9  Rx         04B0  8  4D 00 80 00 30 00 00 FC 
   453)       602.9  Rx         0326  8  01 90 02 85 01 90 00 00 
   454)       603.6  Rx         0041  8  00 00 00 00 00 00 00 00 
   455)       604.3  Rx         072E  8  07 62 C2 58 80 00 00 00 
   456)       608.0  Rx         0217  8  00 00 00 00 00 00 00 00 
   457)       615.7  Rx         0726  8  03 22 C2 58 00 00 00 00 
   458)       617.9  Rx         0076  8  3E 80 40 00 00 00 00 00 
   459)       618.2  Rx         0077  8  00 00 0F FE 7F FF FB FE 
   460)       618.4  Rx         007D  8  00 00 FB 40 00 3F EF FE 
   461)       618.7  Rx         0213  8  FF FF 00 00 80 11 FF 41 
   462)       619.1  Rx         0216  8  00 00 00 00 AA 00 00 00 
   463)       619.4  Rx         0217  8  00 00 00 00 00 00 00 00 
   464)       619.6  Rx         0415  8  00 00 FC ED 0F FE 0F FE 
   465)       619.9  Rx         04B0  8  4D 00 80 00 40 00 00 FB 
   466)       623.7  Rx         0041  8  00 00 00 00 00 00 00 00 
   467)       624.3  Rx         072E  8  07 62 C2 58 80 00 00 00 
   468)       628.0  Rx         0217  8  00 00 00 00 00 00 00 00 
   469)       633.4  Rx         0242  8  03 C7 1F EB C6 00 03 00 
   470)       635.6  Rx         0726  8  03 22 C2 58 00 00 00 00 
   471)       638.0  Rx         0076  8  3E 80 40 00 00 00 00 00 
   472)       638.2  Rx         0077  8  00 00 0F FE 7F FF FB FE 
   473)       638.4  Rx         007D  8  00 00 FA 50 00 3F EF FE 
   474)       638.7  Rx         0213  8  FF FF 00 00 80 11 FF 41 
   475)       639.1  Rx         0216  8  00 00 00 00 AA 00 00 00 
   476)       639.4  Rx         0217  8  00 00 00 00 00 00 00 00 
   477)       639.7  Rx         0415  8  00 00 C0 FC 0F FE 0F FE 
   478)       639.9  Rx         04B0  8  4D 00 80 00 50 00 00 FA 
   479)       643.6  Rx         0041  8  00 00 00 00 00 00 00 00 
   480)       643.9  Rx         03B4  8  40 11 11 FF 20 20 00 00 
   481)       644.1  Rx         042C  8  84 00 00 00 38 B0 00 00 
   482)       644.4  Rx         072E  8  07 62 C2 58 80 00 00 00 
   483)       647.9  Rx         0217  8  00 00 00 00 00 00 00 00 
   484)       648.6  Rx         0083  8  0F E0 80 00 00 00 00 00 
   485)       653.7  Rx         03B5  8  00 EE 00 EE 00 F3 00 F3 
   486)       655.7  Rx         0726  8  03 22 C2 58 00 00 00 00 
   487)       657.9  Rx         0076  8  3E 80 40 00 00 00 00 00 
   488)       658.2  Rx         0077  8  00 00 0F FE 7F FF FB FE 
   489)       658.4  Rx         007D  8  00 00 F9 60 00 3F EF FE 
   490)       658.7  Rx         0213  8  FF FF 00 00 80 11 FF 41 
   491)       659.2  Rx         0216  8  00 00 00 00 AA 00 00 00 
   492)       659.4  Rx         0217  8  00 00 00 00 00 00 00 00 
   493)       659.6  Rx         0415  8  00 00 C4 FB 0F FE 0F FE 
   494)       659.9  Rx         0416  8  69 20 F5 08 01 02 40 00 
   495)       660.1  Rx         04B0  8  4D 00 80 00 60 00 00 F9 
   496)       663.5  Rx         0041  8  00 00 00 00 00 00 00 00 
   497)       664.2  Rx         072E  8  07 62 C2 58 80 00 00 00 
   498)       666.4  Rx         0430  8  00 00 82 08 64 01 00 00 
   499)       666.7  Rx         0434  8  26 5B 10 09 0F FF 02 00 
   500)       666.9  Rx         0435  8  28 20 10 11 4E 00 00 00 
   501)       667.9  Rx         0217  8  00 00 00 00 00 00 00 00 
   502)       672.2  Rx         03E2  8  00 00 00 00 80 00 00 00 
   503)       672.4  Rx         03EA  8  00 00 00 00 00 00 60 00 
   504)       672.7  Rx         0455  8  00 00 00 00 00 00 00 00 
   505)       673.5  Rx         0242  8  03 C7 1F EB C6 00 03 00 
   506)       673.8  Rx         03C7  8  00 00 08 06 00 00 00 00 
   507)       675.6  Rx         0726  8  03 22 C2 58 00 00 00 00 
   508)       677.9  Rx         0076  8  3E 80 40 00 00 00 00 00 
   509)       678.1  Rx         0077  8  00 00 0F FE 7F FF FB FE 
   510)       678.4  Rx         007D  8  00 00 F8 70 00 3F EF FE 
   511)       678.7  Rx         0213  8  FF FF 00 00 80 11 FF 41 
   512)       679.1  Rx         0216  8  00 00 00 00 AA 00 00 00 
   513)       679.4  Rx         0217  8  00 00 00 00 00 00 00 00 
   514)       679.6  Rx         0415  8  00 00 C8 FA 0F FE 0F FE 
   515)       679.9  Rx         04B0  8  4D 00 80 00 70 00 00 F8 
   516)       683.7  Rx         0041  8  00 00 00 00 00 00 00 00 
   517)       684.4  Rx         072E  8  07 62 C2 58 80 00 00 00 
   518)       687.9  Rx         0217  8  00 00 00 00 00 00 00 00 
   519)       693.5  Rx         03B3  8  10 40 02 00 E6 05 80 28 
   520)       693.7  Rx         03C3  8  40 08 00 00 00 00 81 00 
   521)       694.0  Rx         042C  8  84 00 00 00 38 B0 00 00 
   522)       695.6  Rx         0726  8  03 22 C2 58 00 00 00 00 
   523)       697.9  Rx         0076  8  3E 80 40 00 00 00 00 00 
   524)       698.2  Rx         0077  8  00 00 0F FE 7F FF FB FE 
   525)       698.5  Rx         007D  8  00 00 F7 80 00 3F EF FE 
   526)       698.7  Rx         0213  8  FF FF 00 00 80 11 FF 41 
   527)       699.2  Rx         0216  8  00 00 00 00 AA 00 00 00 
   528)       699.4  Rx         0217  8  00 00 00 00 00 00 00 00 
   529)       699.6  Rx         0415  8  00 00 CC F9 0F FE 0F FE 
   530)       699.9  Rx         04B0  8  4D 00 80 00 80 00 00 F7 
   531)       702.9  Rx         0326  8  01 90 02 85 01 90 00 00 
   532)       703.6  Rx         0041  8  00 00 00 00 00 00 00 00 
   533)       704.3  Rx         072E  8  07 62 C2 58 80 00 00 00 
   534)       707.9  Rx         0217  8  00 00 00 00 00 00 00 00 
   535)       713.6  Rx         0242  8  03 C7 1F EB C6 00 03 00 
   536)       715.7  Rx         0726  8  03 22 D1 34 00 00 00 00 
   537)       717.9  Rx         0076  8  3E 80 40 00 00 00 00 00 
   538)       718.2  Rx         0077  8  00 00 0F FE 7F FF FB FE 
   539)       718.4  Rx         007D  8  00 00 F6 90 00 3F EF FE 
   540)       718.6  Rx         0213  8  FF FF 00 00 80 11 FF 41 
   541)       719.1  Rx         0216  8  00 00 00 00 AA 00 00 00 
   542)       719.4  Rx         0217  8  00 00 00 00 00 00 00 00 
   543)       719.6  Rx         0415  8  00 00 D0 F8 0F FE 0F FE 
   544)       719.9  Rx         04B0  8  4D 00 80 00 90 00 00 F6 
   545)       723.5  Rx         0041  8  00 00 00 00 00 00 00 00 
   546)       724.2  Rx         072E  8  04 62 D1 34 00 00 00 00 
   547)       727.9  Rx         0217  8  00 00 00 00 00 00 00 00 
   548)       737.9  Rx         0076  8  3E 80 40 00 00 00 00 00 
   549)       738.2  Rx         0077  8  00 00 0F FE 7F FF FB FE 
   550)       738.4  Rx         007D  8  00 00 F5 A0 00 3F EF FE 
   551)       738.6  Rx         0213  8  FF FF 00 00 80 11 FF 41 
   552)       739.1  Rx         0216  8  00 00 00 00 AA 00 00 00 
   553)       739.4  Rx         0217  8  00 00 00 00 00 00 00 00 
   554)       739.6  Rx         0415  8  00 00 D4 F7 0F FE 0F FE 
   555)       739.8  Rx         04B0  8  4D 00 80 00 A0 00 00 F5 
   556)       743.6  Rx         0041  8  00 00 00 00 00 00 00 00 
   557)       743.8  Rx         042C  8  84 00 00 00 38 B0 00 00 
   558)       745.6  Rx         0726  8  02 3E 00 00 00 00 00 00 
   559)       747.9  Rx         0217  8  00 00 00 00 00 00 00 00 
   560)       748.5  Rx         0083  8  0F E0 80 00 00 00 00 00 
   561)       753.5  Rx         0242  8  03 C7 1F EB C6 00 03 00 
   562)       754.2  Rx         072E  8  02 7E 00 00 00 00 00 00 
   563)       756.1  Rx         059E  8  9E 00 FF FF FF FF FF FF 
   564)       757.9  Rx         0076  8  3E 80 40 00 00 00 00 00 
   565)       758.1  Rx         0077  8  00 00 0F FE 7F FF FB FE 
   566)       758.4  Rx         007D  8  00 00 F4 B0 00 3F EF FE 
   567)       758.7  Rx         0213  8  FF FF 00 00 80 11 FF 41 
   568)       759.1  Rx         0216  8  00 00 00 00 AA 00 00 00 
   569)       759.4  Rx         0217  8  00 00 00 00 00 00 00 00 
   570)       759.6  Rx         0415  8  00 00 D8 F6 0F FE 0F FE 
   571)       759.8  Rx         0416  8  6A 20 F4 08 01 02 40 00 
   572)       760.1  Rx         04B0  8  4D 00 80 00 B0 00 00 F4 
   573)       763.5  Rx         0041  8  00 00 00 00 00 00 00 00 
   574)       765.7  Rx         0726  8  03 22 C1 1D 00 00 00 00 
   575)       766.4  Rx         02F1  8  00 00 40 00 50 FE 00 00 
   576)       766.6  Rx         0386  8  00 00 00 00 00 00 00 00 
   577)       766.9  Rx         0430  8  00 00 82 08 64 01 00 00 
   578)       767.1  Rx         0434  8  26 5B 10 09 0F FF 02 00 
   579)       767.4  Rx         0435  8  28 20 10 11 4E 00 00 00 
   580)       767.6  Rx         0439  8  00 00 04 00 00 00 00 00 
   581)       767.9  Rx         0217  8  00 00 00 00 00 00 00 00 
   582)       772.1  Rx         0455  8  00 00 00 00 00 00 00 00 
   583)       774.3  Rx         072E  8  07 62 C1 1D 12 12 12 12 
   584)       777.9  Rx         0076  8  3E 80 40 00 00 00 00 00 
   585)       778.2  Rx         0077  8  00 00 0F FE 7F FF FB FE 
   586)       778.4  Rx         007D  8  00 00 F3 C0 00 3F EF FE 
   587)       778.6  Rx         0213  8  FF FF 00 00 80 11 FF 41 
   588)       779.1  Rx         0216  8  00 00 00 00 AA 00 00 00 
   589)       779.3  Rx         0217  8  00 00 00 00 00 00 00 00 
   590)       779.6  Rx         0415  8  00 00 DC F5 0F FE 0F FE 
   591)       779.8  Rx         04B0  8  4D 00 80 00 C0 00 00 F3 
   592)       783.5  Rx         0041  8  00 00 00 00 00 00 00 00 
   593)       785.7  Rx         0726  8  03 22 C1 1D 00 00 00 00 
   594)       787.9  Rx         0217  8  00 00 00 00 00 00 00 00 
   595)       793.5  Rx         0242  8  03 C7 1F EB C6 00 03 00 
   596)       793.7  Rx         040A  8  C0 00 00 8A DE B2 7F 00 
   597)       793.9  Rx         042C  8  84 00 00 00 38 B0 00 00 
   598)       794.2  Rx         072E  8  07 62 C1 1D 12 12 12 12 
   599)       797.9  Rx         0076  8  3E 80 40 00 00 00 00 00 
   600)       798.2  Rx         0077  8  00 00 0F FE 7F FF FB FE 
   601)       798.4  Rx         007D  8  00 00 F2 D0 00 3F EF FE 
   602)       798.6  Rx         0213  8  FF FF 00 00 80 11 FF 41 
   603)       799.1  Rx         0216  8  00 00 00 00 AA 00 00 00 
   604)       799.4  Rx         0217  8  00 00 00 00 00 00 00 00 
   605)       799.6  Rx         0415  8  00 00 E0 F4 0F FE 0F FE 
   606)       799.8  Rx         04B0  8  4D 00 80 00 D0 00 10 F0 
   607)       802.8  Rx         0326  8  01 90 02 85 01 90 00 00 
   608)       803.7  Rx         0041  8  00 00 00 00 00 00 00 00 
   609)       804.7  Rx         0726  8  03 22 C1 1D 00 00 00 00 
   610)       807.9  Rx         0217  8  00 00 00 00 00 00 00 00 
   611)       814.1  Rx         072E  8  07 62 C1 1D 12 12 12 12 
   612)       817.9  Rx         0076  8  3E 80 40 00 00 00 00 00 
   613)       818.1  Rx         0077  8  00 00 0F FE 7F FF FB FE 
   614)       818.4  Rx         007D  8  00 00 F1 E0 00 3F EF FE 
   615)       818.6  Rx         0213  8  FF FF 00 00 80 11 FF 41 
   616)       819.1  Rx         0216  8  00 00 00 00 AA 00 00 00 
   617)       819.3  Rx         0217  8  00 00 00 00 00 00 00 00 
   618)       819.6  Rx         0415  8  00 00 E4 F3 0F FE 0F FE 
   619)       819.8  Rx         04B0  8  4D 00 80 00 E0 00 00 F1 
   620)       823.5  Rx         0041  8  00 00 00 00 00 00 00 00 
   621)       824.7  Rx         0726  8  03 22 71 33 00 00 00 00 
   622)       827.9  Rx         0217  8  00 00 00 00 00 00 00 00 
   623)       833.6  Rx         0242  8  03 C7 1F EB C6 00 03 00 
   624)       834.3  Rx         072E  8  04 62 71 33 02 00 00 00 
   625)       837.9  Rx         0076  8  3E 80 40 00 00 00 00 00 
   626)       838.1  Rx         0077  8  00 00 0F FE 7F FF FB FE 
   627)       838.4  Rx         007D  8  00 00 F0 F0 00 3F EF FE 
   628)       838.6  Rx         0213  8  FF FF 00 00 80 11 FF 41 
   629)       839.1  Rx         0216  8  00 00 00 00 AA 00 00 00 
   630)       839.3  Rx         0217  8  00 00 00 00 00 00 00 00 
   631)       839.6  Rx         0415  8  00 00 E8 F2 0F FE 0F FE 
   632)       839.8  Rx         04B0  8  4D 00 80 00 F0 00 00 F0 
   633)       843.5  Rx         0041  8  00 00 00 00 00 00 00 00 
   634)       843.7  Rx         0331  8  C0 2C 00 00 02 B7 08 00 
   635)       843.9  Rx         03B6  8  08 00 00 00 24 71 AA 30 
   636)       844.2  Rx         03B7  8  00 00 02 00 63 B9 63 C7 
   637)       844.5  Rx         042C  8  84 00 00 00 38 B0 00 00 
   638)       845.6  Rx         0726  8  03 22 40 CA 00 00 00 00 
   639)       847.9  Rx         0217  8  00 00 00 00 00 00 00 00 
   640)       848.6  Rx         0083  8  0F E0 80 00 00 00 00 00 
   641)       854.1  Rx         072E  8  04 62 40 CA 00 00 00 00 
   642)       857.9  Rx         0076  8  3E 80 40 00 00 00 00 00 
   643)       858.1  Rx         0077  8  00 00 0F FE 7F FF FB FE 
   644)       858.4  Rx         007D  8  00 00 FF 00 00 3F EF FE 
   645)       858.6  Rx         0213  8  FF FF 00 00 80 11 FF 41 
   646)       859.1  Rx         0216  8  00 00 00 00 AA 00 00 00 
   647)       859.3  Rx         0217  8  00 00 00 00 00 00 00 00 
   648)       859.6  Rx         0415  8  00 00 EC F1 0F FE 0F FE 
   649)       859.8  Rx         0416  8  6B 20 F3 08 01 02 40 00 
   650)       860.0  Rx         04B0  8  4D 00 80 00 00 00 00 FF 
   651)       863.7  Rx         0041  8  00 00 00 00 00 00 00 00 
   652)       865.7  Rx         0726  8  03 22 5B 1D 00 00 00 00 
   653)       866.4  Rx         0430  8  00 00 82 08 64 01 00 00 
   654)       866.6  Rx         0434  8  26 5B 10 09 0F FF 02 00 
   655)       866.9  Rx         0435  8  28 20 10 11 4E 00 00 00 
   656)       867.9  Rx         0217  8  00 00 00 00 00 00 00 00 
   657)       872.1  Rx         0455  8  00 00 00 00 00 00 00 00 
   658)       873.5  Rx         0242  8  03 C7 1F EB C6 00 03 00 
   659)       874.1  Rx         072E  8  07 62 5B 1D 21 00 00 00 
   660)       877.9  Rx         0076  8  3E 80 40 00 00 00 00 00 
   661)       878.1  Rx         0077  8  00 00 0F FE 7F FF FB FE 
   662)       878.4  Rx         007D  8  00 00 FE 10 00 3F EF FE 
   663)       878.6  Rx         0213  8  FF FF 00 00 80 11 FF 41 
   664)       879.1  Rx         0216  8  00 00 00 00 AA 00 00 00 
   665)       879.3  Rx         0217  8  00 00 00 00 00 00 00 00 
   666)       879.6  Rx         0415  8  00 00 F0 F0 0F FE 0F FE 
   667)       879.8  Rx         04B0  8  4D 00 80 00 10 00 00 FE 
   668)       883.5  Rx         0041  8  00 00 00 00 00 00 00 00 
   669)       885.6  Rx         0726  8  03 22 D1 00 00 00 00 00 
   670)       887.9  Rx         0217  8  00 00 00 00 00 00 00 00 
   671)       893.6  Rx         042C  8  84 00 00 00 38 B0 00 00 
   672)       894.2  Rx         072E  8  04 62 D1 00 03 00 00 00 
   673)       897.9  Rx         0076  8  3E 80 40 00 00 00 00 00 
   674)       898.1  Rx         0077  8  00 00 0F FE 7F FF FB FE 
   675)       898.4  Rx         007D  8  00 00 FD 20 00 3F EF FE 
   676)       898.6  Rx         0213  8  FF FF 00 00 80 11 FF 41 
   677)       899.1  Rx         0216  8  00 00 00 00 AA 00 00 00 
   678)       899.4  Rx         0217  8  00 00 00 00 00 00 00 00 
   679)       899.6  Rx         0415  8  00 00 F4 EF 0F FE 0F FE 
   680)       899.8  Rx         04B0  8  4D 00 80 00 20 00 00 FD 
   681)       902.8  Rx         0326  8  01 90 02 85 01 90 00 00 
   682)       903.5  Rx         0041  8  00 00 00 00 00 00 00 00 
   683)       905.7  Rx         0726  8  03 22 40 A8 00 00 00 00 
   684)       907.9  Rx         0217  8  00 00 00 00 00 00 00 00 
   685)       913.4  Rx         0242  8  03 C7 1F EB C6 00 03 00 
   686)       914.1  Rx         072E  8  07 62 40 A8 00 00 00 00 
   687)       917.9  Rx         0076  8  3E 80 40 00 00 00 00 00 
   688)       918.1  Rx         0077  8  00 00 0F FE 7F FF FB FE 
   689)       918.4  Rx         007D  8  00 00 FC 30 00 3F EF FE 
   690)       918.6  Rx         0213  8  FF FF 00 00 80 11 FF 41 
   691)       919.1  Rx         0216  8  00 00 00 00 AA 00 00 00 
   692)       919.3  Rx         0217  8  00 00 00 00 00 00 00 00 
   693)       919.6  Rx         0415  8  00 00 F8 EE 0F FE 0F FE 
   694)       919.8  Rx         04B0  8  4D 00 80 00 30 00 00 FC 
   695)       923.6  Rx         0041  8  00 00 00 00 00 00 00 00 
   696)       925.6  Rx         0726  8  03 22 40 A8 00 00 00 00 
   697)       927.9  Rx         0217  8  00 00 00 00 00 00 00 00 
   698)       934.1  Rx         072E  8  07 62 40 A8 00 00 00 00 
   699)       937.9  Rx         0076  8  3E 80 40 00 00 00 00 00 
   700)       938.1  Rx         0077  8  00 00 0F FE 7F FF FB FE 
   701)       938.4  Rx         007D  8  00 00 FB 40 00 3F EF FE 
   702)       938.6  Rx         0213  8  FF FF 00 00 80 11 FF 41 
   703)       939.1  Rx         0216  8  00 00 00 00 AA 00 00 00 
   704)       939.3  Rx         0217  8  00 00 00 00 00 00 00 00 
   705)       939.6  Rx         0415  8  00 00 FC ED 0F FE 0F FE 
   706)       939.8  Rx         04B0  8  4D 00 80 00 40 00 00 FB 
   707)       943.4  Rx         0041  8  00 00 00 00 00 00 00 00 
   708)       943.6  Rx         042C  8  84 00 00 00 38 B0 00 00 
   709)       945.6  Rx         0726  8  03 22 5B 1D 00 00 00 00 
   710)       947.9  Rx         0217  8  00 00 00 00 00 00 00 00 
   711)       948.3  Rx         0083  8  0F E0 80 00 00 00 00 00 
   712)       953.5  Rx         0242  8  03 C7 1F EB C6 00 03 00 
   713)       954.2  Rx         072E  8  07 62 5B 1D 21 00 00 00 
   714)       957.9  Rx         0076  8  3E 80 40 00 00 00 00 00 
   715)       958.1  Rx         0077  8  00 00 0F FE 7F FF FB FE 
   716)       958.4  Rx         007D  8  00 00 FA 50 00 3F EF FE 
   717)       958.6  Rx         0213  8  FF FF 00 00 80 11 FF 41 
   718)       959.1  Rx         0216  8  00 00 00 00 AA 00 00 00 
   719)       959.3  Rx         0217  8  00 00 00 00 00 00 00 00 
   720)       959.6  Rx         0415  8  00 00 C0 FC 0F FE 0F FE 
   721)       959.9  Rx         0416  8  6C 20 F2 08 01 02 40 00 
   722)       960.1  Rx         04B0  8  4D 00 80 00 50 00 00 FA 
   723)       963.5  Rx         0041  8  00 00 00 00 00 00 00 00 
   724)       965.7  Rx         0726  8  03 22 41 D3 00 00 00 00 
   725)       966.4  Rx         0430  8  00 00 82 08 64 01 00 00 
   726)       966.6  Rx         0434  8  26 5B 10 09 0F FF 02 00 
   727)       966.9  Rx         0435  8  28 20 10 11 4E 00 00 00 
   728)       967.9  Rx         0217  8  00 00 00 00 00 00 00 00 
   729)       972.1  Rx         0455  8  00 00 00 00 00 00 00 00 
   730)       974.1  Rx         072E  8  04 62 41 D3 00 00 00 00 
   731)       977.9  Rx         0076  8  3E 80 40 00 00 00 00 00 
   732)       978.1  Rx         0077  8  00 00 0F FE 7F FF FB FE 
   733)       978.4  Rx         007D  8  00 00 F9 60 00 3F EF FE 
   734)       978.6  Rx         0213  8  FF FF 00 00 80 11 FF 41 
   735)       979.1  Rx         0216  8  00 00 00 00 AA 00 00 00 
   736)       979.4  Rx         0217  8  00 00 00 00 00 00 00 00 
   737)       979.6  Rx         0415  8  00 00 C4 FB 0F FE 0F FE 
   738)       979.8  Rx         04B0  8  4D 00 80 00 60 00 00 F9 
   739)       983.6  Rx         0041  8  00 00 00 00 00 00 00 00 
   740)       985.6  Rx         0726  8  03 22 41 D2 00 00 00 00 
   741)       987.9  Rx         0217  8  00 00 00 00 00 00 00 00 
   742)       993.4  Rx         0242  8  03 C7 1F EB C6 00 03 00 
   743)       993.7  Rx         040A  8  C1 00 31 46 41 54 50 38 
   744)       993.9  Rx         042C  8  84 00 00 00 38 B0 00 00 
   745)       994.2  Rx         072E  8  04 62 41 D2 00 00 00 00 
   746)       997.9  Rx         0076  8  3E 80 40 00 00 00 00 00 
   747)       998.1  Rx         0077  8  00 00 0F FE 7F FF FB FE 
   748)       998.4  Rx         007D  8  00 00 F8 70 00 3F EF FE 
   749)       998.6  Rx         0213  8  FF FF 00 00 80 11 FF 41 
   750)       999.1  Rx         0216  8  00 00 00 00 AA 00 00 00 
   751)       999.3  Rx         0217  8  00 00 00 00 00 00 00 00 
   752)       999.6  Rx         0415  8  00 00 C8 FA 0F FE 0F FE 
   753)       999.8  Rx         04B0  8  4D 00 80 00 70 00 00 F8 
   754)      1002.7  Rx         0326  8  01 90 02 85 01 90 00 00 
   755)      1003.5  Rx         0041  8  00 00 00 00 00 00 00 00 
   756)      1004.7  Rx         0726  8  03 22 40 B5 00 00 00 00 
   757)      1007.9  Rx         0217  8  00 00 00 00 00 00 00 00 
   758)      1013.6  Rx         0084  8  18 00 01 46 36 26 0F 00 
   759)      1014.3  Rx         072E  8  04 62 40 B5 01 00 00 00 
   760)      1017.8  Rx         0076  8  3E 80 40 00 00 00 00 00 
   761)      1018.1  Rx         0077  8  00 00 0F FE 7F FF FB FE 
   762)      1018.3  Rx         007D  8  00 00 F7 80 00 3F EF FE 
   763)      1018.6  Rx         0213  8  FF FF 00 00 80 11 FF 41 
   764)      1019.0  Rx         0216  8  00 00 00 00 AA 00 00 00 
   765)      1019.3  Rx         0217  8  00 00 00 00 00 00 00 00 
   766)      1019.5  Rx         0415  8  00 00 CC F9 0F FE 0F FE 
   767)      1019.8  Rx         04B0  8  4D 00 80 00 80 00 00 F7 
   768)      1023.5  Rx         0041  8  00 00 00 00 00 00 00 00 
   769)      1025.6  Rx         0726  8  03 22 41 7D 00 00 00 00 
   770)      1027.9  Rx         0217  8  00 00 00 00 00 00 00 00 
   771)      1033.4  Rx         0242  8  03 C7 1F EB C6 00 03 00 
   772)      1034.1  Rx         072E  8  04 62 41 7D 02 00 00 00 
   773)      1037.8  Rx         0076  8  3E 80 40 00 00 00 00 00 
   774)      1038.1  Rx         0077  8  00 00 0F FE 7F FF FB FE 
   775)      1038.4  Rx         007D  8  00 00 F6 90 00 3F EF FE 
   776)      1038.6  Rx         0213  8  FF FF 00 00 80 11 FF 41 
   777)      1039.0  Rx         0216  8  00 00 00 00 AA 00 00 00 
   778)      1039.3  Rx         0217  8  00 00 00 00 00 00 00 00 
   779)      1039.6  Rx         0415  8  00 00 D0 F8 0F FE 0F FE 
   780)      1039.8  Rx         04B0  8  4D 00 80 00 90 00 00 F6 
   781)      1043.6  Rx         0041  8  00 00 00 00 00 00 00 00 
   782)      1043.9  Rx         042C  8  84 00 00 00 38 B0 00 00 
   783)      1045.6  Rx         0726  8  03 22 40 A8 00 00 00 00 
   784)      1047.9  Rx         0217  8  00 00 00 00 00 00 00 00 
   785)      1048.2  Rx         0083  8  0F E0 80 00 00 00 00 00 
   786)      1054.0  Rx         072E  8  07 62 40 A8 00 00 00 00 
   787)      1057.8  Rx         0076  8  3E 80 40 00 00 00 00 00 
   788)      1058.1  Rx         0077  8  00 00 0F FE 7F FF FB FE 
   789)      1058.3  Rx         007D  8  00 00 F5 A0 00 3F EF FE 
   790)      1058.5  Rx         0213  8  FF FF 00 00 80 11 FF 41 
   791)      1059.0  Rx         0216  8  00 00 00 00 AA 00 00 00 
   792)      1059.3  Rx         0217  8  00 00 00 00 00 00 00 00 
   793)      1059.5  Rx         0415  8  00 00 D4 F7 0F FE 0F FE 
   794)      1059.8  Rx         0416  8  6D 20 F1 08 01 02 40 00 
   795)      1060.0  Rx         04B0  8  4D 00 80 00 A0 00 00 F5 
   796)      1063.5  Rx         0041  8  00 00 00 00 00 00 00 00 
   797)      1065.6  Rx         0726  8  03 22 42 51 00 00 00 00 
   798)      1066.3  Rx         0430  8  00 00 82 08 64 01 00 00 
   799)      1066.6  Rx         0434  8  26 5B 10 09 0F FF 02 00 
   800)      1066.9  Rx         0435  8  28 20 10 11 4E 00 00 00 
   801)      1067.8  Rx         0217  8  00 00 00 00 00 00 00 00 
   802)      1072.1  Rx         0455  8  00 00 00 00 00 00 00 00 
   803)      1073.6  Rx         0242  8  03 C7 1F EB C6 00 03 00 
   804)      1074.3  Rx         072E  8  04 62 42 51 01 00 00 00 
   805)      1077.8  Rx         0076  8  3E 80 40 00 00 00 00 00 
   806)      1078.1  Rx         0077  8  00 00 0F FE 7F FF FB FE 
   807)      1078.3  Rx         007D  8  00 00 F4 B0 00 3F EF FE 
   808)      1078.6  Rx         0213  8  FF FF 00 00 80 11 FF 41 
   809)      1079.1  Rx         0216  8  00 00 00 00 AA 00 00 00 
   810)      1079.3  Rx         0217  8  00 00 00 00 00 00 00 00 
   811)      1079.5  Rx         0415  8  00 00 D8 F6 0F FE 0F FE 
   812)      1079.8  Rx         04B0  8  4D 00 80 00 B0 00 00 F4 
   813)      1083.4  Rx         0041  8  00 00 00 00 00 00 00 00 
   814)      1084.7  Rx         0726  8  03 22 C2 57 00 00 00 00 
   815)      1087.9  Rx         0217  8  00 00 00 00 00 00 00 00 
   816)      1093.4  Rx         03B6  8  08 00 01 00 24 70 E7 B3 
   817)      1093.7  Rx         03B7  8  00 00 03 00 63 B9 58 92 
   818)      1093.9  Rx         03B8  8  FF FF FF FF 00 00 00 00 
   819)      1094.2  Rx         042C  8  84 00 00 00 38 B0 00 00 
   820)      1094.4  Rx         072E  8  04 62 C2 57 10 00 00 00 
   821)      1097.8  Rx         0076  8  3E 80 40 00 00 00 00 00 
   822)      1098.1  Rx         0077  8  00 00 0F FE 7F FF FB FE 
   823)      1098.3  Rx         007D  8  00 00 F3 C0 00 3F EF FE 
   824)      1098.6  Rx         0213  8  FF FF 00 00 80 11 FF 41 
   825)      1099.0  Rx         0216  8  00 00 00 00 AA 00 00 00 
   826)      1099.3  Rx         0217  8  00 00 00 00 00 00 00 00 
   827)      1099.5  Rx         0415  8  00 00 DC F5 0F FE 0F FE 
   828)      1099.8  Rx         04B0  8  4D 00 80 00 C0 00 00 F3 
   829)      1103.6  Rx         0041  8  00 00 00 00 00 00 00 00 
   830)      1104.7  Rx         0326  8  01 90 02 85 01 90 00 00 
   831)      1105.6  Rx         0726  8  03 22 C2 11 00 00 00 00 
   832)      1107.5  Rx         035E  8  00 00 00 00 00 00 00 00 
   833)      1107.8  Rx         0217  8  00 00 00 00 00 00 00 00 
   834)      1113.4  Rx         0242  8  03 C7 1F EB C6 00 03 00 
   835)      1114.0  Rx         072E  8  07 62 C2 11 24 71 AA 30 
   836)      1117.8  Rx         0076  8  3E 80 40 00 00 00 00 00 
   837)      1118.1  Rx         0077  8  00 00 0F FE 7F FF FB FE 
   838)      1118.3  Rx         007D  8  00 00 F2 D0 00 3F EF FE 
   839)      1118.6  Rx         0213  8  FF FF 00 00 80 11 FF 41 
   840)      1119.0  Rx         0216  8  00 00 00 00 AA 00 00 00 
   841)      1119.3  Rx         0217  8  00 00 00 00 00 00 00 00 
   842)      1119.5  Rx         0415  8  00 00 E0 F4 0F FE 0F FE 
   843)      1119.8  Rx         04B0  8  4D 00 80 00 D0 00 00 F2 
   844)      1123.4  Rx         0041  8  00 00 00 00 00 00 00 00 
   845)      1124.7  Rx         0726  8  03 22 40 EF 00 00 00 00 
   846)      1127.8  Rx         0217  8  00 00 00 00 00 00 00 00 
   847)      1134.1  Rx         072E  8  04 62 40 EF 02 00 00 00 
   848)      1137.8  Rx         0076  8  3E 80 40 00 00 00 00 00 
   849)      1138.1  Rx         0077  8  00 00 0F FE 7F FF FB FE 
   850)      1138.3  Rx         007D  8  00 00 F1 E0 00 3F EF FE 
   851)      1138.5  Rx         0213  8  FF FF 00 00 80 11 FF 41 
   852)      1139.0  Rx         0216  8  00 00 00 00 AA 00 00 00 
   853)      1139.3  Rx         0217  8  00 00 00 00 00 00 00 00 
   854)      1139.5  Rx         0415  8  00 00 E4 F3 0F FE 0F FE 
   855)      1139.8  Rx         04B0  8  4D 00 80 00 E0 00 00 F1 
   856)      1143.4  Rx         0041  8  00 00 00 00 00 00 00 00 
   857)      1143.6  Rx         042C  8  84 00 00 00 38 B0 00 00 
   858)      1144.7  Rx         0726  8  03 22 C1 9F 00 00 00 00 
   859)      1147.8  Rx         0217  8  00 00 00 00 00 00 00 00 
   860)      1148.1  Rx         0083  8  0F E0 80 00 00 00 00 00 
   861)      1152.6  Rx         0581  8  81 00 FF FF FF FF FF FF 
   862)      1153.4  Rx         0242  8  03 C7 1F EB C6 00 03 00 
   863)      1153.6  Rx         03B5  8  00 EE 00 EE 00 F3 00 F3 
   864)      1154.1  Rx         072E  8  04 62 C1 9F 02 00 00 00 
   865)      1157.8  Rx         0076  8  3E 80 40 00 00 00 00 00 
   866)      1158.0  Rx         0077  8  00 00 0F FE 7F FF FB FE 
   867)      1158.3  Rx         007D  8  00 00 F0 F0 00 3F EF FE 
   868)      1158.5  Rx         0213  8  FF FF 00 00 80 11 FF 41 
   869)      1159.0  Rx         0216  8  00 00 00 00 AA 00 00 00 
   870)      1159.3  Rx         0217  8  00 00 00 00 00 00 00 00 
   871)      1159.5  Rx         0415  8  00 00 E8 F2 0F FE 0F FE 
   872)      1159.7  Rx         0416  8  6E 20 F0 08 01 02 40 00 
   873)      1160.0  Rx         04B0  8  4D 00 80 00 F0 00 00 F0 
   874)      1163.5  Rx         0041  8  00 00 00 00 00 00 00 00 
   875)      1164.7  Rx         0726  8  03 22 C1 1D 00 00 00 00 
   876)      1166.4  Rx         0430  8  04 00 82 08 64 01 04 00 
   877)      1166.6  Rx         0434  8  26 5B 10 09 0F FF 02 00 
   878)      1166.8  Rx         0435  8  28 20 10 11 4E 00 00 00 
   879)      1167.8  Rx         0217  8  00 00 00 00 00 00 00 00 
   880)      1172.0  Rx         0455  8  00 00 00 00 00 00 00 00 
   881)      1174.1  Rx         072E  8  07 62 C1 1D 12 12 12 12 
   882)      1177.8  Rx         0076  8  3E 80 40 00 00 00 00 00 
   883)      1178.0  Rx         0077  8  00 00 0F FE 7F FF FB FE 
   884)      1178.3  Rx         007D  8  00 00 FF 00 00 3F EF FE 
   885)      1178.6  Rx         0213  8  FF FF 00 00 80 11 FF 41 
   886)      1179.0  Rx         0216  8  00 00 00 00 AA 00 00 00 
   887)      1179.3  Rx         0217  8  00 00 00 00 00 00 00 00 
   888)      1179.5  Rx         0415  8  00 00 EC F1 0F FE 0F FE 
   889)      1179.8  Rx         04B0  8  4D 00 80 00 00 00 00 FF 
   890)      1183.4  Rx         0041  8  00 00 00 00 00 00 00 00 
   891)      1185.6  Rx         0726  8  03 22 C2 58 00 00 00 00 
   892)      1187.8  Rx         0217  8  00 00 00 00 00 00 00 00 
   893)      1193.5  Rx         0242  8  03 C7 1F EB C6 00 03 00 
   894)      1193.8  Rx         03B3  8  10 40 02 00 E6 05 80 28 
   895)      1194.0  Rx         040A  8  C1 01 4A 5A 32 48 35 35 
   896)      1194.3  Rx         042C  8  84 00 00 00 38 B0 00 00 
   897)      1194.5  Rx         072E  8  07 62 C2 58 80 00 00 00 
   898)      1197.8  Rx         0076  8  3E 80 40 00 00 00 00 00 
   899)      1198.1  Rx         0077  8  00 00 0F FE 7F FF FB FE 
   900)      1198.3  Rx         007D  8  00 00 FE 10 00 3F EF FE 
   901)      1198.6  Rx         0213  8  FF FF 00 00 80 11 FF 41 
   902)      1199.0  Rx         0216  8  00 00 00 00 AA 00 00 00 
   903)      1199.3  Rx         0217  8  00 00 00 00 00 00 00 00 
   904)      1199.6  Rx         0415  8  00 00 F0 F0 0F FE 0F FE 
   905)      1199.8  Rx         04B0  8  4D 00 80 00 10 00 00 FE 
   906)      1202.7  Rx         0326  8  01 90 02 85 01 90 00 00 
   907)      1203.4  Rx         0041  8  00 00 00 00 00 00 00 00 
   908)      1205.5  Rx         0726  8  03 22 D1 37 00 00 00 00 
   909)      1207.8  Rx         0217  8  00 00 00 00 00 00 00 00 
   910)      1214.1  Rx         072E  8  04 62 D1 37 07 00 00 00 
   911)      1217.8  Rx         0076  8  3E 80 40 00 00 00 00 00 
   912)      1218.0  Rx         0077  8  00 00 0F FE 7F FF FB FE 
   913)      1218.3  Rx         007D  8  00 00 FD 20 00 3F EF FE 
   914)      1218.5  Rx         0213  8  FF FF 00 00 80 11 FF 41 
   915)      1219.0  Rx         0216  8  00 00 00 00 AA 00 00 00 
   916)      1219.3  Rx         0217  8  00 00 00 00 00 00 00 00 
   917)      1219.5  Rx         0415  8  00 00 F4 EF 0F FE 0F FE 
   918)      1219.7  Rx         04B0  8  4D 00 80 00 20 00 00 FD 
   919)      1223.5  Rx         0041  8  00 00 00 00 00 00 00 00 
   920)      1225.6  Rx         0726  8  03 22 C2 5B 00 00 00 00 
   921)      1227.8  Rx         0217  8  00 00 00 00 00 00 00 00 
   922)      1233.4  Rx         0242  8  03 C7 1F EB C6 00 03 00 
   923)      1234.0  Rx         072E  8  04 62 C2 5B 02 00 00 00 
   924)      1237.8  Rx         0076  8  3E 80 40 00 00 00 00 00 
   925)      1238.0  Rx         0077  8  00 00 0F FE 7F FF FB FE 
   926)      1238.3  Rx         007D  8  00 00 FC 30 00 3F EF FE 
   927)      1238.5  Rx         0213  8  FF FF 00 00 80 11 FF 41 
   928)      1239.0  Rx         0216  8  00 00 00 00 AA 00 00 00 
   929)      1239.2  Rx         0217  8  00 00 00 00 00 00 00 00 
   930)      1239.5  Rx         0415  8  00 00 F8 EE 0F FE 0F FE 
   931)      1239.7  Rx         04B0  8  4D 00 80 00 30 00 00 FC 
   932)      1243.4  Rx         0041  8  00 00 00 00 00 00 00 00 
   933)      1243.6  Rx         042C  8  84 00 00 00 38 B0 00 00 
   934)      1245.5  Rx         0726  8  03 22 02 02 00 00 00 00 
   935)      1247.8  Rx         0217  8  00 00 00 00 00 00 00 00 
   936)      1248.1  Rx         0083  8  0F E0 80 00 00 00 00 00 
   937)      1254.2  Rx         072E  8  04 62 02 02 00 00 00 00 
   938)      1257.8  Rx         0076  8  3E 80 40 00 00 00 00 00 
   939)      1258.0  Rx         0077  8  00 00 0F FE 7F FF FB FE 
   940)      1258.3  Rx         007D  8  00 00 FB 40 00 3F EF FE 
   941)      1258.5  Rx         0213  8  FF FF 00 00 80 11 FF 41 
   942)      1259.0  Rx         0216  8  00 00 00 00 AA 00 00 00 
   943)      1259.2  Rx         0217  8  00 00 00 00 00 00 00 00 
   944)      1259.5  Rx         0415  8  00 00 FC ED 0F FE 0F FE 
   945)      1259.7  Rx         0416  8  6F 20 EF 08 01 02 40 00 
   946)      1260.0  Rx         04B0  8  4D 00 80 00 40 00 00 FB 
   947)      1263.3  Rx         0041  8  00 00 00 00 00 00 00 00 
   948)      1265.6  Rx         0726  8  03 22 5B 1D 00 00 00 00 
   949)      1266.3  Rx         0430  8  00 00 82 08 64 01 00 00 
   950)      1266.6  Rx         0434  8  26 5B 10 09 0F FF 02 00 
   951)      1266.8  Rx         0435  8  28 20 10 11 4E 00 00 00 
   952)      1267.8  Rx         0217  8  00 00 00 00 00 00 00 00 
   953)      1272.0  Rx         0455  8  00 00 00 00 00 00 00 00 
   954)      1273.4  Rx         0242  8  03 C7 1F EB C6 00 03 00 
   955)      1274.1  Rx         072E  8  07 62 5B 1D 21 00 00 00 
   956)      1277.8  Rx         0076  8  3E 80 40 00 00 00 00 00 
   957)      1278.0  Rx         0077  8  00 00 0F FE 7F FF FB FE 
   958)      1278.3  Rx         007D  8  00 00 FA 50 00 3F EF FE 
   959)      1278.5  Rx         0213  8  FF FF 00 00 80 11 FF 41 
   960)      1279.0  Rx         0216  8  00 00 00 00 AA 00 00 00 
   961)      1279.3  Rx         0217  8  00 00 00 00 00 00 00 00 
   962)      1279.5  Rx         0415  8  00 00 C0 FC 0F FE 0F FE 
   963)      1279.7  Rx         04B0  8  4D 00 80 00 50 00 00 FA 
   964)      1283.5  Rx         0041  8  00 00 00 00 00 00 00 00 
   965)      1285.6  Rx         0726  8  03 22 C1 04 00 00 00 00 
   966)      1287.8  Rx         0217  8  00 00 00 00 00 00 00 00 
   967)      1293.4  Rx         042C  8  84 00 00 00 38 B0 00 00 
   968)      1294.1  Rx         072E  8  04 62 C1 04 02 00 00 00 
   969)      1297.8  Rx         0076  8  3E 80 40 00 00 00 00 00 
   970)      1298.0  Rx         0077  8  00 00 0F FE 7F FF FB FE 
   971)      1298.3  Rx         007D  8  00 00 F9 60 00 3F EF FE 
   972)      1298.5  Rx         0213  8  FF FF 00 00 80 11 FF 41 
   973)      1299.0  Rx         0216  8  00 00 00 00 AA 00 00 00 
   974)      1299.2  Rx         0217  8  00 00 00 00 00 00 00 00 
   975)      1299.5  Rx         0415  8  00 00 C4 FB 0F FE 0F FE 
   976)      1299.7  Rx         04B0  8  4D 00 80 00 60 00 00 F9 
   977)      1303.3  Rx         0041  8  00 00 00 00 00 00 00 00 
   978)      1303.5  Rx         0326  8  01 90 02 85 01 90 00 00 
   979)      1305.6  Rx         0726  8  03 22 40 F2 00 00 00 00 
   980)      1307.8  Rx         0217  8  00 00 00 00 00 00 00 00 
   981)      1313.5  Rx         0242  8  03 C7 1F EB C6 00 03 00 
   982)      1314.2  Rx         072E  8  04 62 40 F2 02 00 00 00 
   983)      1317.8  Rx         0076  8  3E 80 40 00 00 00 00 00 
   984)      1318.0  Rx         0077  8  00 00 0F FE 7F FF FB FE 
   985)      1318.2  Rx         007D  8  00 00 F8 70 00 3F EF FE 
   986)      1318.5  Rx         0213  8  FF FF 00 00 80 11 FF 41 
   987)      1319.0  Rx         0216  8  00 00 00 00 AA 00 00 00 
   988)      1319.2  Rx         0217  8  00 00 00 00 00 00 00 00 
   989)      1319.5  Rx         0415  8  00 00 C8 FA 0F FE 0F FE 
   990)      1319.7  Rx         04B0  8  4D 00 80 00 70 00 00 F8 
   991)      1323.3  Rx         0041  8  00 00 00 00 00 00 00 00 
   992)      1325.5  Rx         0726  8  03 22 C2 43 00 00 00 00 
   993)      1327.8  Rx         0217  8  00 00 00 00 00 00 00 00 
   994)      1334.0  Rx         072E  8  07 62 C2 43 24 71 AA 30 
   995)      1337.7  Rx         0076  8  3E 80 40 00 00 00 00 00 
   996)      1338.0  Rx         0077  8  00 00 0F FE 7F FF FB FE 
   997)      1338.2  Rx         007D  8  00 00 F7 80 00 3F EF FE 
   998)      1338.5  Rx         0213  8  FF FF 00 00 80 11 FF 41 
   999)      1338.9  Rx         0216  8  00 00 00 00 AA 00 00 00 
  1000)      1339.2  Rx         0217  8  00 00 00 00 00 00 00 00 
  1001)      1339.5  Rx         0415  8  00 00 CC F9 0F FE 0F FE 
  1002)      1339.7  Rx         04B0  8  4D 00 80 00 80 00 00 F7 
  1003)      1343.5  Rx         0041  8  00 00 00 00 00 00 00 00 
  1004)      1343.7  Rx         03B6  8  08 00 02 00 00 00 00 00 
  1005)      1344.0  Rx         03B7  8  00 00 00 00 63 B9 59 49 
  1006)      1344.2  Rx         042C  8  84 00 00 00 38 B0 00 00 
  1007)      1345.6  Rx         0726  8  03 22 C2 56 00 00 00 00 
  1008)      1347.8  Rx         0217  8  00 00 00 00 00 00 00 00 
  1009)      1348.0  Rx         0083  8  0F E0 80 00 00 00 00 00 
  1010)      1353.4  Rx         0242  8  03 C7 1F EB C6 00 03 00 
  1011)      1354.5  Rx         072E  8  07 62 C2 56 00 00 00 00 
  1012)      1357.8  Rx         0076  8  3E 80 40 00 00 00 00 00 
  1013)      1358.0  Rx         0077  8  00 00 0F FE 7F FF FB FE 
  1014)      1358.2  Rx         007D  8  00 00 F6 90 00 3F EF FE 
  1015)      1358.5  Rx         0213  8  FF FF 00 00 80 11 FF 41 
  1016)      1359.0  Rx         0216  8  00 00 00 00 AA 00 00 00 
  1017)      1359.2  Rx         0217  8  00 00 00 00 00 00 00 00 
  1018)      1359.5  Rx         0415  8  00 00 D0 F8 0F FE 0F FE 
  1019)      1359.7  Rx         0416  8  60 20 FE 08 01 02 40 00 
  1020)      1359.9  Rx         04B0  8  4D 00 80 00 90 00 00 F6 
  1021)      1363.3  Rx         0041  8  00 00 00 00 00 00 00 00 
  1022)      1365.7  Rx         0726  8  03 22 C2 44 00 00 00 00 
  1023)      1366.3  Rx         0430  8  00 00 82 08 64 01 00 00 
  1024)      1366.5  Rx         0434  8  26 5B 10 09 0F FF 02 00 
  1025)      1366.8  Rx         0435  8  28 20 10 11 4E 00 00 00 
  1026)      1367.7  Rx         0217  8  00 00 00 00 00 00 00 00 
  1027)      1372.0  Rx         0455  8  00 00 00 00 00 00 00 00 
  1028)      1374.2  Rx         072E  8  07 62 C2 44 24 70 E7 B3 
  1029)      1377.7  Rx         0076  8  3E 80 40 00 00 00 00 00 
  1030)      1378.0  Rx         0077  8  00 00 0F FE 7F FF FB FE 
  1031)      1378.2  Rx         007D  8  00 00 F5 A0 00 3F EF FE 
  1032)      1378.5  Rx         0213  8  FF FF 00 00 80 11 FF 41 
  1033)      1379.0  Rx         0216  8  00 00 00 00 AA 00 00 00 
  1034)      1379.2  Rx         0217  8  00 00 00 00 00 00 00 00 
  1035)      1379.4  Rx         0415  8  00 00 D4 F7 0F FE 0F FE 
  1036)      1379.7  Rx         04B0  8  4D 00 80 00 A0 00 00 F5 
  1037)      1383.4  Rx         0041  8  00 00 00 00 00 00 00 00 
  1038)      1385.6  Rx         0726  8  03 22 C2 45 00 00 00 00 
  1039)      1387.8  Rx         0217  8  00 00 00 00 00 00 00 00 
  1040)      1393.3  Rx         0242  8  03 C7 1F EB C6 00 03 00 
  1041)      1393.6  Rx         040A  8  C1 02 32 34 30 33 33 FF 
  1042)      1393.8  Rx         042C  8  84 00 00 00 38 B0 00 00 
  1043)      1394.2  Rx         072E  8  07 62 C2 45 00 00 00 00 
  1044)      1397.7  Rx         0076  8  3E 80 40 00 00 00 00 00 
  1045)      1398.0  Rx         0077  8  00 00 0F FE 7F FF FB FE 
  1046)      1398.2  Rx         007D  8  00 00 F4 B0 00 3F EF FE 
  1047)      1398.5  Rx         0213  8  FF FF 00 00 80 11 FF 41 
  1048)      1399.0  Rx         0216  8  00 00 00 00 AA 00 00 00 
  1049)      1399.2  Rx         0217  8  00 00 00 00 00 00 00 00 
  1050)      1399.4  Rx         0415  8  00 00 D8 F6 0F FE 0F FE 
  1051)      1399.7  Rx         04B0  8  4D 00 80 00 B0 00 00 F4 
  1052)      1402.6  Rx         0326  8  01 90 02 85 01 90 00 00 
  1053)      1403.5  Rx         0041  8  00 00 00 00 00 00 00 00 
  1054)      1405.5  Rx         0726  8  03 22 C2 46 00 00 00 00 
  1055)      1407.7  Rx         0217  8  00 00 00 00 00 00 00 00 
  1056)      1414.0  Rx         072E  8  07 62 C2 46 00 00 00 00 
  1057)      1417.7  Rx         0076  8  3E 80 40 00 00 00 00 00 
  1058)      1418.0  Rx         0077  8  00 00 0F FE 7F FF FB FE 
  1059)      1418.2  Rx         007D  8  00 00 F3 C0 00 3F EF FE 
  1060)      1418.5  Rx         0213  8  FF FF 00 00 80 11 FF 41 
  1061)      1418.9  Rx         0216  8  00 00 00 00 AA 00 00 00 
  1062)      1419.2  Rx         0217  8  00 00 00 00 00 00 00 00 
  1063)      1419.5  Rx         0415  8  00 00 DC F5 0F FE 0F FE 
  1064)      1419.7  Rx         04B0  8  4D 00 80 00 C0 00 00 F3 
  1065)      1423.3  Rx         0041  8  00 00 00 00 00 00 00 00 
  1066)      1425.6  Rx         0726  8  03 22 C2 53 00 00 00 00 
  1067)      1427.7  Rx         0217  8  00 00 00 00 00 00 00 00 
  1068)      1433.5  Rx         0242  8  03 C7 1F EB C6 00 03 00 
  1069)      1434.1  Rx         072E  8  07 62 C2 53 00 00 00 00 
  1070)      1437.7  Rx         0076  8  3E 80 40 00 00 00 00 00 
  1071)      1438.0  Rx         0077  8  00 00 0F FE 7F FF FB FE 
  1072)      1438.2  Rx         007D  8  00 00 F2 D0 00 3F EF FE 
  1073)      1438.4  Rx         0213  8  FF FF 00 00 80 11 FF 41 
  1074)      1438.9  Rx         0216  8  00 00 00 00 AA 00 00 00 
  1075)      1439.2  Rx         0217  8  00 00 00 00 00 00 00 00 
  1076)      1439.4  Rx         0415  8  00 00 E0 F4 0F FE 0F FE 
  1077)      1439.7  Rx         04B0  8  4D 00 80 00 D0 00 00 F2 
  1078)      1443.3  Rx         0041  8  00 00 00 00 00 00 00 00 
  1079)      1443.6  Rx         042C  8  84 00 00 00 38 B0 00 00 
  1080)      1445.5  Rx         0726  8  03 22 C2 54 00 00 00 00 
  1081)      1447.7  Rx         0217  8  00 00 00 00 00 00 00 00 
  1082)      1448.0  Rx         0083  8  0F E0 80 00 00 00 00 00 
  1083)      1454.0  Rx         072E  8  07 62 C2 54 00 00 00 00 
  1084)      1457.7  Rx         0076  8  3E 80 40 00 00 00 00 00 
  1085)      1458.0  Rx         0077  8  00 00 0F FE 7F FF FB FE 
  1086)      1458.2  Rx         007D  8  00 00 F1 E0 00 3F EF FE 
  1087)      1458.4  Rx         0213  8  FF FF 00 00 80 11 FF 41 
  1088)      1458.9  Rx         0216  8  00 00 00 00 AA 00 00 00 
  1089)      1459.2  Rx         0217  8  00 00 00 00 00 00 00 00 
  1090)      1459.4  Rx         0415  8  00 00 E4 F3 0F FE 0F FE 
  1091)      1459.6  Rx         0416  8  61 20 FD 08 01 02 40 00 
  1092)      1459.9  Rx         04B0  8  4D 00 80 00 E0 00 00 F1 
  1093)      1463.4  Rx         0041  8  00 00 00 00 00 00 00 00 
  1094)      1465.6  Rx         0726  8  03 22 C2 55 00 00 00 00 
  1095)      1466.3  Rx         0430  8  00 00 82 08 64 01 00 00 
  1096)      1466.5  Rx         0434  8  26 5B 10 09 0F FF 02 00 
  1097)      1466.8  Rx         0435  8  28 20 10 11 4E 00 00 00 
  1098)      1467.8  Rx         0217  8  00 00 00 00 00 00 00 00 
  1099)      1471.9  Rx         0455  8  00 00 00 00 00 00 00 00 
  1100)      1473.4  Rx         0242  8  03 C7 1F EB C6 00 03 00 
  1101)      1474.0  Rx         072E  8  07 62 C2 55 00 00 00 00 
  1102)      1477.7  Rx         0076  8  3E 80 40 00 00 00 00 00 
  1103)      1478.0  Rx         0077  8  00 00 0F FE 7F FF FB FE 
  1104)      1478.2  Rx         007D  8  00 00 F0 F0 00 3F EF FE 
  1105)      1478.5  Rx         0213  8  FF FF 00 00 80 11 FF 41 
  1106)      1478.9  Rx         0216  8  00 00 00 00 AA 00 00 00 
  1107)      1479.2  Rx         0217  8  00 00 00 00 00 00 00 00 
  1108)      1479.4  Rx         0415  8  00 00 E8 F2 0F FE 0F FE 
  1109)      1479.7  Rx         04B0  8  4D 00 80 00 F0 00 00 F0 
  1110)      1483.4  Rx         0041  8  00 00 00 00 00 00 00 00 
  1111)      1485.5  Rx         0726  8  03 22 C2 58 00 00 00 00 
  1112)      1487.7  Rx         0217  8  00 00 00 00 00 00 00 00 
  1113)      1493.6  Rx         042C  8  84 00 00 00 38 B0 00 00 
  1114)      1494.2  Rx         072E  8  07 62 C2 58 80 00 00 00 
  1115)      1497.7  Rx         0076  8  3E 80 40 00 00 00 00 00 
  1116)      1498.0  Rx         0077  8  00 00 0F FE 7F FF FB FE 
  1117)      1498.2  Rx         007D  8  00 00 FF 00 00 3F EF FE 
  1118)      1498.5  Rx         0213  8  FF FF 00 00 80 11 FF 41 
  1119)      1498.9  Rx         0216  8  00 00 00 00 AA 00 00 00 
  1120)      1499.2  Rx         0217  8  00 00 00 00 00 00 00 00 
  1121)      1499.4  Rx         0415  8  00 00 EC F1 0F FE 0F FE 
  1122)      1499.7  Rx         04B0  8  4D 00 80 00 00 00 00 FF 
  1123)      1502.5  Rx         0326  8  01 90 02 85 01 90 00 00 
  1124)      1503.3  Rx         0041  8  00 00 00 00 00 00 00 00 
  1125)      1505.6  Rx         0726  8  03 22 40 B6 00 00 00 00 
  1126)      1507.7  Rx         0217  8  00 00 00 00 00 00 00 00 
  1127)      1513.4  Rx         0242  8  03 C7 1F EB C6 00 03 00 
  1128)      1514.0  Rx         072E  8  04 62 40 B6 02 00 00 00 
  1129)      1517.7  Rx         0076  8  3E 80 40 00 00 00 00 00 
  1130)      1518.0  Rx         0077  8  00 00 0F FE 7F FF FB FE 
  1131)      1518.2  Rx         007D  8  00 00 FE 10 00 3F EF FE 
  1132)      1518.5  Rx         0213  8  FF FF 00 00 80 11 FF 41 
  1133)      1518.9  Rx         0216  8  00 00 00 00 AA 00 00 00 
  1134)      1519.2  Rx         0217  8  00 00 00 00 00 00 00 00 
  1135)      1519.4  Rx         0415  8  00 00 F0 F0 0F FE 0F FE 
  1136)      1519.7  Rx         04B0  8  4D 00 80 00 10 00 00 FE 
  1137)      1523.4  Rx         0041  8  00 00 00 00 00 00 00 00 
  1138)      1524.6  Rx         0726  8  03 22 40 B7 00 00 00 00 
  1139)      1527.7  Rx         0217  8  00 00 00 00 00 00 00 00 
  1140)      1533.9  Rx         072E  8  04 62 40 B7 02 00 00 00 
  1141)      1537.7  Rx         0076  8  3E 80 40 00 00 00 00 00 
  1142)      1537.9  Rx         0077  8  00 00 0F FE 7F FF FB FE 
  1143)      1538.2  Rx         007D  8  00 00 FD 20 00 3F EF FE 
  1144)      1538.4  Rx         0213  8  FF FF 00 00 80 11 FF 41 
  1145)      1538.9  Rx         0216  8  00 00 00 00 AA 00 00 00 
  1146)      1539.2  Rx         0217  8  00 00 00 00 00 00 00 00 
  1147)      1539.4  Rx         0415  8  00 00 F4 EF 0F FE 0F FE 
  1148)      1539.6  Rx         04B0  8  4D 00 80 00 20 00 00 FD 
  1149)      1543.3  Rx         0041  8  00 00 00 00 00 00 00 00 
  1150)      1543.5  Rx         042C  8  84 00 00 00 38 B0 00 00 
  1151)      1545.5  Rx         0726  8  03 22 C1 9E 00 00 00 00 
  1152)      1547.7  Rx         0217  8  00 00 00 00 00 00 00 00 
  1153)      1548.0  Rx         0083  8  0F E0 80 00 00 00 00 00 
  1154)      1553.5  Rx         0242  8  03 C7 1F EB C6 00 03 00 
  1155)      1554.1  Rx         072E  8  04 62 C1 9E 00 00 00 00 
  1156)      1557.7  Rx         0076  8  3E 80 40 00 00 00 00 00 
  1157)      1557.9  Rx         0077  8  00 00 0F FE 7F FF FB FE 
  1158)      1558.2  Rx         007D  8  00 00 FC 30 00 3F EF FE 
  1159)      1558.4  Rx         0213  8  FF FF 00 00 80 11 FF 41 
  1160)      1558.9  Rx         0216  8  00 00 00 00 AA 00 00 00 
  1161)      1559.1  Rx         0217  8  00 00 00 00 00 00 00 00 
  1162)      1559.4  Rx         0415  8  00 00 F8 EE 0F FE 0F FE 
  1163)      1559.7  Rx         0416  8  62 20 FC 08 01 02 40 00 
  1164)      1559.9  Rx         04B0  8  4D 00 80 00 30 00 00 FC 
  1165)      1563.3  Rx         0041  8  00 00 00 00 00 00 00 00 
  1166)      1565.5  Rx         0726  8  03 22 C0 03 00 00 00 00 
  1167)      1566.3  Rx         0430  8  00 00 82 08 64 01 00 00 
  1168)      1566.5  Rx         0434  8  26 5B 10 09 0F FF 02 00 
  1169)      1566.7  Rx         0435  8  28 20 10 11 4E 00 00 00 
  1170)      1567.7  Rx         0217  8  00 00 00 00 00 00 00 00 
  1171)      1572.0  Rx         0455  8  00 00 00 00 00 00 00 00 
  1172)      1574.0  Rx         072E  8  04 62 C0 03 00 00 00 00 
  1173)      1577.7  Rx         0076  8  3E 80 40 00 00 00 00 00 
  1174)      1577.9  Rx         0077  8  00 00 0F FE 7F FF FB FE 
  1175)      1578.2  Rx         007D  8  00 00 FB 40 00 3F EF FE 
  1176)      1578.4  Rx         0213  8  FF FF 00 00 80 11 FF 41 
  1177)      1578.9  Rx         0216  8  00 00 00 00 AA 00 00 00 
  1178)      1579.2  Rx         0217  8  00 00 00 00 00 00 00 00 
  1179)      1579.4  Rx         0415  8  00 00 FC ED 0F FE 0F FE 
  1180)      1579.7  Rx         04B0  8  4D 00 80 00 40 00 00 FB 
  1181)      1583.4  Rx         0041  8  00 00 00 00 00 00 00 00 
  1182)      1585.5  Rx         0726  8  03 22 41 A9 00 00 00 00 
  1183)      1587.7  Rx         0217  8  00 00 00 00 00 00 00 00 
  1184)      1593.3  Rx         0242  8  03 C7 1F EB C6 00 03 00 
  1185)      1593.6  Rx         038D  8  20 00 00 00 00 00 00 00 
  1186)      1593.8  Rx         03B6  8  08 00 03 00 00 00 00 00 
  1187)      1594.0  Rx         03B7  8  00 00 01 00 63 B9 61 9D 
  1188)      1594.3  Rx         03B8  8  FF FF FF FF 00 00 00 00 
  1189)      1594.6  Rx         03E3  8  00 01 04 11 80 01 00 00 
  1190)      1594.8  Rx         03EB  8  01 04 14 00 00 10 00 00 
  1191)      1595.0  Rx         040A  8  C1 04 01 75 07 F9 55 C2 
  1192)      1595.3  Rx         042C  8  84 00 00 00 38 B0 00 00 
  1193)      1595.5  Rx         043C  8  31 78 44 44 2B D9 88 14 
  1194)      1595.7  Rx         0447  8  21 00 00 4B 02 00 00 00 
  1195)      1596.0  Rx         072E  8  07 62 41 A9 01 08 00 00 
  1196)      1597.7  Rx         0076  8  3E 80 40 00 00 00 00 00 
  1197)      1597.9  Rx         0077  8  00 00 0F FE 7F FF FB FE 
  1198)      1598.2  Rx         007D  8  00 00 FA 50 00 3F EF FE 
  1199)      1598.4  Rx         0213  8  FF FF 00 00 80 11 FF 41 
  1200)      1598.9  Rx         0216  8  00 00 00 00 AA 00 00 00 
  1201)      1599.2  Rx         0217  8  00 00 00 00 00 00 00 00 
  1202)      1599.4  Rx         0415  8  00 00 C0 FC 0F FE 0F FE 
  1203)      1599.7  Rx         04B0  8  4D 00 80 00 50 00 00 FA 
  1204)      1602.4  Rx         0326  8  01 90 02 85 01 90 00 00 
  1205)      1603.3  Rx         0041  8  00 00 00 00 00 00 00 00 
  1206)      1607.5  Rx         0726  8  03 22 41 A9 00 00 00 00 
  1207)      1607.7  Rx         0217  8  00 00 00 00 00 00 00 00 
  1208)      1614.1  Rx         072E  8  07 62 41 A9 01 08 00 00 
  1209)      1617.7  Rx         0076  8  3E 80 40 00 00 00 00 00 
  1210)      1617.9  Rx         0077  8  00 00 0F FE 7F FF FB FE 
  1211)      1618.2  Rx         007D  8  00 00 F9 60 00 3F EF FE 
  1212)      1618.4  Rx         0213  8  FF FF 00 00 80 11 FF 41 
  1213)      1618.9  Rx         0216  8  00 00 00 00 AA 00 00 00 
  1214)      1619.1  Rx         0217  8  00 00 00 00 00 00 00 00 
  1215)      1619.4  Rx         0415  8  00 00 C4 FB 0F FE 0F FE 
  1216)      1619.6  Rx         04B0  8  4D 00 80 00 60 00 00 F9 
  1217)      1623.2  Rx         0041  8  00 00 00 00 00 00 00 00 
  1218)      1625.5  Rx         0726  8  03 22 41 A9 00 00 00 00 
  1219)      1627.7  Rx         0217  8  00 00 00 00 00 00 00 00 
  1220)      1633.3  Rx         0242  8  03 C7 1F EB C6 00 03 00 
  1221)      1633.9  Rx         072E  8  07 62 41 A9 01 08 00 00 
  1222)      1637.7  Rx         0076  8  3E 80 40 00 00 00 00 00 
  1223)      1637.9  Rx         0077  8  00 00 0F FE 7F FF FB FE 
  1224)      1638.2  Rx         007D  8  00 00 F8 70 00 3F EF FE 
  1225)      1638.4  Rx         0213  8  FF FF 00 00 80 11 FF 41 
  1226)      1638.9  Rx         0216  8  00 00 00 00 AA 00 00 00 
  1227)      1639.1  Rx         0217  8  00 00 00 00 00 00 00 00 
  1228)      1639.4  Rx         0415  8  00 00 C8 FA 0F FE 0F FE 
  1229)      1639.7  Rx         04B0  8  4D 00 80 00 70 00 00 F8 
  1230)      1643.4  Rx         0041  8  00 00 00 00 00 00 00 00 
  1231)      1643.7  Rx         03B4  8  40 11 11 FF 20 20 00 00 
  1232)      1643.9  Rx         042C  8  84 00 00 00 38 B0 00 00 
  1233)      1645.5  Rx         0726  8  03 22 41 A9 00 00 00 00 
  1234)      1647.7  Rx         0083  8  0F E0 80 00 00 00 00 00 
  1235)      1647.9  Rx         0217  8  00 00 00 00 00 00 00 00 
  1236)      1653.3  Rx         03B5  8  00 EE 00 EE 00 F3 00 F3 
  1237)      1653.9  Rx         072E  8  07 62 41 A9 01 08 00 00 
  1238)      1657.7  Rx         0076  8  3E 80 40 00 00 00 00 00 
  1239)      1657.9  Rx         0077  8  00 00 0F FE 7F FF FB FE 
  1240)      1658.1  Rx         007D  8  00 00 F7 80 00 3F EF FE 
  1241)      1658.4  Rx         0213  8  FF FF 00 00 80 11 FF 41 
  1242)      1658.9  Rx         0216  8  00 00 00 00 AA 00 00 00 
  1243)      1659.1  Rx         0217  8  00 00 00 00 00 00 00 00 
  1244)      1659.4  Rx         0415  8  00 00 CC F9 0F FE 0F FE 
  1245)      1659.6  Rx         0416  8  63 20 FB 08 01 02 40 00 
  1246)      1659.8  Rx         04B0  8  4D 00 80 00 80 00 00 F7 
  1247)      1663.3  Rx         0041  8  00 00 00 00 00 00 00 00 
  1248)      1665.5  Rx         0726  8  03 22 41 A9 00 00 00 00 
  1249)      1666.2  Rx         0430  8  00 00 82 08 64 01 00 00 
  1250)      1666.5  Rx         0434  8  26 5B 10 09 0F FF 02 00 
  1251)      1666.7  Rx         0435  8  28 20 10 11 4E 00 00 00 
  1252)      1667.7  Rx         0217  8  00 00 00 00 00 00 00 00 
  1253)      1671.9  Rx         03E2  8  00 00 00 00 80 00 00 00 
  1254)      1672.1  Rx         03EA  8  00 00 00 00 00 00 60 00 
  1255)      1672.4  Rx         0455  8  00 00 00 00 00 00 00 00 
  1256)      1673.5  Rx         0242  8  03 C7 1F E8 C6 00 03 00 
  1257)      1673.8  Rx         03C7  8  00 00 08 06 00 00 00 00 
  1258)      1674.3  Rx         072E  8  07 62 41 A9 01 08 00 00 
  1259)      1677.7  Rx         0076  8  3E 80 40 00 00 00 00 00 
  1260)      1677.9  Rx         0077  8  00 00 0F FE 7F FF FB FE 
  1261)      1678.1  Rx         007D  8  00 00 F6 90 00 3F EF FE 
  1262)      1678.4  Rx         0213  8  FF FF 00 00 80 11 FF 41 
  1263)      1678.9  Rx         0216  8  00 00 00 00 AA 00 00 00 
  1264)      1679.1  Rx         0217  8  00 00 00 00 00 00 00 00 
  1265)      1679.4  Rx         0415  8  00 00 D0 F8 0F FE 0F FE 
  1266)      1679.6  Rx         04B0  8  4D 00 80 00 90 00 00 F6 
  1267)      1683.3  Rx         0041  8  00 00 00 00 00 00 00 00 
  1268)      1685.5  Rx         0726  8  03 22 41 A9 00 00 00 00 
  1269)      1687.7  Rx         0217  8  00 00 00 00 00 00 00 00 
  1270)      1693.3  Rx         03B3  8  10 40 02 00 E6 05 80 28 
  1271)      1693.6  Rx         03C3  8  40 08 00 00 00 00 81 00 
  1272)      1693.8  Rx         042C  8  84 00 00 00 38 B0 00 00 
  1273)      1694.1  Rx         072E  8  07 62 41 A9 01 08 00 00 
  1274)      1697.7  Rx         0076  8  3E 80 40 00 00 00 00 00 
  1275)      1697.9  Rx         0077  8  00 00 0F FE 7F FF FB FE 
  1276)      1698.1  Rx         007D  8  00 00 F5 A0 00 3F EF FE 
  1277)      1698.4  Rx         0213  8  FF FF 00 00 80 11 FF 41 
  1278)      1698.9  Rx         0216  8  00 00 00 00 AA 00 00 00 
  1279)      1699.1  Rx         0217  8  00 00 00 00 00 00 00 00 
  1280)      1699.4  Rx         0415  8  00 00 D4 F7 0F FE 0F FE 
  1281)      1699.6  Rx         04B0  8  4D 00 80 00 A0 00 00 F5 
  1282)      1702.4  Rx         0326  8  01 90 02 85 01 90 00 00 
  1283)      1703.5  Rx         0041  8  00 00 00 00 00 00 00 00 
  1284)      1705.5  Rx         0726  8  03 22 41 A9 00 00 00 00 
  1285)      1707.7  Rx         0217  8  00 00 00 00 00 00 00 00 
  1286)      1713.3  Rx         0242  8  03 C7 1F E8 C6 00 03 00 
  1287)      1713.9  Rx         072E  8  07 62 41 A9 01 08 00 00 
  1288)      1717.6  Rx         0076  8  3E 80 40 00 00 00 00 00 
  1289)      1717.9  Rx         0077  8  00 00 0F FE 7F FF FB FE 
  1290)      1718.2  Rx         007D  8  00 00 F4 B0 00 3F EF FE 
  1291)      1718.4  Rx         0213  8  FF FF 00 00 80 11 FF 41 
  1292)      1718.8  Rx         0216  8  00 00 00 00 AA 00 00 00 
  1293)      1719.1  Rx         0217  8  00 00 00 00 00 00 00 00 
  1294)      1719.4  Rx         0415  8  00 00 D8 F6 0F FE 0F FE 
  1295)      1719.6  Rx         04B0  8  4D 00 80 00 B0 00 00 F4 
  1296)      1723.5  Rx         0041  8  00 00 00 00 00 00 00 00 
  1297)      1723.7  Rx         0331  8  C0 2C D8 B4 02 B7 08 00 
  1298)      1724.0  Rx         03B3  8  40 40 02 00 E6 05 80 2A 
  1299)      1724.2  Rx         03B4  8  18 11 11 FF 20 20 00 00 
  1300)      1724.5  Rx         03C3  8  40 08 10 00 00 00 81 00 
  1301)      1725.5  Rx         0726  8  03 22 41 A9 00 00 00 00 
  1302)      1727.7  Rx         0217  8  00 00 00 00 00 00 00 00 
  1303)      1733.7  Rx         038D  8  20 00 00 00 C0 00 00 00 
  1304)      1734.4  Rx         072E  8  07 62 41 A9 01 08 00 00 
  1305)      1737.6  Rx         0076  8  3E 80 40 00 00 00 00 00 
  1306)      1737.9  Rx         0077  8  00 00 0F FE 7F FF FB FE 
  1307)      1738.1  Rx         007D  8  00 00 F3 C0 00 3F EF FE 
  1308)      1738.4  Rx         0213  8  FF FF 00 00 80 11 FF 41 
  1309)      1738.8  Rx         0216  8  00 00 00 00 AA 00 00 00 
  1310)      1739.1  Rx         0217  8  00 00 00 00 00 00 00 00 
  1311)      1739.4  Rx         0415  8  00 00 DC F5 0F FE 0F FE 
  1312)      1739.6  Rx         04B0  8  4D 00 80 00 C0 00 00 F3 
  1313)      1743.2  Rx         0041  8  00 00 00 00 00 00 00 00 
  1314)      1743.5  Rx         042C  8  84 00 00 00 38 B0 00 00 
  1315)      1745.5  Rx         0726  8  03 22 41 A9 00 00 00 00 
  1316)      1747.6  Rx         0083  8  0F E0 80 00 00 00 00 00 
  1317)      1747.9  Rx         0217  8  00 00 00 00 00 00 00 00 
  1318)      1748.1  Rx         05C7  8  C7 00 FF FF FF FF FF FF 
  1319)      1753.3  Rx         0242  8  03 C7 1F E8 C6 00 03 01 
  1320)      1753.5  Rx         0331  8  C0 2C D8 B4 02 B7 08 04 
  1321)      1753.7  Rx         03B3  8  40 48 02 00 E6 05 80 2A 
  1322)      1754.0  Rx         03C3  8  40 08 10 01 00 00 81 00 
  1323)      1754.2  Rx         072E  8  07 62 41 A9 01 08 00 00 
  1324)      1755.9  Rx         059E  8  9E 00 FF FF FF FF FF FF 
  1325)      1757.5  Rx         0076  8  3E 80 40 00 00 00 00 00 
  1326)      1757.7  Rx         0077  8  00 00 0F FE 7F FF FB FE 
  1327)      1758.0  Rx         007D  8  00 00 F2 D0 00 3F EF FE 
  1328)      1758.2  Rx         0213  8  FF FF 00 00 80 11 FF 41 
  1329)      1758.7  Rx         0216  8  00 00 00 00 AA 00 00 00 
  1330)      1758.9  Rx         0217  8  00 00 00 00 00 00 00 00 
  1331)      1759.2  Rx         0415  8  00 00 E0 F4 0F FE 0F FE 
  1332)      1759.5  Rx         0416  8  54 00 FA 08 01 00 00 00 
  1333)      1759.7  Rx         04B0  8  4D 00 80 00 D0 00 00 F2 
  1334)      1763.4  Rx         0041  8  20 D1 CE D4 66 09 00 00 
  1335)      1765.5  Rx         0726  8  03 22 41 A9 00 00 00 00 
  1336)      1766.5  Rx         02F1  8  00 00 40 00 50 FE 00 00 
  1337)      1766.7  Rx         0386  8  00 00 00 00 00 00 00 00 
  1338)      1767.0  Rx         0430  8  00 00 82 08 64 01 00 00 
  1339)      1767.2  Rx         0434  8  26 5B 10 09 0F FF 02 00 
  1340)      1767.5  Rx         0435  8  7C 70 10 11 4E 00 00 00 
  1341)      1767.7  Rx         0217  8  00 00 00 00 00 00 00 00 
  1342)      1767.9  Rx         0439  8  00 00 04 00 00 00 00 00 
  1343)      1770.7  Rx         03DA  8  01 00 00 00 00 00 00 00 
  1344)      1771.8  Rx         0455  8  00 00 00 00 00 00 00 00 
  1345)      1773.9  Rx         072E  8  07 62 41 A9 01 08 00 00 
  1346)      1778.2  Rx         0076  8  3E 80 40 00 00 00 00 00 
  1347)      1778.5  Rx         0077  8  00 00 0F FE 7F FF FB FE 
  1348)      1778.7  Rx         007D  8  00 00 F1 E0 00 3F EF FE 
  1349)      1779.2  Rx         0213  8  FF FF 00 00 80 11 FF 41 
  1350)      1779.7  Rx         0216  8  00 00 00 00 AA 00 00 00 
  1351)      1779.9  Rx         0217  8  00 00 00 00 00 00 00 00 
  1352)      1780.2  Rx         0415  8  00 00 E4 F3 0F FE 0F FE 
  1353)      1780.4  Rx         04B0  8  4D 00 80 00 E0 00 00 F1 
  1354)      1783.2  Rx         0041  8  20 D1 CE D4 66 09 00 00 
  1355)      1785.5  Rx         0726  8  03 22 41 A9 00 00 00 00 
  1356)      1788.2  Rx         0217  8  00 00 00 00 00 00 00 00 
  1357)      1793.4  Rx         0242  8  03 C7 1F E9 C6 00 03 01 
  1358)      1793.6  Rx         040A  8  C1 10 40 88 20 24 80 00 
  1359)      1793.9  Rx         042C  8  84 02 00 00 38 B0 00 00 
  1360)      1794.1  Rx         072E  8  07 62 41 A9 01 08 00 00 
  1361)      1797.7  Rx         0076  8  3E 80 40 00 00 00 00 00 
  1362)      1798.0  Rx         0077  8  00 00 0F FE 7F FF FB FE 
  1363)      1798.2  Rx         007D  8  00 00 F0 FF FF 3F EF FE 
  1364)      1798.5  Rx         0213  8  FF FF 00 00 80 11 FF 41 
  1365)      1799.0  Rx         0216  8  00 00 00 00 AA 00 00 00 
  1366)      1799.2  Rx         0217  8  00 00 00 00 00 00 00 00 
  1367)      1799.4  Rx         0415  8  00 00 E8 F2 0F FE 0F FE 
  1368)      1799.7  Rx         04B0  8  4D 00 80 00 F0 FF F8 D2 
  1369)      1802.3  Rx         0326  8  01 90 02 85 01 90 00 00 
  1370)      1803.3  Rx         0041  8  20 D1 CE D4 66 09 00 00 
  1371)      1804.6  Rx         0726  8  03 22 41 A9 00 00 00 00 
  1372)      1807.8  Rx         0217  8  00 00 00 00 00 00 00 00 
  1373)      1814.2  Rx         072E  8  07 62 41 A9 01 08 00 00 
  1374)      1817.7  Rx         0076  8  3E 80 40 00 00 00 00 00 
  1375)      1817.9  Rx         0077  8  00 00 0F FE 7F FF FB FE 
  1376)      1818.2  Rx         007D  8  00 00 FF 00 00 3F EF FE 
  1377)      1818.4  Rx         0213  8  FF FF 00 00 80 11 FF 41 
  1378)      1818.9  Rx         0216  8  00 00 00 00 AA 00 00 00 
  1379)      1819.1  Rx         0217  8  00 00 00 00 00 00 00 00 
  1380)      1819.4  Rx         0415  8  00 00 EC F1 0F FE 0F FE 
  1381)      1819.6  Rx         04B0  8  4D 00 80 00 00 00 00 FF 
  1382)      1823.6  Rx         0041  8  20 D1 CE D4 66 09 00 00 
  1383)      1825.5  Rx         0726  8  03 22 41 A9 00 00 00 00 
  1384)      1827.6  Rx         0217  8  00 00 00 00 00 00 00 00 
  1385)      1833.3  Rx         0242  8  03 C7 1F DE C5 00 03 01 
  1386)      1834.0  Rx         072E  8  07 62 41 A9 01 08 00 00 
  1387)      1837.6  Rx         0076  8  3E 80 40 00 00 00 00 00 
  1388)      1837.9  Rx         0077  8  00 00 0F FE 7F FF FB FE 
  1389)      1838.1  Rx         007D  8  00 00 FE 10 00 3F EF FE 
  1390)      1838.4  Rx         0213  8  FF FF 00 00 80 11 FF 41 
  1391)      1838.9  Rx         0216  8  00 00 00 00 AA 00 00 00 
  1392)      1839.1  Rx         0217  8  00 00 00 00 00 00 00 00 
  1393)      1839.3  Rx         0415  8  00 00 F0 F0 0F FE 0F FE 
  1394)      1839.6  Rx         04B0  8  4D 00 80 00 10 00 00 FE 
  1395)      1843.3  Rx         0041  8  20 D1 CE D4 66 09 00 00 
  1396)      1843.5  Rx         0331  8  C0 2C D8 B4 02 B7 08 04 
  1397)      1843.7  Rx         03B6  8  08 00 04 00 00 00 00 00 
  1398)      1843.9  Rx         03B7  8  00 00 02 00 63 B9 63 C7 
  1399)      1844.2  Rx         042C  8  84 02 00 00 38 B0 00 00 
  1400)      1844.5  Rx         0726  8  03 22 40 F0 00 00 00 00 
  1401)      1847.7  Rx         0217  8  00 00 00 00 00 00 00 00 
  1402)      1848.0  Rx         0083  8  0F E0 80 00 00 00 00 00 
  1403)      1854.0  Rx         072E  8  04 62 40 F0 02 00 00 00 
  1404)      1857.6  Rx         0076  8  3E 80 40 00 00 00 00 00 
  1405)      1857.8  Rx         0077  8  00 00 0F FE 7F FF FB FE 
  1406)      1858.1  Rx         007D  8  00 00 FD 20 00 3F EF FE 
  1407)      1858.4  Rx         0213  8  FF FF 00 00 80 11 FF 41 
  1408)      1858.8  Rx         0216  8  00 00 00 00 AA 00 00 00 
  1409)      1859.1  Rx         0217  8  00 00 00 00 00 00 00 00 
  1410)      1859.3  Rx         0415  8  00 00 F4 EF 0F FE 0F FE 
  1411)      1859.6  Rx         0416  8  55 00 F9 08 01 00 00 00 
  1412)      1859.8  Rx         04B0  8  4D 00 80 00 20 00 00 FD 
  1413)      1863.1  Rx         0041  8  20 D1 CE D4 66 09 00 00 
  1414)      1865.5  Rx         0726  8  03 22 40 F4 00 00 00 00 
  1415)      1866.3  Rx         0430  8  00 00 82 08 64 01 00 00 
  1416)      1866.5  Rx         0434  8  26 5B 10 09 0F FF 02 04 
  1417)      1866.8  Rx         0435  8  28 20 10 51 4E 00 00 00 
  1418)      1867.7  Rx         0217  8  00 00 00 00 00 00 00 00 
  1419)      1871.8  Rx         0455  8  00 00 00 00 00 00 00 00 
  1420)      1873.2  Rx         0242  8  03 C7 1F D4 C5 00 03 01 
  1421)      1873.9  Rx         072E  8  04 62 40 F4 02 00 00 00 
  1422)      1877.6  Rx         0076  8  3E 80 40 00 00 00 00 00 
  1423)      1877.9  Rx         0077  8  00 00 0F FE 7F FF FB FE 
  1424)      1878.1  Rx         007D  8  00 00 FC 30 00 3F EF FE 
  1425)      1878.4  Rx         0213  8  FF FF 00 00 80 11 FF 41 
  1426)      1878.8  Rx         0216  8  00 00 00 00 AA 00 00 00 
  1427)      1879.1  Rx         0217  8  00 00 00 00 00 00 00 00 
  1428)      1879.3  Rx         0415  8  00 00 F8 EE 0F FE 0F FE 
  1429)      1879.6  Rx         04B0  8  4D 00 80 00 30 00 00 FC 
  1430)      1883.3  Rx         0041  8  20 D1 CE D4 66 09 00 00 
  1431)      1885.4  Rx         0726  8  03 22 C2 58 00 00 00 00 
  1432)      1887.7  Rx         0217  8  00 00 00 00 00 00 00 00 
  1433)      1888.0  Rx         0087  8  00 00 00 00 00 00 00 00 
  1434)      1893.2  Rx         042C  8  84 02 00 00 38 B0 00 00 
  1435)      1893.9  Rx         072E  8  07 62 C2 58 80 00 00 00 
  1436)      1894.1  Rx         0082  8  84 00 14 40 7C 00 00 FF 
  1437)      1894.4  Rx         0085  8  FF FF 00 00 03 10 FF FE 
  1438)      1896.7  Rx         03C8  8  00 00 00 00 00 00 50 00 
  1439)      1897.0  Rx         0092  8  3F FE 3F FE 3F FE A5 00 
  1440)      1897.3  Rx         03E0  8  00 00 00 00 80 00 00 00 
  1441)      1897.7  Rx         0076  8  3E 80 40 00 00 00 00 00 
  1442)      1897.9  Rx         0077  8  00 00 0F FE 7F FF FB FE 
  1443)      1898.2  Rx         007D  8  00 00 FB 40 00 3F EF FE 
  1444)      1898.4  Rx         0213  8  FF FF 00 00 80 11 FF 41 
  1445)      1898.9  Rx         0216  8  00 00 00 00 AA 00 00 00 
  1446)      1899.1  Rx         0217  8  00 00 00 00 00 00 00 00 
  1447)      1899.4  Rx         0415  8  00 00 FC ED 0F FE 0F FE 
  1448)      1899.6  Rx         04B0  8  4D 00 80 00 40 00 00 FB 
  1449)      1902.2  Rx         0326  8  01 90 02 85 01 90 00 00 
  1450)      1902.9  Rx         0085  8  FF FF 00 00 02 20 FF FE 
  1451)      1903.3  Rx         0041  8  20 D1 CE D4 66 09 00 00 
  1452)      1904.6  Rx         0726  8  03 22 C2 58 00 00 00 00 
  1453)      1907.7  Rx         0217  8  00 00 00 00 00 00 00 00 
  1454)      1913.3  Rx         0082  8  84 00 14 40 7C 00 00 FF 
  1455)      1913.6  Rx         0242  8  03 C7 1F CC C5 00 03 01 
  1456)      1913.8  Rx         0085  8  7C FF 80 00 FF 30 7D 05 
  1457)      1914.2  Rx         072E  8  07 62 C2 58 80 00 00 00 
  1458)      1917.7  Rx         0076  8  3E 80 40 00 00 00 00 00 
  1459)      1917.9  Rx         0077  8  00 00 0F FE 7F FF FB FE 
  1460)      1918.2  Rx         007D  8  00 00 FA 50 00 3F EF FE 
  1461)      1918.4  Rx         0213  8  FF FF 00 00 80 11 FF 41 
  1462)      1918.9  Rx         0216  8  00 00 00 00 AA 00 00 00 
  1463)      1919.1  Rx         0217  8  00 00 00 00 00 00 00 00 
  1464)      1919.4  Rx         0415  8  00 00 C0 FC 0F FE 0F FE 
  1465)      1919.6  Rx         04B0  8  4D 00 80 00 50 00 00 FA 
  1466)      1922.9  Rx         0085  8  7C FF 80 00 FE 40 7D 05 
  1467)      1923.2  Rx         0041  8  20 D1 CE D4 66 09 00 00 
  1468)      1925.4  Rx         0726  8  03 22 C2 58 00 00 00 00 
  1469)      1927.7  Rx         0217  8  00 00 00 00 00 00 00 00 
  1470)      1933.3  Rx         0082  8  84 00 14 40 7C 00 00 FF 
  1471)      1933.5  Rx         0085  8  7C FF 80 00 FD 50 7D 05 
  1472)      1933.9  Rx         072E  8  07 62 C2 58 80 00 00 00 
  1473)      1937.7  Rx         0076  8  3E 80 40 00 00 00 00 00 
  1474)      1938.0  Rx         0077  8  00 00 0F FE 7F FF FB FE 
  1475)      1938.2  Rx         007D  8  00 00 F9 60 00 3F EF FE 
  1476)      1938.4  Rx         0213  8  FF FF 00 00 80 11 FF 41 
  1477)      1938.9  Rx         0216  8  00 00 00 00 AA 00 00 00 
  1478)      1939.2  Rx         0217  8  00 00 00 00 00 00 00 00 
  1479)      1939.4  Rx         0415  8  00 00 C4 FB 0F FE 0F FE 
  1480)      1939.6  Rx         04B0  8  4D 00 80 00 60 00 00 F9 
  1481)      1942.9  Rx         0085  8  7C FF 80 00 FC 60 7D 05 
  1482)      1943.3  Rx         0041  8  20 D1 CE D4 66 09 00 00 
  1483)      1943.5  Rx         042C  8  84 02 00 00 38 B0 00 00 
  1484)      1945.4  Rx         0726  8  03 22 C2 58 00 00 00 00 
  1485)      1947.4  Rx         0083  8  0F E0 80 00 00 00 00 00 
  1486)      1947.7  Rx         0217  8  00 00 00 00 00 00 00 00 
  1487)      1953.4  Rx         0082  8  8A 00 14 40 7C 00 00 FF 
  1488)      1953.6  Rx         0242  8  03 C7 1F C6 C5 00 03 01 
  1489)      1953.8  Rx         0085  8  7C FF 80 00 FB 70 7D 05 
  1490)      1954.1  Rx         072E  8  07 62 C2 58 80 00 00 00 
  1491)      1957.7  Rx         0076  8  3E 80 40 00 00 00 00 00 
  1492)      1957.9  Rx         0077  8  00 00 0F FE 7F FF FB FE 
  1493)      1958.2  Rx         007D  8  00 00 F8 70 00 3F EF FE 
  1494)      1958.4  Rx         0213  8  FF FF 00 00 80 11 FF 41 
  1495)      1958.9  Rx         0216  8  00 00 00 00 AA 00 00 00 
  1496)      1959.1  Rx         0217  8  00 00 00 00 00 00 00 00 
  1497)      1959.4  Rx         0415  8  00 00 C8 FA 0F FE 0F FE 
  1498)      1959.6  Rx         0416  8  56 00 F8 08 01 00 00 00 
  1499)      1959.9  Rx         04B0  8  4D 00 80 00 70 00 00 F8 
  1500)      1962.9  Rx         0085  8  7C FF 80 00 FA 80 7D 05 
  1501)      1963.2  Rx         0041  8  20 D1 CE D4 66 09 00 00 
  1502)      1963.5  Rx         004A  8  02 00 00 00 00 00 00 00 
  1503)      1963.7  Rx         004B  8  00 C0 D8 D8 D8 D8 C0 00 
  1504)      1964.0  Rx         004C  8  70 FF FF 00 00 00 00 00 
  1505)      1965.4  Rx         0726  8  03 22 C2 58 00 00 00 00 
  1506)      1966.4  Rx         0430  8  02 00 82 08 64 01 13 91 
  1507)      1966.6  Rx         0434  8  26 5B 14 0A 0F FF 02 20 
  1508)      1966.8  Rx         0435  8  28 20 18 19 4E 20 09 02 
  1509)      1967.7  Rx         0217  8  00 00 00 00 00 00 00 00 
