;$FILEVERSION=1.1
;$STARTTIME=45866.8294321528
;
;   Start time: 7/28/2025 19:54:22.938.0
;   Generated by PCAN-View v4.3.4.615
;
;   Message Number
;   |         Time Offset (ms)
;   |         |        Type
;   |         |        |        ID (hex)
;   |         |        |        |     Data Length
;   |         |        |        |     |   Data Bytes (hex) ...
;   |         |        |        |     |   |
;---+--   ----+----  --+--  ----+---  +  -+ -- -- -- -- -- -- --
     1)       776.5  Rx         0216  8  00 00 00 00 AA 00 00 00 
     2)       776.8  Rx         0217  8  00 00 00 00 00 00 00 00 
     3)       777.0  Rx         0047  8  20 00 00 00 00 00 00 00 
     4)       777.3  Rx         0165  8  10 40 00 00 00 00 00 00 
     5)       777.5  Rx         0167  8  00 80 35 00 00 1A 4E 00 
     6)       777.7  Rx         0171  8  F0 E0 00 00 00 00 00 00 
     7)       778.0  Rx         0200  8  00 00 80 0C 80 0C 00 00 
     8)       778.3  Rx         0202  8  00 F1 58 00 60 00 00 00 
     9)       778.5  Rx         0204  8  C0 00 7D 00 00 00 00 00 
    10)       778.7  Rx         0230  8  F0 1C 00 00 62 00 00 00 
    11)       779.0  Rx         0415  8  00 00 DC F5 0F FE 0F FE 
    12)       779.2  Rx         042F  8  7D 0C 00 38 46 25 00 00 
    13)       779.4  Rx         04B0  8  9D 00 80 00 20 00 00 FD 
    14)       783.5  Rx         0085  8  7C FF 80 00 83 40 FF FE 
    15)       785.0  Rx         0217  8  00 00 00 00 00 00 00 00 
    16)       786.8  Rx         0167  8  00 80 35 00 00 1A 4E 00 
    17)       787.0  Rx         0204  8  C0 00 7D 00 00 00 00 00 
    18)       789.9  Rx         0041  8  00 00 00 00 00 00 00 00 
    19)       790.2  Rx         0042  8  00 00 00 00 00 00 00 00 
    20)       791.6  Rx         0430  8  02 00 E3 99 8A 01 13 91 
    21)       791.8  Rx         0434  8  27 E8 14 0A 0F FF 00 20 
    22)       792.1  Rx         0435  8  28 20 10 92 09 20 09 02 
    23)       793.9  Rx         0082  8  7C 00 14 40 75 00 00 FF 
    24)       794.2  Rx         0085  8  7C FF 80 00 82 50 FF FE 
    25)       794.9  Rx         0076  8  3E 80 40 00 00 00 00 00 
    26)       795.1  Rx         0077  8  00 00 07 FF 7F F7 ED FF 
    27)       795.4  Rx         007D  8  00 00 FC 30 00 1F E8 00 
    28)       795.6  Rx         0213  8  FF FF 00 00 80 11 FF 41 
    29)       796.5  Rx         0216  8  00 00 00 00 AA 00 00 00 
    30)       796.8  Rx         0217  8  00 00 00 00 00 00 00 00 
    31)       797.0  Rx         0047  8  20 00 00 00 00 00 00 00 
    32)       797.3  Rx         0165  8  10 40 00 00 00 00 00 00 
    33)       797.5  Rx         0167  8  00 80 35 00 00 1A 4E 00 
    34)       797.8  Rx         0200  8  00 00 80 0C 80 0C 00 00 
    35)       798.0  Rx         0202  8  00 EF 68 00 60 00 00 00 
    36)       798.3  Rx         0204  8  C0 00 7D 00 00 00 00 00 
    37)       798.5  Rx         0230  8  F0 1C 00 00 62 00 00 00 
    38)       798.7  Rx         0415  8  00 00 E0 F4 0F FE 0F FE 
    39)       799.0  Rx         0416  8  5B 00 F3 00 01 00 00 00 
    40)       799.2  Rx         04B0  8  9D 00 80 00 30 00 08 FB 
    41)       803.6  Rx         0085  8  7C FF 80 00 81 60 FF FE 
    42)       804.9  Rx         0217  8  00 00 00 00 00 00 00 00 
    43)       806.8  Rx         0167  8  00 80 35 00 00 1A 4E 00 
    44)       807.0  Rx         0171  8  F0 E0 00 00 00 00 00 00 
    45)       807.3  Rx         0204  8  C0 00 7D 00 00 00 00 00 
    46)       807.5  Rx         042F  8  7D 0C 00 38 46 25 00 00 
    47)       807.8  Rx         043D  8  10 00 00 00 00 00 00 00 
    48)       808.0  Rx         043E  8  00 37 10 8C 89 3F 38 09 
    49)       810.0  Rx         0041  8  00 00 00 00 00 00 00 00 
    50)       810.2  Rx         0042  8  00 00 00 00 00 00 00 00 
    51)       810.5  Rx         0242  8  02 5E 1F 64 BE 00 00 01 
    52)       810.7  Rx         0331  8  C0 00 75 5B 64 04 10 02 
    53)       810.9  Rx         040A  8  C0 00 00 B4 AC 00 AF 00 
    54)       811.2  Rx         042C  8  8C 00 00 00 DB 40 00 00 
    55)       813.9  Rx         0082  8  7C 00 14 40 75 00 00 FF 
    56)       814.1  Rx         0085  8  7C FF 80 00 80 70 FF FE 
    57)       814.8  Rx         0076  8  3E 80 40 00 00 00 00 00 
    58)       815.1  Rx         0077  8  00 00 08 00 7F F7 E9 FF 
    59)       815.3  Rx         007D  8  00 00 FB 40 00 20 27 FF 
    60)       815.6  Rx         0326  8  01 A0 02 6A 01 D0 00 00 
    61)       815.8  Rx         0213  8  FF FF 00 00 80 11 FF 41 
    62)       816.5  Rx         0216  8  00 00 00 00 AA 00 00 00 
    63)       816.8  Rx         0217  8  00 00 00 00 00 00 00 00 
    64)       817.0  Rx         0047  8  20 00 00 00 00 00 00 00 
    65)       817.3  Rx         0165  8  10 40 00 00 00 00 00 00 
    66)       817.5  Rx         0167  8  00 80 35 00 00 1A 4E 00 
    67)       817.7  Rx         0200  8  00 00 80 0C 80 0C 00 00 
    68)       818.0  Rx         0202  8  00 ED 78 00 60 00 00 00 
    69)       818.2  Rx         0204  8  C0 00 7D 00 00 00 00 00 
    70)       818.5  Rx         0230  8  F0 1C 00 00 62 00 00 00 
    71)       818.7  Rx         0415  8  00 00 E4 F3 0F FE 0F FE 
    72)       819.0  Rx         04B0  8  9D 00 80 00 40 00 00 FB 
    73)       823.5  Rx         0085  8  7C FF 80 00 7F 80 FF FE 
    74)       824.9  Rx         0217  8  00 00 00 00 00 00 00 00 
    75)       826.8  Rx         0167  8  00 80 35 00 00 1A 4E 00 
    76)       827.0  Rx         0204  8  C0 00 7D 00 00 00 00 00 
    77)       827.9  Rx         0455  8  A0 00 00 00 00 00 00 00 
    78)       830.0  Rx         0041  8  00 00 00 00 00 00 00 00 
    79)       830.2  Rx         0042  8  00 00 00 00 00 00 00 00 
    80)       833.9  Rx         0082  8  7B 00 14 40 75 00 00 FF 
    81)       834.2  Rx         0085  8  7C FF 80 00 7E 90 FF FE 
    82)       834.8  Rx         0076  8  3E 80 40 00 00 00 00 00 
    83)       835.1  Rx         0077  8  00 00 08 00 7F F7 E5 FF 
    84)       835.3  Rx         007D  8  00 00 FA 50 00 1F F7 FF 
    85)       835.5  Rx         0213  8  FF FF 00 00 80 11 FF 41 
    86)       836.5  Rx         0216  8  00 00 00 00 AA 00 00 00 
    87)       836.7  Rx         0217  8  00 00 00 00 00 00 00 00 
    88)       837.0  Rx         0047  8  20 00 00 00 00 00 00 00 
    89)       837.2  Rx         0165  8  10 40 00 00 00 00 00 00 
    90)       837.5  Rx         0167  8  00 80 35 00 00 1A 4E 00 
    91)       837.7  Rx         0171  8  F0 E0 00 00 00 00 00 00 
    92)       838.0  Rx         0200  8  00 00 80 0C 80 0C 00 00 
    93)       838.2  Rx         0202  8  00 FB 08 00 60 00 00 00 
    94)       838.5  Rx         0204  8  C0 00 7D 00 00 00 00 00 
    95)       838.7  Rx         0230  8  F0 1C 00 00 62 00 00 00 
    96)       838.9  Rx         0415  8  00 00 E8 F2 0F FE 0F FE 
    97)       839.2  Rx         042F  8  7D 0C 00 38 46 25 00 00 
    98)       839.4  Rx         04B0  8  9D 00 80 00 50 00 08 F9 
    99)       843.5  Rx         0085  8  7C FF 80 00 7D A0 FF FE 
   100)       844.5  Rx         03DA  8  00 00 00 00 00 00 00 00 
   101)       845.0  Rx         0217  8  00 00 00 00 00 00 00 00 
   102)       845.6  Rx         004A  8  02 00 00 00 00 00 00 00 
   103)       845.8  Rx         004B  8  00 C0 D8 D8 D8 D8 C0 00 
   104)       846.1  Rx         004C  8  20 AF FF 00 00 00 00 00 
   105)       846.8  Rx         0167  8  00 80 35 00 00 1A 4E 00 
   106)       847.1  Rx         0204  8  C0 00 7D 00 00 00 00 00 
   107)       850.0  Rx         0041  8  00 00 00 00 00 00 00 00 
   108)       850.3  Rx         0042  8  00 00 00 00 00 00 00 00 
   109)       850.5  Rx         0083  8  00 E0 80 00 00 00 00 00 
   110)       850.8  Rx         0242  8  02 5E 1F 64 BE 00 00 01 
   111)       853.9  Rx         0082  8  7B 00 14 40 75 00 00 FF 
   112)       854.1  Rx         0085  8  7C FF 80 00 7C B0 FF FE 
   113)       854.8  Rx         0076  8  3E 80 40 00 00 00 00 00 
   114)       855.0  Rx         0077  8  00 00 08 00 7F F7 ED FF 
   115)       855.3  Rx         007D  8  00 00 F9 60 00 1F E8 00 
   116)       855.6  Rx         0213  8  FF FF 00 00 80 11 FF 41 
   117)       856.5  Rx         0216  8  00 00 00 00 AA 00 00 00 
   118)       856.7  Rx         0092  8  6F AF 6F 91 73 54 4B E6 
   119)       857.0  Rx         0047  8  20 00 00 00 00 00 00 00 
   120)       857.2  Rx         0156  8  89 5D 00 00 03 00 00 00 
   121)       857.5  Rx         0165  8  10 40 00 00 00 00 00 00 
   122)       857.7  Rx         0166  8  00 00 00 00 8A 75 00 00 
   123)       857.9  Rx         0167  8  00 80 35 00 00 1A 4E 00 
   124)       858.2  Rx         0178  8  00 00 02 00 0E 79 DE 79 
   125)       858.4  Rx         0179  8  00 00 00 00 82 00 00 00 
   126)       858.7  Rx         0200  8  00 00 80 0C 80 0C 00 00 
   127)       858.9  Rx         0202  8  00 F9 18 00 60 00 00 00 
   128)       859.2  Rx         0204  8  C0 00 7D 00 00 00 00 00 
   129)       859.4  Rx         0217  8  00 00 00 00 00 00 00 00 
   130)       859.6  Rx         0230  8  F0 1C 00 00 62 00 00 00 
   131)       859.9  Rx         0415  8  00 00 EC F1 0F FE 0F FE 
   132)       860.1  Rx         0331  8  C0 00 75 5B 64 04 10 02 
   133)       860.4  Rx         03B6  8  08 00 00 00 24 31 91 44 
   134)       860.6  Rx         03B7  8  00 00 00 00 60 9D 4F 0A 
   135)       860.8  Rx         0421  8  04 00 14 00 00 00 3C 00 
   136)       861.1  Rx         0424  8  00 FF A0 00 00 00 00 00 
   137)       861.4  Rx         042C  8  8C 00 00 00 DB 40 00 00 
   138)       861.6  Rx         042D  8  00 02 B6 00 00 00 F0 00 
   139)       861.8  Rx         043D  8  10 00 00 00 00 00 00 00 
   140)       862.1  Rx         043E  8  00 37 10 8C 89 3F 38 09 
   141)       862.3  Rx         04B0  8  9D 00 80 00 60 00 08 F8 
   142)       863.5  Rx         0085  8  7C FF 80 00 7B C0 FF FE 
   143)       864.9  Rx         0217  8  00 00 00 00 00 00 00 00 
   144)       866.8  Rx         0167  8  00 80 35 00 00 1A 4E 00 
   145)       867.0  Rx         0171  8  F0 E0 00 00 00 00 00 00 
   146)       867.3  Rx         0204  8  C0 00 7D 00 00 00 00 00 
   147)       867.5  Rx         042F  8  7D 0C 00 38 46 25 00 00 
   148)       869.9  Rx         0041  8  00 00 00 00 00 00 00 00 
   149)       870.2  Rx         0042  8  00 00 00 00 00 00 00 00 
   150)       960.4  Rx         0424  8  00 FF A0 00 00 00 00 00 
   151)       960.6  Rx         042C  8  8C 00 00 00 DB 40 00 00 
   152)       960.9  Rx         042D  8  00 02 B6 00 00 00 F0 00 
   153)       961.1  Rx         042F  8  7D 0C 00 38 46 25 00 00 
   154)       961.4  Rx         043D  8  10 00 00 00 00 00 00 00 
   155)       961.6  Rx         043E  8  00 37 10 8C 89 3F 38 09 
   156)       961.8  Rx         04B0  8  9D 00 80 00 B0 00 00 F4 
   157)       962.1  Rx         0092  8  6F AE 6F 8E 73 5F 12 18 
   158)       963.6  Rx         0085  8  7C FF 80 00 81 60 FF FE 
   159)       965.0  Rx         0217  8  00 00 00 00 00 00 00 00 
   160)       966.8  Rx         0167  8  00 80 35 00 00 1A 4E 00 
   161)       967.0  Rx         0204  8  C0 00 7D 00 00 00 00 00 
   162)       969.9  Rx         0041  8  00 00 00 00 00 00 00 00 
   163)       970.2  Rx         0042  8  00 00 00 00 00 00 00 00 
   164)       970.4  Rx         0242  8  02 5E 1F 64 BE 00 00 01 
   165)       974.0  Rx         0082  8  7B 00 14 40 75 00 00 FF 
   166)       974.2  Rx         0085  8  7C FF 80 00 80 70 FF FE 
   167)       974.8  Rx         0076  8  3E 80 40 00 00 00 00 00 
   168)       975.1  Rx         0077  8  00 00 08 00 7F F7 E9 FF 
   169)       975.3  Rx         007D  8  00 00 F3 C0 00 20 07 FE 
   170)       976.0  Rx         0213  8  FF FF 00 00 80 11 FF 41 
   171)       976.5  Rx         0216  8  00 00 00 00 AA 00 00 00 
   172)       976.7  Rx         0217  8  00 00 00 00 00 00 00 00 
   173)       977.0  Rx         0047  8  20 00 00 00 00 00 00 00 
   174)       977.2  Rx         0165  8  10 40 00 00 00 00 00 00 
   175)       977.5  Rx         0167  8  00 80 35 00 00 1A 4E 00 
   176)       977.7  Rx         0200  8  00 00 80 0C 80 0C 00 00 
   177)       978.0  Rx         0202  8  00 ED 78 00 60 00 00 00 
   178)       978.2  Rx         0204  8  C0 00 7D 00 00 00 00 00 
   179)       978.5  Rx         0230  8  F0 1C 00 00 62 00 00 00 
   180)       978.7  Rx         0415  8  00 00 C4 FB 0F FE 0F FE 
   181)       979.0  Rx         04B0  8  9D 00 80 00 C0 00 08 F2 
   182)       983.6  Rx         0085  8  7C FF 80 00 7F 80 FF FE 
   183)       984.9  Rx         0217  8  00 00 00 00 00 00 00 00 
   184)       986.8  Rx         0167  8  00 80 35 00 00 1A 4E 00 
   185)       987.0  Rx         0171  8  F0 E0 00 00 00 00 00 00 
   186)       987.3  Rx         0204  8  C0 00 7D 00 00 00 00 00 
   187)       987.5  Rx         042F  8  7D 0C 00 38 46 25 00 00 
   188)       990.0  Rx         0041  8  00 00 00 00 00 00 00 00 
   189)       990.2  Rx         0042  8  00 00 00 00 00 00 00 00 
   190)       991.3  Rx         0430  8  06 00 E3 99 8A 01 17 91 
   191)       991.6  Rx         0434  8  27 E8 14 0A 0F FF 00 20 
   192)       991.8  Rx         0435  8  28 20 10 92 09 20 09 02 
   193)       993.9  Rx         0082  8  7B 00 14 40 75 00 00 FF 
   194)       994.2  Rx         0085  8  7C FF 80 00 7E 90 FF FE 
   195)       994.8  Rx         0076  8  3E 80 40 00 00 00 00 00 
   196)       995.1  Rx         0077  8  00 00 08 01 7F F7 E9 FF 
   197)       995.3  Rx         007D  8  00 00 F2 D0 00 1F F8 02 
   198)       996.0  Rx         0213  8  FF FF 00 00 80 11 FF 41 
   199)       996.5  Rx         0216  8  00 00 00 00 AA 00 00 00 
   200)       996.7  Rx         0217  8  00 00 00 00 00 00 00 00 
   201)       997.0  Rx         0047  8  20 00 00 00 00 00 00 00 
   202)       997.2  Rx         0165  8  10 40 00 00 00 00 00 00 
   203)       997.5  Rx         0167  8  00 80 35 00 00 1A 4E 00 
   204)       997.7  Rx         0200  8  00 00 80 0C 80 0C 00 00 
   205)       998.0  Rx         0202  8  00 FB 08 00 60 00 00 00 
   206)       998.2  Rx         0204  8  C0 00 7D 00 00 00 00 00 
   207)       998.5  Rx         0230  8  F0 1C 00 00 62 00 00 00 
   208)       998.7  Rx         0415  8  00 00 C8 FA 0F FE 0F FE 
   209)       999.0  Rx         0416  8  5D 00 F1 00 01 00 00 00 
   210)       999.2  Rx         04B0  8  9D 00 80 00 D0 00 00 F2 
   211)      1003.5  Rx         0085  8  7C FF 80 00 7D A0 FF FE 
   212)      1004.9  Rx         0217  8  00 00 00 00 00 00 00 00 
   213)      1006.8  Rx         0167  8  00 80 35 00 00 1A 4E 00 
   214)      1007.0  Rx         0204  8  C0 00 7D 00 00 00 00 00 
   215)      1007.3  Rx         043D  8  10 00 00 00 00 00 00 00 
   216)      1007.5  Rx         043E  8  00 37 10 8C 89 3F 38 09 
   217)      1009.9  Rx         0041  8  00 00 00 00 00 00 00 00 
   218)      1010.2  Rx         0042  8  00 00 00 00 00 00 00 00 
   219)      1010.4  Rx         0242  8  02 5E 1F 64 BE 00 00 01 
   220)      1010.7  Rx         040A  8  C1 00 31 46 41 36 50 38 
   221)      1010.9  Rx         042C  8  8C 00 00 00 DB 40 00 00 
   222)      1014.0  Rx         0082  8  7B 00 14 40 75 00 00 FF 
   223)      1014.2  Rx         0085  8  7C FF 80 00 7C B0 FF FE 
   224)      1014.8  Rx         0076  8  3E 80 40 00 00 00 00 00 
   225)      1015.1  Rx         0077  8  00 00 08 00 7F F7 ED FF 
   226)      1015.3  Rx         007D  8  00 00 F1 E0 00 1F D8 00 
   227)      1015.6  Rx         0326  8  01 A0 02 6A 01 D0 00 00 
   228)      1015.8  Rx         0213  8  FF FF 00 00 80 11 FF 41 
   229)      1016.5  Rx         0216  8  00 00 00 00 AA 00 00 00 
   230)      1016.7  Rx         0217  8  00 00 00 00 00 00 00 00 
   231)      1017.0  Rx         0047  8  20 00 00 00 00 00 00 00 
   232)      1017.2  Rx         0165  8  10 40 00 00 00 00 00 00 
   233)      1017.5  Rx         0167  8  00 80 35 00 00 1A 4E 00 
   234)      1017.7  Rx         0171  8  F0 E0 00 00 00 00 00 00 
   235)      1018.0  Rx         0200  8  00 00 80 0C 80 0C 00 00 
   236)      1018.2  Rx         0202  8  00 F9 18 00 60 00 00 00 
   237)      1018.5  Rx         0204  8  C0 00 7D 00 00 00 00 00 
   238)      1018.7  Rx         0230  8  F0 1C 00 00 62 00 00 00 
   239)      1018.9  Rx         0415  8  00 00 CC F9 0F FE 0F FE 
   240)      1019.2  Rx         042F  8  7D 0C 00 38 46 25 00 00 
   241)      1019.4  Rx         04B0  8  9D 00 80 00 E0 00 00 F1 
   242)      1023.6  Rx         0085  8  7C FF 80 00 7B C0 FF FE 
   243)      1024.9  Rx         0217  8  00 00 00 00 00 00 00 00 
   244)      1026.8  Rx         0167  8  00 80 35 00 00 1A 4E 00 
   245)      1027.0  Rx         0204  8  C0 00 7D 00 00 00 00 00 
   246)      1028.2  Rx         0455  8  A0 00 00 00 00 00 00 00 
   247)      1029.9  Rx         0041  8  00 00 00 00 00 00 00 00 
   248)      1030.2  Rx         0042  8  00 00 00 00 00 00 00 00 
   249)      1033.9  Rx         0082  8  7B 00 14 40 75 00 00 FF 
   250)      1034.1  Rx         0085  8  7C FF 80 00 7A D0 FF FE 
   251)      1034.8  Rx         0076  8  3E 80 40 00 00 00 00 00 
   252)      1035.0  Rx         0077  8  00 00 08 01 7F F7 E9 FF 
   253)      1035.3  Rx         007D  8  00 00 F0 F0 00 1F D8 00 
   254)      1036.0  Rx         0213  8  FF FF 00 00 80 11 FF 41 
   255)      1036.5  Rx         0216  8  00 00 00 00 AA 00 00 00 
   256)      1036.7  Rx         0217  8  00 00 00 00 00 00 00 00 
   257)      1037.0  Rx         0047  8  20 00 00 00 00 00 00 00 
   258)      1037.2  Rx         0165  8  10 40 00 00 00 00 00 00 
   259)      1037.5  Rx         0167  8  00 80 35 00 00 1A 4E 00 
   260)      1037.7  Rx         0200  8  00 00 80 0C 80 0C 00 00 
   261)      1037.9  Rx         0202  8  00 F7 28 00 60 00 00 00 
   262)      1038.2  Rx         0204  8  C0 00 7D 00 00 00 00 00 
   263)      1038.5  Rx         0230  8  F0 1C 00 00 62 00 00 00 
   264)      1038.7  Rx         0415  8  00 00 D0 F8 0F FE 0F FE 
   265)      1038.9  Rx         04B0  8  9D 00 80 00 F0 00 00 F0 
   266)      1043.5  Rx         0085  8  7C FF 80 00 79 E0 FF FE 
   267)      1044.9  Rx         0217  8  00 00 00 00 00 00 00 00 
   268)      1045.5  Rx         004A  8  02 00 00 00 00 00 00 00 
   269)      1045.7  Rx         004B  8  00 C0 D8 D8 D8 D8 C0 00 
   270)      1046.0  Rx         004C  8  20 AF FF 00 00 00 00 00 
   271)      1046.8  Rx         0167  8  00 80 35 00 00 1A 4E 00 
   272)      1047.0  Rx         0171  8  F0 E0 00 00 00 00 00 00 
   273)      1047.2  Rx         0204  8  C0 00 7D 00 00 00 00 00 
   274)      1047.5  Rx         042F  8  7D 0C 00 38 46 25 00 00 
   275)      1049.9  Rx         0041  8  00 00 00 00 00 00 00 00 
   276)      1050.1  Rx         0042  8  00 00 00 00 00 00 00 00 
   277)      1050.4  Rx         0083  8  00 E0 80 00 00 00 00 00 
   278)      1050.7  Rx         0242  8  02 5E 1F 64 BE 00 00 01 
   279)      1053.9  Rx         0082  8  7B 00 14 40 75 00 00 FF 
   280)      1054.2  Rx         0085  8  7C FF 80 00 78 F0 FF FE 
   281)      1054.8  Rx         0076  8  3E 80 40 00 00 00 00 00 
   282)      1055.1  Rx         0077  8  00 00 08 01 7F F7 E9 FF 
   283)      1055.3  Rx         007D  8  00 00 FF 00 00 20 18 00 
   284)      1056.0  Rx         0213  8  FF FF 00 00 80 11 FF 41 
   285)      1056.5  Rx         0216  8  00 00 00 00 AA 00 00 00 
   286)      1056.7  Rx         0217  8  00 00 00 00 00 00 00 00 
   287)      1057.0  Rx         0047  8  20 00 00 00 00 00 00 00 
   288)      1057.2  Rx         0156  8  89 5D 00 00 03 00 00 00 
   289)      1057.5  Rx         0165  8  10 40 00 00 00 00 00 00 
   290)      1057.7  Rx         0166  8  00 00 00 00 8A 75 00 00 
   291)      1058.0  Rx         0167  8  00 80 35 00 00 1A 4E 00 
   292)      1058.2  Rx         0178  8  00 00 02 00 0E 78 DE 79 
   293)      1058.5  Rx         0179  8  00 00 00 00 82 00 00 00 
   294)      1058.7  Rx         0200  8  00 00 80 0C 80 0C 00 00 
   295)      1058.9  Rx         0202  8  00 F5 38 00 60 00 00 00 
   296)      1059.2  Rx         0204  8  C0 00 7D 00 00 00 00 00 
   297)      1059.5  Rx         0230  8  F0 1C 00 00 62 00 00 00 
   298)      1059.7  Rx         0415  8  00 00 D4 F7 0F FE 0F FE 
   299)      1059.9  Rx         0421  8  04 00 14 00 00 00 3C 00 
   300)      1060.2  Rx         0424  8  00 FF A0 00 00 00 00 00 
   301)      1060.4  Rx         042C  8  8C 00 00 00 DB 40 00 00 
   302)      1060.6  Rx         042D  8  00 02 B6 00 00 00 F0 00 
   303)      1060.9  Rx         043D  8  10 00 00 00 00 00 00 00 
   304)      1061.1  Rx         043E  8  00 37 10 8C 89 3F 38 09 
   305)      1061.4  Rx         04B0  8  9D 00 80 00 00 00 00 FF 
   306)      1063.5  Rx         0085  8  7C FF 80 00 87 00 FF FE 
   307)      1064.9  Rx         0217  8  00 00 00 00 00 00 00 00 
   308)      1066.2  Rx         0092  8  6F AE 6F 8F 73 57 E2 4F 
   309)      1066.8  Rx         0167  8  00 80 35 00 00 1A 4E 00 
   310)      1067.0  Rx         0204  8  C0 00 7D 00 00 00 00 00 
   311)      1070.0  Rx         0041  8  00 00 00 00 00 00 00 00 
   312)      1070.2  Rx         0042  8  00 00 00 00 00 00 00 00 
   313)      1074.0  Rx         0082  8  7B 00 14 40 75 00 00 FF 
   314)      1074.2  Rx         0085  8  7C FF 80 00 86 10 FF FE 
   315)      1074.8  Rx         0076  8  3E 80 40 00 00 00 00 00 
   316)      1075.0  Rx         0077  8  00 00 07 FF 7F F7 E9 FF 
   317)      1075.3  Rx         007D  8  00 00 FE 10 00 1F E8 00 
   318)      1076.0  Rx         0213  8  FF FF 00 00 80 11 FF 41 
   319)      1076.4  Rx         0216  8  00 00 00 00 AA 00 00 00 
   320)      1076.7  Rx         0217  8  00 00 00 00 00 00 00 00 
   321)      1077.0  Rx         0047  8  20 00 00 00 00 00 00 00 
   322)      1077.2  Rx         0165  8  10 40 00 00 00 00 00 00 
   323)      1077.4  Rx         0167  8  00 80 35 00 00 1A 4E 00 
   324)      1077.7  Rx         0171  8  F0 E0 00 00 00 00 00 00 
   325)      1077.9  Rx         0200  8  00 00 80 0C 80 0C 00 00 
   326)      1078.2  Rx         0202  8  00 F3 48 00 60 00 00 00 
   327)      1078.4  Rx         0204  8  C0 00 7D 00 00 00 00 00 
   328)      1078.7  Rx         0230  8  F0 1C 00 00 62 00 00 00 
   329)      1078.9  Rx         0415  8  00 00 D8 F6 0F FE 0F FE 
   330)      1079.2  Rx         042F  8  7D 0C 00 38 46 25 00 00 
   331)      1079.4  Rx         04B0  8  9D 00 80 00 10 00 08 FD 
   332)      1083.5  Rx         0085  8  7C FF 80 00 85 20 FF FE 
   333)      1084.9  Rx         0217  8  00 00 00 00 00 00 00 00 
   334)      1086.8  Rx         0167  8  00 80 35 00 00 1A 4E 00 
   335)      1087.0  Rx         0204  8  C0 00 7D 00 00 00 00 00 
   336)      1089.9  Rx         0041  8  00 00 00 00 00 00 00 00 
   337)      1090.2  Rx         0042  8  00 00 00 00 00 00 00 00 
   338)      1090.4  Rx         0242  8  02 5E 1F 64 BE 00 00 01 
   339)      1091.4  Rx         0430  8  02 00 E3 99 8A 01 13 91 
   340)      1091.7  Rx         0434  8  27 E8 14 0A 0F FF 00 20 
   341)      1091.9  Rx         0435  8  28 20 18 9A 09 20 09 02 
   342)      1093.9  Rx         0082  8  7B 00 14 40 75 00 00 FF 
   343)      1094.2  Rx         0085  8  7C FF 80 00 84 30 FF FE 
   344)      1094.8  Rx         0076  8  3E 80 40 00 00 00 00 00 
   345)      1095.1  Rx         0077  8  00 00 08 00 7F F7 E9 FF 
   346)      1095.3  Rx         007D  8  00 00 FD 20 00 20 08 02 
   347)      1095.9  Rx         0213  8  FF FF 00 00 80 11 FF 41 
   348)      1096.5  Rx         0216  8  00 00 00 00 AA 00 00 00 
   349)      1096.7  Rx         0217  8  00 00 00 00 00 00 00 00 
   350)      1097.0  Rx         0047  8  20 00 00 00 00 00 00 00 
   351)      1097.2  Rx         0165  8  10 40 00 00 00 00 00 00 
   352)      1097.4  Rx         0167  8  00 80 35 00 00 1A 4E 00 
   353)      1097.7  Rx         0200  8  00 00 80 0C 80 0C 00 00 
   354)      1098.0  Rx         0202  8  00 F1 58 00 60 00 00 00 
   355)      1098.2  Rx         0204  8  C0 00 7D 00 00 00 00 00 
   356)      1098.5  Rx         0230  8  F0 1C 00 00 62 00 00 00 
   357)      1098.7  Rx         0415  8  00 00 DC F5 0F FE 0F FE 
   358)      1098.9  Rx         0416  8  5E 00 F0 00 01 00 00 00 
   359)      1099.1  Rx         04B0  8  9D 00 80 00 20 00 00 FD 
   360)      1103.5  Rx         0085  8  7C FF 80 00 83 40 FF FE 
   361)      1104.9  Rx         0217  8  00 00 00 00 00 00 00 00 
   362)      1106.8  Rx         0167  8  00 80 35 00 00 1A 4E 00 
   363)      1107.0  Rx         0171  8  F0 E0 00 00 00 00 00 00 
   364)      1107.3  Rx         0204  8  C0 00 7D 00 00 00 00 00 
   365)      1107.5  Rx         042F  8  7D 0C 00 38 46 25 00 00 
   366)      1107.8  Rx         043D  8  10 00 00 00 00 00 00 00 
   367)      1108.0  Rx         043E  8  00 37 10 8C 89 3F 38 09 
   368)      1109.9  Rx         0041  8  00 00 00 00 00 00 00 00 
   369)      1110.2  Rx         0042  8  00 00 00 00 00 00 00 00 
   370)      1110.4  Rx         03B6  8  08 00 01 00 24 14 E5 C4 
   371)      1110.7  Rx         03B7  8  00 00 01 00 60 50 62 3D 
   372)      1110.9  Rx         03B8  8  FF FF FF FF 00 00 00 00 
   373)      1111.1  Rx         042C  8  8C 00 00 00 DB 40 00 00 
   374)      1113.9  Rx         0082  8  7B 00 14 40 75 00 00 FF 
   375)      1114.1  Rx         0085  8  7C FF 80 00 82 50 FF FE 
   376)      1114.8  Rx         0076  8  3E 80 40 00 00 00 00 00 
   377)      1115.1  Rx         0077  8  00 00 08 00 7F F7 E9 FF 
   378)      1115.3  Rx         007D  8  00 00 FC 30 00 20 17 FF 
   379)      1116.0  Rx         0213  8  FF FF 00 00 80 11 FF 41 
   380)      1116.3  Rx         0326  8  01 A0 02 6A 01 D0 00 00 
   381)      1116.5  Rx         0216  8  00 00 00 00 AA 00 00 00 
   382)      1116.8  Rx         0217  8  00 00 00 00 00 00 00 00 
   383)      1117.0  Rx         0047  8  20 00 00 00 00 00 00 00 
   384)      1117.2  Rx         0165  8  10 40 00 00 00 00 00 00 
   385)      1117.5  Rx         0167  8  00 80 35 00 00 1A 4E 00 
   386)      1117.8  Rx         0200  8  00 00 80 0C 80 0C 00 00 
   387)      1118.0  Rx         0202  8  00 EF 68 00 60 00 00 00 
   388)      1118.2  Rx         0204  8  C0 00 7D 00 00 00 00 00 
   389)      1118.5  Rx         0230  8  F0 1C 00 00 62 00 00 00 
   390)      1118.7  Rx         0415  8  00 00 E0 F4 0F FE 0F FE 
   391)      1119.0  Rx         04B0  8  9D 00 80 00 30 00 08 FB 
   392)      1123.5  Rx         0085  8  7C FF 80 00 81 60 FF FE 
   393)      1124.9  Rx         0217  8  00 00 00 00 00 00 00 00 
   394)      1126.8  Rx         0167  8  00 80 35 00 00 1A 4E 00 
   395)      1127.0  Rx         0204  8  C0 00 7D 00 00 00 00 00 
   396)      1128.0  Rx         0455  8  A0 00 00 00 00 00 00 00 
   397)      1129.9  Rx         0041  8  00 00 00 00 00 00 00 00 
   398)      1130.2  Rx         0042  8  00 00 00 00 00 00 00 00 
   399)      1130.4  Rx         0242  8  02 5E 1F 64 BE 00 00 01 
   400)      1134.0  Rx         0082  8  7B 00 14 40 75 00 00 FF 
   401)      1134.2  Rx         0085  8  7C FF 80 00 80 70 FF FE 
   402)      1134.8  Rx         0076  8  3E 80 40 00 00 00 00 00 
   403)      1135.0  Rx         0077  8  00 00 08 01 7F F7 EA 00 
   404)      1135.3  Rx         007D  8  00 00 FB 40 00 20 08 00 
   405)      1135.9  Rx         0213  8  FF FF 00 00 80 11 FF 41 
   406)      1136.5  Rx         0216  8  00 00 00 00 AA 00 00 00 
   407)      1136.7  Rx         0217  8  00 00 00 00 00 00 00 00 
   408)      1137.0  Rx         0047  8  20 00 00 00 00 00 00 00 
   409)      1137.2  Rx         0165  8  10 40 00 00 00 00 00 00 
   410)      1137.4  Rx         0167  8  00 80 35 00 00 1A 4E 00 
   411)      1137.7  Rx         0171  8  F0 E0 00 00 00 00 00 00 
   412)      1137.9  Rx         0200  8  00 00 80 0C 80 0C 00 00 
   413)      1138.2  Rx         0202  8  00 ED 78 00 60 00 00 00 
   414)      1138.4  Rx         0204  8  C0 00 7D 00 00 00 00 00 
   415)      1138.7  Rx         0230  8  F0 1C 00 00 62 00 00 00 
   416)      1138.9  Rx         0415  8  00 00 E4 F3 0F FE 0F FE 
   417)      1139.1  Rx         042F  8  7D 0C 00 38 46 25 00 00 
   418)      1139.4  Rx         04B0  8  9D 00 80 00 40 00 08 FA 
   419)      1143.5  Rx         0085  8  7C FF 80 00 7F 80 FF FE 
   420)      1144.9  Rx         0217  8  00 00 00 00 00 00 00 00 
   421)      1145.4  Rx         004A  8  02 00 00 00 00 00 00 00 
   422)      1145.6  Rx         004B  8  00 C0 D8 D8 D8 D8 C0 00 
   423)      1145.9  Rx         004C  8  20 AF FF 00 00 00 00 00 
   424)      1146.8  Rx         0167  8  00 80 35 00 00 1A 4E 00 
   425)      1147.0  Rx         0204  8  C0 00 7D 00 00 00 00 00 
   426)      1150.0  Rx         0083  8  00 E0 80 00 00 00 00 00 
   427)      1150.4  Rx         0041  8  00 00 00 00 00 00 00 00 
   428)      1150.7  Rx         0042  8  00 00 00 00 00 00 00 00 
   429)      1153.9  Rx         0082  8  7B 00 14 40 75 00 00 FF 
   430)      1154.2  Rx         0085  8  7C FF 80 00 7E 90 FF FE 
   431)      1154.8  Rx         0076  8  3E 80 40 00 00 00 00 00 
   432)      1155.1  Rx         0077  8  00 00 08 01 7F F7 E9 FF 
   433)      1155.3  Rx         007D  8  00 00 FA 50 00 20 37 FF 
   434)      1156.0  Rx         0213  8  FF FF 00 00 80 11 FF 41 
   435)      1156.5  Rx         0216  8  00 00 00 00 AA 00 00 00 
   436)      1156.7  Rx         0217  8  00 00 00 00 00 00 00 00 
   437)      1157.0  Rx         0047  8  20 00 00 00 00 00 00 00 
   438)      1157.2  Rx         0156  8  89 5D 00 00 03 00 00 00 
   439)      1157.5  Rx         0165  8  10 40 00 00 00 00 00 00 
   440)      1157.7  Rx         0166  8  00 00 00 00 8A 75 00 00 
   441)      1158.0  Rx         0167  8  00 80 35 00 00 1A 4E 00 
   442)      1158.2  Rx         0178  8  00 00 02 00 0E 79 DE 79 
   443)      1158.4  Rx         0179  8  00 00 00 00 82 00 00 00 
   444)      1158.7  Rx         0200  8  00 00 80 0C 80 0C 00 00 
   445)      1158.9  Rx         0202  8  00 FB 08 00 60 00 00 00 
   446)      1159.2  Rx         0204  8  C0 00 7D 00 00 00 00 00 
   447)      1159.4  Rx         0230  8  F0 1C 00 00 62 00 00 00 
   448)      1159.7  Rx         0415  8  00 00 E8 F2 0F FE 0F FE 
   449)      1159.9  Rx         0421  8  04 00 14 00 00 00 3C 00 
   450)      1160.1  Rx         0424  8  00 FF A0 00 00 00 00 00 
   451)      1160.4  Rx         042C  8  8C 00 00 00 DB 40 00 00 
   452)      1160.7  Rx         042D  8  00 02 B6 00 00 00 F0 00 
   453)      1160.9  Rx         043D  8  10 00 00 00 00 00 00 00 
   454)      1161.1  Rx         043E  8  00 37 10 8C 89 3F 38 09 
   455)      1161.4  Rx         04B0  8  9D 00 80 00 50 00 00 FA 
   456)      1163.6  Rx         0085  8  7C FF 80 00 7D A0 FF FE 
   457)      1164.9  Rx         0217  8  00 00 00 00 00 00 00 00 
   458)      1166.8  Rx         0167  8  00 80 35 00 00 1A 4E 00 
   459)      1167.0  Rx         0171  8  F0 E0 00 00 00 00 00 00 
   460)      1167.3  Rx         0204  8  C0 00 7D 00 00 00 00 00 
   461)      1167.5  Rx         042F  8  7D 0C 00 38 46 25 00 00 
   462)      1169.9  Rx         0041  8  00 00 00 00 00 00 00 00 
   463)      1170.2  Rx         0042  8  00 00 00 00 00 00 00 00 
   464)      1170.4  Rx         0242  8  02 5E 1F 64 BE 00 00 01 
   465)      1170.6  Rx         03B5  8  00 C5 00 B4 00 C7 00 C7 
   466)      1171.3  Rx         0092  8  6F AF 6F 91 73 5B A9 81 
   467)      1173.9  Rx         0082  8  7B 00 14 40 75 00 00 FF 
   468)      1174.2  Rx         0085  8  7C FF 80 00 7C B0 FF FE 
   469)      1174.8  Rx         0076  8  3E 80 40 00 00 00 00 00 
   470)      1175.1  Rx         0077  8  00 00 07 FF 7F F7 ED FF 
   471)      1175.3  Rx         007D  8  00 00 F9 60 00 1F D8 02 
   472)      1176.0  Rx         0213  8  FF FF 00 00 80 11 FF 41 
   473)      1176.5  Rx         0216  8  00 00 00 00 AA 00 00 00 
   474)      1176.7  Rx         0217  8  00 00 00 00 00 00 00 00 
   475)      1177.0  Rx         0047  8  20 00 00 00 00 00 00 00 
   476)      1177.3  Rx         0165  8  10 40 00 00 00 00 00 00 
   477)      1177.5  Rx         0167  8  00 80 35 00 00 1A 4E 00 
   478)      1177.7  Rx         0200  8  00 00 80 0C 80 0C 00 00 
   479)      1178.0  Rx         0202  8  00 F9 18 00 60 00 00 00 
   480)      1178.2  Rx         0204  8  C0 00 7D 00 00 00 00 00 
   481)      1178.5  Rx         0230  8  F0 1C 00 00 62 00 00 00 
   482)      1178.7  Rx         0415  8  00 00 EC F1 0F FE 0F FE 
   483)      1178.9  Rx         04B0  8  9D 00 80 00 60 00 00 F9 
   484)      1183.5  Rx         0085  8  7C FF 80 00 7B C0 FF FE 
   485)      1184.9  Rx         0217  8  00 00 00 00 00 00 00 00 
   486)      1186.7  Rx         0167  8  00 80 35 00 00 1A 4E 00 
   487)      1187.0  Rx         0204  8  C0 00 7D 00 00 00 00 00 
   488)      1189.9  Rx         0041  8  00 00 00 00 00 00 00 00 
   489)      1190.2  Rx         0042  8  00 00 00 00 00 00 00 00 
   490)      1191.3  Rx         0430  8  02 00 E3 99 8A 01 13 91 
   491)      1191.5  Rx         0434  8  27 E8 14 0A 0F FF 00 20 
   492)      1191.7  Rx         0435  8  28 20 10 92 09 20 09 02 
   493)      1193.9  Rx         0082  8  7B 00 14 40 75 00 00 FF 
   494)      1194.2  Rx         0085  8  7C FF 80 00 7A D0 FF FE 
   495)      1194.8  Rx         0076  8  3E 80 40 00 00 00 00 00 
   496)      1195.0  Rx         0077  8  00 00 08 01 7F F7 E9 FF 
   497)      1195.3  Rx         007D  8  00 00 F8 70 00 20 08 02 
   498)      1196.0  Rx         0213  8  FF FF 00 00 80 11 FF 41 
   499)      1196.5  Rx         0216  8  00 00 00 00 AA 00 00 00 
   500)      1196.7  Rx         0217  8  00 00 00 00 00 00 00 00 
   501)      1197.0  Rx         0047  8  20 00 00 00 00 00 00 00 
   502)      1197.2  Rx         0165  8  10 40 00 00 00 00 00 00 
   503)      1197.5  Rx         0167  8  00 80 35 00 00 1A 4E 00 
   504)      1197.7  Rx         0171  8  F0 E0 00 00 00 00 00 00 
   505)      1197.9  Rx         0200  8  00 00 80 0C 80 0C 00 00 
   506)      1198.2  Rx         0202  8  00 F7 28 00 60 00 00 00 
   507)      1198.4  Rx         0204  8  C0 00 7D 00 00 00 00 00 
   508)      1198.7  Rx         0230  8  F0 1C 00 00 62 00 00 00 
   509)      1198.9  Rx         0415  8  00 00 F0 F0 0F FE 0F FE 
   510)      1199.2  Rx         0416  8  5F 00 EF 00 01 00 00 00 
   511)      1199.4  Rx         042F  8  7D 0C 00 38 46 25 00 00 
   512)      1199.6  Rx         04B0  8  9D 00 80 00 70 00 00 F8 
   513)      1203.5  Rx         0085  8  7C FF 80 00 79 E0 FF FE 
   514)      1204.9  Rx         0217  8  00 00 00 00 00 00 00 00 
   515)      1206.8  Rx         0167  8  00 80 35 00 00 1A 4E 00 
   516)      1207.0  Rx         0204  8  C0 00 7D 00 00 00 00 00 
   517)      1207.3  Rx         043D  8  10 00 00 00 00 00 00 00 
   518)      1207.5  Rx         043E  8  00 37 10 8C 89 3F 38 09 
   519)      1209.9  Rx         0041  8  00 00 00 00 00 00 00 00 
   520)      1210.2  Rx         0042  8  00 00 00 00 00 00 00 00 
   521)      1210.4  Rx         0242  8  02 5E 1F 64 BE 00 00 01 
   522)      1210.6  Rx         03B3  8  40 88 00 12 10 00 80 22 
   523)      1210.9  Rx         040A  8  C1 01 4A 5A 39 47 35 35 
   524)      1211.1  Rx         042C  8  8C 00 00 00 DB 40 00 00 
   525)      1213.9  Rx         0082  8  7B 00 14 40 75 00 00 FF 
   526)      1214.1  Rx         0085  8  7C FF 80 00 78 F0 FF FE 
   527)      1214.8  Rx         0076  8  3E 80 40 00 00 00 00 00 
   528)      1215.1  Rx         0077  8  00 00 08 00 7F F7 E9 FF 
   529)      1215.3  Rx         0326  8  01 A0 02 6B 01 D0 00 00 
   530)      1215.5  Rx         007D  8  00 00 F7 80 00 20 07 FF 
   531)      1216.0  Rx         0213  8  FF FF 00 00 80 11 FF 41 
   532)      1216.5  Rx         0216  8  00 00 00 00 AA 00 00 00 
   533)      1216.7  Rx         0217  8  00 00 00 00 00 00 00 00 
   534)      1217.0  Rx         0047  8  20 00 00 00 00 00 00 00 
   535)      1217.3  Rx         0165  8  10 40 00 00 00 00 00 00 
   536)      1217.5  Rx         0167  8  00 80 35 00 00 1A 4E 00 
   537)      1217.7  Rx         0200  8  00 00 80 0C 80 0C 00 00 
   538)      1218.0  Rx         0202  8  00 F5 38 00 60 00 00 00 
   539)      1218.2  Rx         0204  8  C0 00 7D 00 00 00 00 00 
   540)      1218.5  Rx         0230  8  F0 1C 00 00 62 00 00 00 
   541)      1218.7  Rx         0415  8  00 00 F4 EF 0F FE 0F FE 
   542)      1219.0  Rx         04B0  8  9D 00 80 00 80 00 00 F7 
   543)      1223.5  Rx         0085  8  7C FF 80 00 87 00 FF FE 
   544)      1224.9  Rx         0217  8  00 00 00 00 00 00 00 00 
   545)      1226.8  Rx         0167  8  00 80 35 00 00 1A 4E 00 
   546)      1227.0  Rx         0171  8  F0 E0 00 00 00 00 00 00 
   547)      1227.2  Rx         0204  8  C0 00 7D 00 00 00 00 00 
   548)      1227.5  Rx         042F  8  7D 0C 00 38 46 25 00 00 
   549)      1228.1  Rx         0455  8  A0 00 00 00 00 00 00 00 
   550)      1229.9  Rx         0041  8  00 00 00 00 00 00 00 00 
   551)      1230.2  Rx         0042  8  00 00 00 00 00 00 00 00 
   552)      1233.9  Rx         0082  8  7B 00 14 40 75 00 00 FF 
   553)      1234.2  Rx         0085  8  7C FF 80 00 86 10 FF FE 
   554)      1234.8  Rx         0076  8  3E 80 40 00 00 00 00 00 
   555)      1235.1  Rx         0077  8  00 00 08 01 7F F7 ED FF 
   556)      1235.3  Rx         007D  8  00 00 F6 90 00 1F C7 FE 
   557)      1236.0  Rx         0213  8  FF FF 00 00 80 11 FF 41 
   558)      1236.5  Rx         0216  8  00 00 00 00 AA 00 00 00 
   559)      1236.7  Rx         0217  8  00 00 00 00 00 00 00 00 
   560)      1237.0  Rx         0047  8  20 00 00 00 00 00 00 00 
   561)      1237.2  Rx         0165  8  10 40 00 00 00 00 00 00 
   562)      1237.4  Rx         0167  8  00 80 35 00 00 1A 4E 00 
   563)      1237.7  Rx         0200  8  00 00 80 0C 80 0C 00 00 
   564)      1238.0  Rx         0202  8  00 F3 48 00 60 00 00 00 
   565)      1238.2  Rx         0204  8  C0 00 7D 00 00 00 00 00 
   566)      1238.4  Rx         0230  8  F0 1C 00 00 62 00 00 00 
   567)      1238.7  Rx         0415  8  00 00 F8 EE 0F FE 0F FE 
   568)      1238.9  Rx         04B0  8  9D 00 80 00 90 00 00 F6 
   569)      1243.5  Rx         0085  8  7C FF 80 00 85 20 FF FE 
   570)      1244.9  Rx         0217  8  00 00 00 00 00 00 00 00 
   571)      1245.4  Rx         004A  8  02 00 00 00 00 00 00 00 
   572)      1245.6  Rx         004B  8  00 C0 D8 D8 D8 D8 C0 00 
   573)      1245.9  Rx         004C  8  20 AF FF 00 00 00 00 00 
   574)      1246.8  Rx         0167  8  00 80 35 00 00 1A 4E 00 
   575)      1247.0  Rx         0204  8  C0 00 7D 00 00 00 00 00 
   576)      1249.9  Rx         0041  8  00 00 00 00 00 00 00 00 
   577)      1250.2  Rx         0042  8  00 00 00 00 00 00 00 00 
   578)      1250.4  Rx         0083  8  00 E0 80 00 00 00 00 00 
   579)      1250.7  Rx         0242  8  02 5E 1F 64 BE 00 00 01 
   580)      1253.9  Rx         0082  8  7B 00 14 40 75 00 00 FF 
   581)      1254.1  Rx         0085  8  7C FF 80 00 84 30 FF FE 
   582)      1254.8  Rx         0076  8  3E 80 40 00 00 00 00 00 
   583)      1255.0  Rx         0077  8  00 00 07 FE 7F F7 E9 FF 
   584)      1255.3  Rx         007D  8  00 00 F5 A0 00 1F E8 00 
   585)      1256.0  Rx         0213  8  FF FF 00 00 80 11 FF 41 
   586)      1256.5  Rx         0216  8  00 00 00 00 AA 00 00 00 
   587)      1256.7  Rx         0217  8  00 00 00 00 00 00 00 00 
   588)      1257.0  Rx         0047  8  20 00 00 00 00 00 00 00 
   589)      1257.2  Rx         0156  8  89 5D 00 00 03 00 00 00 
   590)      1257.5  Rx         0165  8  10 40 00 00 00 00 00 00 
   591)      1257.7  Rx         0166  8  00 00 00 00 8A 75 00 00 
   592)      1257.9  Rx         0167  8  00 80 35 00 00 1A 4E 00 
   593)      1258.2  Rx         0171  8  F0 E0 00 00 00 00 00 00 
   594)      1258.4  Rx         0178  8  00 00 02 00 0E 79 DE 79 
   595)      1258.7  Rx         0179  8  00 00 00 00 82 00 00 00 
   596)      1258.9  Rx         0200  8  00 00 80 0C 80 0C 00 00 
   597)      1259.2  Rx         0202  8  00 F1 58 00 60 00 00 00 
   598)      1259.4  Rx         0204  8  C0 00 7D 00 00 00 00 00 
   599)      1259.6  Rx         0230  8  F0 1C 00 00 62 00 00 00 
   600)      1259.9  Rx         0415  8  00 00 FC ED 0F FE 0F FE 
   601)      1260.2  Rx         0421  8  04 00 14 00 00 00 3C 00 
   602)      1260.4  Rx         0424  8  00 FF A0 00 00 00 00 00 
   603)      1260.6  Rx         042C  8  8C 00 00 00 DB 40 00 00 
   604)      1260.9  Rx         042D  8  00 02 B6 00 00 00 F0 00 
   605)      1261.1  Rx         042F  8  7D 0C 00 38 46 25 00 00 
   606)      1261.3  Rx         043D  8  10 00 00 00 00 00 00 00 
   607)      1261.6  Rx         043E  8  00 37 10 8C 89 3F 38 09 
   608)      1261.9  Rx         04B0  8  9D 00 80 00 A0 00 00 F5 
   609)      1263.5  Rx         0085  8  7C FF 80 00 83 40 FF FE 
   610)      1264.9  Rx         0217  8  00 00 00 00 00 00 00 00 
   611)      1266.8  Rx         0167  8  00 80 35 00 00 1A 4E 00 
   612)      1267.0  Rx         0204  8  C0 00 7D 00 00 00 00 00 
   613)      1269.9  Rx         0041  8  00 00 00 00 00 00 00 00 
   614)      1270.1  Rx         0042  8  00 00 00 00 00 00 00 00 
   615)      1274.0  Rx         0082  8  7C 00 14 40 75 00 00 FF 
   616)      1274.2  Rx         0085  8  7C FF 80 00 82 50 FF FE 
   617)      1274.8  Rx         0076  8  3E 80 40 00 00 00 00 00 
   618)      1275.0  Rx         0077  8  00 00 08 00 7F F7 E9 FF 
   619)      1275.3  Rx         007D  8  00 00 F4 B0 00 1F C7 FF 
   620)      1275.9  Rx         0213  8  FF FF 00 00 80 11 FF 41 
   621)      1276.4  Rx         0092  8  6F AF 6F 8F 73 5B 74 B8 
   622)      1276.6  Rx         0216  8  00 00 00 00 AA 00 00 00 
   623)      1276.9  Rx         0047  8  20 00 00 00 00 00 00 00 
   624)      1277.1  Rx         0165  8  10 40 00 00 00 00 00 00 
   625)      1277.4  Rx         0167  8  00 80 35 00 00 1A 4E 00 
   626)      1277.6  Rx         0200  8  00 00 80 0C 80 0C 00 00 
   627)      1277.9  Rx         0202  8  00 EF 68 00 60 00 00 00 
   628)      1278.1  Rx         0204  8  C0 00 7D 00 00 00 00 00 
   629)      1278.4  Rx         0217  8  00 00 00 00 00 00 00 00 
   630)      1278.6  Rx         0230  8  F0 1C 00 00 62 00 00 00 
   631)      1278.8  Rx         0415  8  00 00 C0 FC 0F FE 0F FE 
   632)      1279.1  Rx         04B0  8  9D 00 80 00 B0 00 00 F4 
   633)      1283.5  Rx         0085  8  7C FF 80 00 81 60 FF FE 
   634)      1284.9  Rx         0217  8  00 00 00 00 00 00 00 00 
   635)      1286.7  Rx         0167  8  00 80 35 00 00 1A 4E 00 
   636)      1287.0  Rx         0171  8  F0 E0 00 00 00 00 00 00 
   637)      1287.3  Rx         0204  8  C0 00 7D 00 00 00 00 00 
   638)      1287.5  Rx         042F  8  7D 0C 00 38 46 25 00 00 
   639)      1289.9  Rx         0041  8  00 00 00 00 00 00 00 00 
   640)      1290.2  Rx         0042  8  00 00 00 00 00 00 00 00 
   641)      1290.5  Rx         0242  8  02 5E 1F 64 BE 00 00 01 
   642)      1291.5  Rx         0430  8  06 00 E3 99 8A 01 17 91 
   643)      1291.7  Rx         0434  8  27 E8 14 0A 0F FF 00 20 
   644)      1292.0  Rx         0435  8  28 20 18 9A 09 20 09 02 
   645)      1294.0  Rx         0082  8  7C 00 14 40 75 00 00 FF 
   646)      1294.2  Rx         0085  8  7C FF 80 00 80 70 FF FE 
   647)      1294.8  Rx         0076  8  3E 80 40 00 00 00 00 00 
   648)      1295.0  Rx         0077  8  00 00 08 00 7F F7 ED FF 
   649)      1295.3  Rx         007D  8  00 00 F3 C0 00 1F F8 00 
   650)      1296.0  Rx         0213  8  FF FF 00 00 80 11 FF 41 
   651)      1296.5  Rx         0216  8  00 00 00 00 AA 00 00 00 
   652)      1296.7  Rx         0217  8  00 00 00 00 00 00 00 00 
   653)      1297.0  Rx         0047  8  20 00 00 00 00 00 00 00 
   654)      1297.2  Rx         0165  8  10 40 00 00 00 00 00 00 
   655)      1297.5  Rx         0167  8  00 80 35 00 00 1A 4E 00 
   656)      1297.7  Rx         0200  8  00 00 80 0C 80 0C 00 00 
   657)      1298.0  Rx         0202  8  00 ED 78 00 60 00 00 00 
   658)      1298.2  Rx         0204  8  C0 00 7D 00 00 00 00 00 
   659)      1298.4  Rx         0230  8  F0 1C 00 00 62 00 00 00 
   660)      1298.7  Rx         0415  8  00 00 C4 FB 0F FE 0F FE 
   661)      1298.9  Rx         0416  8  50 00 FE 00 01 00 00 00 
   662)      1299.2  Rx         04B0  8  9D 00 80 00 C0 00 08 F2 
   663)      1303.5  Rx         0085  8  7C FF 80 00 7F 80 FF FE 
   664)      1304.9  Rx         0217  8  00 00 00 00 00 00 00 00 
   665)      1306.8  Rx         0167  8  00 80 35 00 00 1A 4E 00 
   666)      1307.0  Rx         0204  8  C0 00 7D 00 00 00 00 00 
   667)      1307.2  Rx         043D  8  10 00 00 00 00 00 00 00 
   668)      1307.5  Rx         043E  8  00 37 10 8C 89 3F 38 09 
   669)      1309.9  Rx         0041  8  00 00 00 00 00 00 00 00 
   670)      1310.1  Rx         0042  8  00 00 00 00 00 00 00 00 
   671)      1310.4  Rx         042C  8  8C 00 00 00 DB 40 00 00 
   672)      1313.9  Rx         0082  8  7C 00 14 40 75 00 00 FF 
   673)      1314.2  Rx         0085  8  7C FF 80 00 7E 90 FF FE 
   674)      1314.8  Rx         0076  8  3E 80 40 00 00 00 00 00 
   675)      1315.0  Rx         0077  8  00 00 07 FF 7F F7 E9 FF 
   676)      1315.3  Rx         0326  8  01 A0 02 6A 01 D0 00 00 
   677)      1315.5  Rx         007D  8  00 00 F2 D0 00 1F F7 FF 
   678)      1315.9  Rx         0213  8  FF FF 00 00 80 11 FF 41 
   679)      1316.5  Rx         0216  8  00 00 00 00 AA 00 00 00 
   680)      1316.7  Rx         0217  8  00 00 00 00 00 00 00 00 
   681)      1317.0  Rx         0047  8  20 00 00 00 00 00 00 00 
   682)      1317.2  Rx         0165  8  10 40 00 00 00 00 00 00 
   683)      1317.4  Rx         0167  8  00 80 35 00 00 1A 4E 00 
   684)      1317.7  Rx         0171  8  F0 E0 00 00 00 00 00 00 
   685)      1317.9  Rx         0200  8  00 00 80 0C 80 0C 00 00 
   686)      1318.2  Rx         0202  8  00 FB 08 00 60 00 00 00 
   687)      1318.4  Rx         0204  8  C0 00 7D 00 00 00 00 00 
   688)      1318.7  Rx         0230  8  F0 1C 00 00 62 00 00 00 
   689)      1318.9  Rx         0415  8  00 00 C8 FA 0F FE 0F FE 
   690)      1319.1  Rx         042F  8  7D 0C 00 38 46 25 00 00 
   691)      1319.4  Rx         04B0  8  9D 00 80 00 D0 00 00 F2 
   692)      1323.5  Rx         0085  8  7C FF 80 00 7D A0 FF FE 
   693)      1324.9  Rx         0217  8  00 00 00 00 00 00 00 00 
   694)      1326.7  Rx         0167  8  00 80 35 00 00 1A 4E 00 
   695)      1327.0  Rx         0204  8  C0 00 7D 00 00 00 00 00 
   696)      1328.1  Rx         0455  8  A0 00 00 00 00 00 00 00 
   697)      1329.9  Rx         0041  8  00 00 00 00 00 00 00 00 
   698)      1330.2  Rx         0042  8  00 00 00 00 00 00 00 00 
   699)      1330.4  Rx         0242  8  02 5E 1F 64 BE 00 00 01 
   700)      1333.9  Rx         0082  8  7C 00 14 40 75 00 00 FF 
   701)      1334.2  Rx         0085  8  7C FF 80 00 7C B0 FF FE 
   702)      1334.8  Rx         0076  8  3E 80 40 00 00 00 00 00 
   703)      1335.0  Rx         0077  8  00 00 08 00 7F F7 E9 FF 
   704)      1335.3  Rx         007D  8  00 00 F1 E0 00 20 28 00 
   705)      1336.0  Rx         0213  8  FF FF 00 00 80 11 FF 41 
   706)      1336.4  Rx         0216  8  00 00 00 00 AA 00 00 00 
   707)      1336.7  Rx         0217  8  00 00 00 00 00 00 00 00 
   708)      1336.9  Rx         0047  8  20 00 00 00 00 00 00 00 
   709)      1337.2  Rx         0165  8  10 40 00 00 00 00 00 00 
   710)      1337.5  Rx         0167  8  00 80 35 00 00 1A 4E 00 
   711)      1337.7  Rx         0200  8  00 00 80 0C 80 0C 00 00 
   712)      1337.9  Rx         0202  8  00 F9 18 00 60 00 00 00 
   713)      1338.2  Rx         0204  8  C0 00 7D 00 00 00 00 00 
   714)      1338.4  Rx         0230  8  F0 1C 00 00 62 00 00 00 
   715)      1338.6  Rx         0415  8  00 00 CC F9 0F FE 0F FE 
   716)      1338.9  Rx         04B0  8  9D 00 80 00 E0 00 00 F1 
   717)      1343.5  Rx         0085  8  7C FF 80 00 7B C0 FF FE 
   718)      1344.9  Rx         0217  8  00 00 00 00 00 00 00 00 
   719)      1345.3  Rx         004A  8  02 00 00 00 00 00 00 00 
   720)      1345.5  Rx         004B  8  00 C0 D8 D8 D8 D8 C0 00 
   721)      1345.8  Rx         004C  8  20 AF FF 00 00 00 00 00 
   722)      1346.8  Rx         0167  8  00 80 35 00 00 1A 4E 00 
   723)      1347.0  Rx         0171  8  F0 E0 00 00 00 00 00 00 
   724)      1347.3  Rx         0204  8  C0 00 7D 00 00 00 00 00 
   725)      1347.5  Rx         042F  8  7D 0C 00 38 46 25 00 00 
   726)      1349.8  Rx         0083  8  00 E0 80 00 00 00 00 00 
   727)      1350.1  Rx         0041  8  00 00 00 00 00 00 00 00 
   728)      1350.3  Rx         0042  8  00 00 00 00 00 00 00 00 
   729)      1353.9  Rx         0082  8  7B 00 14 40 75 00 00 FF 
   730)      1354.1  Rx         0085  8  7C FF 80 00 7A D0 FF FE 
   731)      1354.8  Rx         0076  8  3E 80 40 00 00 00 00 00 
   732)      1355.0  Rx         0077  8  00 00 08 00 7F F7 ED FF 
   733)      1355.3  Rx         007D  8  00 00 F0 F0 00 1F D8 02 
   734)      1356.0  Rx         0213  8  FF FF 00 00 80 11 FF 41 
   735)      1356.5  Rx         0216  8  00 00 00 00 AA 00 00 00 
   736)      1356.7  Rx         0217  8  00 00 00 00 00 00 00 00 
   737)      1357.0  Rx         0047  8  20 00 00 00 00 00 00 00 
   738)      1357.2  Rx         0156  8  89 5D 00 00 03 00 00 00 
   739)      1357.5  Rx         0165  8  10 40 00 00 00 00 00 00 
   740)      1357.7  Rx         0166  8  00 00 00 00 8A 75 00 00 
   741)      1357.9  Rx         0167  8  00 80 35 00 00 1A 4E 00 
   742)      1358.2  Rx         0178  8  00 00 02 00 0E 78 DE 79 
   743)      1358.5  Rx         0179  8  00 00 00 00 82 00 00 00 
   744)      1358.7  Rx         0200  8  00 00 80 0C 80 0C 00 00 
   745)      1358.9  Rx         0202  8  00 F7 28 00 60 00 00 00 
   746)      1359.2  Rx         0204  8  C0 00 7D 00 00 00 00 00 
   747)      1359.4  Rx         0230  8  F0 1C 00 00 62 00 00 00 
   748)      1359.6  Rx         0415  8  00 00 D0 F8 0F FE 0F FE 
   749)      1359.9  Rx         0421  8  04 00 14 00 00 00 3C 00 
   750)      1360.2  Rx         0424  8  00 FF A0 00 00 00 00 00 
   751)      1360.4  Rx         042D  8  00 02 B6 00 00 00 F0 00 
   752)      1360.6  Rx         03B6  8  08 00 02 00 00 00 00 00 
   753)      1360.9  Rx         03B7  8  00 00 02 00 60 50 63 4C 
   754)      1361.1  Rx         042C  8  8C 00 00 00 DB 40 00 00 
   755)      1361.4  Rx         043D  8  10 00 00 00 00 00 00 00 
   756)      1361.6  Rx         043E  8  00 37 10 8C 89 3F 38 09 
   757)      1361.9  Rx         04B0  8  9D 00 80 00 F0 00 00 F0 
   758)      1363.5  Rx         0085  8  7C FF 80 00 79 E0 FF FE 
   759)      1364.9  Rx         0217  8  00 00 00 00 00 00 00 00 
   760)      1366.7  Rx         0167  8  00 80 35 00 00 1A 4E 00 
   761)      1367.0  Rx         0204  8  C0 00 7D 00 00 00 00 00 
   762)      1370.0  Rx         0041  8  00 00 00 00 00 00 00 00 
   763)      1370.2  Rx         0042  8  00 00 00 00 00 00 00 00 
   764)      1370.4  Rx         0242  8  02 5E 1F 64 BE 00 00 01 
   765)      1373.9  Rx         0082  8  7B 00 14 40 75 00 00 FF 
   766)      1374.2  Rx         0085  8  7C FF 80 00 78 F0 FF FE 
   767)      1374.8  Rx         0076  8  3E 80 40 00 00 00 00 00 
   768)      1375.1  Rx         0077  8  00 00 08 00 7F F7 ED FF 
   769)      1375.3  Rx         007D  8  00 00 FF 00 00 1F 98 00 
   770)      1376.0  Rx         0213  8  FF FF 00 00 80 11 FF 41 
   771)      1376.5  Rx         0216  8  00 00 00 00 AA 00 00 00 
   772)      1376.7  Rx         0217  8  00 00 00 00 00 00 00 00 
   773)      1376.9  Rx         0047  8  20 00 00 00 00 00 00 00 
   774)      1377.2  Rx         0165  8  10 40 00 00 00 00 00 00 
   775)      1377.4  Rx         0167  8  00 80 35 00 00 1A 4E 00 
   776)      1377.7  Rx         0171  8  F0 E0 00 00 00 00 00 00 
   777)      1377.9  Rx         0200  8  00 00 80 0C 80 0C 00 00 
   778)      1378.2  Rx         0202  8  00 F5 38 00 60 00 00 00 
   779)      1378.4  Rx         0204  8  C0 00 7D 00 00 00 00 00 
   780)      1378.7  Rx         0230  8  F0 1C 00 00 62 00 00 00 
   781)      1378.9  Rx         0415  8  00 00 D4 F7 0F FE 0F FE 
   782)      1379.2  Rx         042F  8  7D 0C 00 38 46 25 00 00 
   783)      1379.4  Rx         04B0  8  9D 00 80 00 00 00 08 FE 
   784)      1381.8  Rx         0092  8  6F AD 6F 8F 73 57 48 EA 
   785)      1383.5  Rx         0085  8  7C FF 80 00 87 00 FF FE 
   786)      1384.9  Rx         0217  8  00 00 00 00 00 00 00 00 
   787)      1386.8  Rx         0167  8  00 80 35 00 00 1A 4E 00 
   788)      1387.0  Rx         0204  8  C0 00 7D 00 00 00 00 00 
   789)      1389.9  Rx         0041  8  00 00 00 00 00 00 00 00 
   790)      1390.2  Rx         0042  8  00 00 00 00 00 00 00 00 
   791)      1391.2  Rx         0430  8  02 00 E3 99 8A 01 13 91 
   792)      1391.4  Rx         0434  8  27 E8 14 0A 0F FF 00 20 
   793)      1391.7  Rx         0435  8  28 20 10 92 09 20 09 02 
   794)      1393.9  Rx         0082  8  7B 00 14 40 75 00 00 FF 
   795)      1394.2  Rx         0085  8  7C FF 80 00 86 10 FF FE 
   796)      1394.8  Rx         0076  8  3E 80 40 00 00 00 00 00 
   797)      1395.0  Rx         0077  8  00 00 08 01 7F F7 E9 FF 
   798)      1395.3  Rx         007D  8  00 00 FE 10 00 1F D8 02 
   799)      1395.9  Rx         0213  8  FF FF 00 00 80 11 FF 41 
   800)      1396.4  Rx         0216  8  00 00 00 00 AA 00 00 00 
   801)      1396.7  Rx         0217  8  00 00 00 00 00 00 00 00 
   802)      1397.0  Rx         0047  8  20 00 00 00 00 00 00 00 
   803)      1397.2  Rx         0165  8  10 40 00 00 00 00 00 00 
   804)      1397.4  Rx         0167  8  00 80 35 00 00 1A 4E 00 
   805)      1397.7  Rx         0200  8  00 00 80 0C 80 0C 00 00 
   806)      1397.9  Rx         0202  8  00 F3 48 00 60 00 00 00 
   807)      1398.2  Rx         0204  8  C0 00 7D 00 00 00 00 00 
   808)      1398.4  Rx         0230  8  F0 1C 00 00 62 00 00 00 
   809)      1398.7  Rx         0415  8  00 00 D8 F6 0F FE 0F FE 
   810)      1398.9  Rx         0416  8  51 00 FD 00 01 00 00 00 
   811)      1399.2  Rx         04B0  8  9D 00 80 00 10 00 00 FE 
   812)      1403.6  Rx         0085  8  7C FF 80 00 85 20 FF FE 
   813)      1404.9  Rx         0217  8  00 00 00 00 00 00 00 00 
   814)      1406.8  Rx         0167  8  00 80 35 00 00 1A 4E 00 
   815)      1407.0  Rx         0171  8  F0 E0 00 00 00 00 00 00 
   816)      1407.2  Rx         0204  8  C0 00 7D 00 00 00 00 00 
   817)      1407.5  Rx         042F  8  7D 0C 00 38 46 25 00 00 
   818)      1407.8  Rx         043D  8  10 00 00 00 00 00 00 00 
   819)      1408.0  Rx         043E  8  00 37 10 8C 89 3F 38 09 
   820)      1409.9  Rx         0041  8  00 00 00 00 00 00 00 00 
   821)      1410.2  Rx         0042  8  00 00 00 00 00 00 00 00 
   822)      1410.4  Rx         0242  8  02 5E 1F 64 BE 00 00 01 
   823)      1410.7  Rx         040A  8  C1 02 32 30 39 33 31 FF 
   824)      1410.9  Rx         042C  8  8C 00 00 00 DB 40 00 00 
   825)      1413.9  Rx         0082  8  7B 00 14 40 75 00 00 FF 
   826)      1414.2  Rx         0085  8  7C FF 80 00 84 30 FF FE 
   827)      1414.8  Rx         0076  8  3E 80 40 00 00 00 00 00 
   828)      1415.1  Rx         0077  8  00 00 08 01 7F F7 E9 FF 
   829)      1415.3  Rx         0326  8  01 A0 02 6A 01 D0 00 00 
   830)      1415.6  Rx         007D  8  00 00 FD 20 00 20 08 02 
   831)      1416.0  Rx         0213  8  FF FF 00 00 80 11 FF 41 
   832)      1416.5  Rx         0216  8  00 00 00 00 AA 00 00 00 
   833)      1416.7  Rx         0217  8  00 00 00 00 00 00 00 00 
   834)      1417.0  Rx         0047  8  20 00 00 00 00 00 00 00 
   835)      1417.2  Rx         0165  8  10 40 00 00 00 00 00 00 
   836)      1417.5  Rx         0167  8  00 80 35 00 00 1A 4E 00 
   837)      1417.7  Rx         0200  8  00 00 80 0C 80 0C 00 00 
   838)      1418.0  Rx         0202  8  00 F1 58 00 60 00 00 00 
   839)      1418.2  Rx         0204  8  C0 00 7D 00 00 00 00 00 
   840)      1418.5  Rx         0230  8  F0 1C 00 00 62 00 00 00 
   841)      1418.7  Rx         0415  8  00 00 DC F5 0F FE 0F FE 
   842)      1418.9  Rx         04B0  8  9D 00 80 00 20 00 00 FD 
   843)      1423.5  Rx         0085  8  7C FF 80 00 83 40 FF FE 
   844)      1424.9  Rx         0217  8  00 00 00 00 00 00 00 00 
   845)      1426.7  Rx         0167  8  00 80 35 00 00 1A 4E 00 
   846)      1427.0  Rx         0204  8  C0 00 7D 00 00 00 00 00 
   847)      1428.1  Rx         0455  8  A0 00 00 00 00 00 00 00 
   848)      1429.9  Rx         0041  8  00 00 00 00 00 00 00 00 
   849)      1430.2  Rx         0042  8  00 00 00 00 00 00 00 00 
   850)      1434.0  Rx         0082  8  7B 00 14 40 75 00 00 FF 
   851)      1434.2  Rx         0085  8  7C FF 80 00 82 50 FF FE 
   852)      1434.8  Rx         0076  8  3E 80 40 00 00 00 00 00 
   853)      1435.0  Rx         0077  8  00 00 08 00 7F F7 E9 FF 
   854)      1435.3  Rx         007D  8  00 00 FC 30 00 20 08 02 
   855)      1435.9  Rx         0213  8  FF FF 00 00 80 11 FF 41 
   856)      1436.4  Rx         0216  8  00 00 00 00 AA 00 00 00 
   857)      1436.7  Rx         0217  8  00 00 00 00 00 00 00 00 
   858)      1437.0  Rx         0047  8  20 00 00 00 00 00 00 00 
   859)      1437.2  Rx         0165  8  10 40 00 00 00 00 00 00 
   860)      1437.4  Rx         0167  8  00 80 35 00 00 1A 4E 00 
   861)      1437.7  Rx         0171  8  F0 E0 00 00 00 00 00 00 
   862)      1437.9  Rx         0200  8  00 00 80 0C 80 0C 00 00 
   863)      1438.2  Rx         0202  8  00 EF 68 00 60 00 00 00 
   864)      1438.4  Rx         0204  8  C0 00 7D 00 00 00 00 00 
   865)      1438.7  Rx         0230  8  F0 1C 00 00 62 00 00 00 
   866)      1438.9  Rx         0415  8  00 00 E0 F4 0F FE 0F FE 
   867)      1439.2  Rx         042F  8  7D 0C 00 38 46 25 00 00 
   868)      1439.4  Rx         04B0  8  9D 00 80 00 30 00 00 FC 
   869)      1443.5  Rx         0085  8  7C FF 80 00 81 60 FF FE 
   870)      1444.9  Rx         0217  8  00 00 00 00 00 00 00 00 
   871)      1445.2  Rx         004A  8  02 00 00 00 00 00 00 00 
   872)      1445.4  Rx         004B  8  00 C0 D8 D8 D8 D8 C0 00 
   873)      1445.7  Rx         004C  8  20 AF FF 00 00 00 00 00 
   874)      1446.8  Rx         0167  8  00 80 35 00 00 1A 4E 00 
   875)      1447.0  Rx         0204  8  C0 00 7D 00 00 00 00 00 
   876)      1449.8  Rx         0083  8  00 E0 80 00 00 00 00 00 
   877)      1450.0  Rx         0041  8  00 00 00 00 00 00 00 00 
   878)      1450.3  Rx         0042  8  00 00 00 00 00 00 00 00 
   879)      1450.5  Rx         0242  8  02 5E 1F 64 BE 00 00 01 
   880)      1453.9  Rx         0082  8  7B 00 14 40 75 00 00 FF 
   881)      1454.2  Rx         0085  8  7C FF 80 00 80 70 FF FE 
   882)      1454.8  Rx         0076  8  3E 80 40 00 00 00 00 00 
   883)      1455.0  Rx         0077  8  00 00 08 02 7F F7 E9 FF 
   884)      1455.3  Rx         007D  8  00 00 FB 40 00 1F D8 00 
   885)      1455.9  Rx         0213  8  FF FF 00 00 80 11 FF 41 
   886)      1456.5  Rx         0216  8  00 00 00 00 AA 00 00 00 
   887)      1456.7  Rx         0217  8  00 00 00 00 00 00 00 00 
   888)      1456.9  Rx         0047  8  20 00 00 00 00 00 00 00 
   889)      1457.2  Rx         0156  8  89 5D 00 00 03 00 00 00 
   890)      1457.4  Rx         0165  8  10 40 00 00 00 00 00 00 
   891)      1457.7  Rx         0166  8  00 00 00 00 8A 75 00 00 
   892)      1457.9  Rx         0167  8  00 80 35 00 00 1A 4E 00 
   893)      1458.2  Rx         0178  8  00 00 02 00 0E 79 DE 79 
   894)      1458.4  Rx         0179  8  00 00 00 00 82 00 00 00 
   895)      1458.7  Rx         0200  8  00 00 80 0C 80 0C 00 00 
   896)      1458.9  Rx         0202  8  00 ED 78 00 60 00 00 00 
   897)      1459.1  Rx         0204  8  C0 00 7D 00 00 00 00 00 
   898)      1459.4  Rx         0230  8  F0 1C 00 00 62 00 00 00 
   899)      1459.7  Rx         0415  8  00 00 E4 F3 0F FE 0F FE 
   900)      1459.9  Rx         0421  8  04 00 14 00 00 00 3C 00 
   901)      1460.1  Rx         0424  8  00 FF A0 00 00 00 00 00 
   902)      1460.4  Rx         042C  8  8C 00 00 00 DB 40 00 00 
   903)      1460.6  Rx         042D  8  00 02 B6 00 00 00 F0 00 
   904)      1460.9  Rx         043D  8  10 00 00 00 00 00 00 00 
   905)      1461.1  Rx         043E  8  00 37 10 8C 89 3F 38 09 
   906)      1461.3  Rx         04B0  8  9D 00 80 00 40 00 08 FA 
   907)      1463.5  Rx         0085  8  7C FF 80 00 7F 80 FF FE 
   908)      1464.9  Rx         0217  8  00 00 00 00 00 00 00 00 
   909)      1466.7  Rx         0167  8  00 80 35 00 00 1A 4E 00 
   910)      1467.0  Rx         0171  8  F0 E0 00 00 00 00 00 00 
   911)      1467.3  Rx         0204  8  C0 00 7D 00 00 00 00 00 
   912)      1467.5  Rx         042F  8  7D 0C 00 38 46 25 00 00 
   913)      1469.9  Rx         0041  8  00 00 00 00 00 00 00 00 
   914)      1470.2  Rx         0042  8  00 00 00 00 00 00 00 00 
   915)      1473.9  Rx         0082  8  7B 00 14 40 75 00 00 FF 
   916)      1474.2  Rx         0085  8  7C FF 80 00 7E 90 FF FE 
   917)      1474.8  Rx         0076  8  3E 80 40 00 00 00 00 00 
   918)      1475.0  Rx         0077  8  00 00 08 00 7F F7 E9 FF 
   919)      1475.3  Rx         007D  8  00 00 FA 50 00 20 28 02 
   920)      1476.0  Rx         0213  8  FF FF 00 00 80 11 FF 41 
   921)      1476.5  Rx         0216  8  00 00 00 00 AA 00 00 00 
   922)      1476.7  Rx         0217  8  00 00 00 00 00 00 00 00 
   923)      1477.0  Rx         0047  8  20 00 00 00 00 00 00 00 
   924)      1477.2  Rx         0165  8  10 40 00 00 00 00 00 00 
   925)      1477.5  Rx         0167  8  00 80 35 00 00 1A 4E 00 
   926)      1477.7  Rx         0200  8  00 00 80 0C 80 0C 00 00 
   927)      1478.0  Rx         0202  8  00 FB 08 00 60 00 00 00 
   928)      1478.2  Rx         0204  8  C0 00 7D 00 00 00 00 00 
   929)      1478.4  Rx         0230  8  F0 1C 00 00 62 00 00 00 
   930)      1478.7  Rx         0415  8  00 00 E8 F2 0F FE 0F FE 
   931)      1479.0  Rx         04B0  8  9D 00 80 00 50 00 00 FA 
   932)      1483.6  Rx         0085  8  7C FF 80 00 7D A0 FF FE 
   933)      1484.9  Rx         0217  8  00 00 00 00 00 00 00 00 
   934)      1486.7  Rx         0092  8  6F AF 6F 8F 73 60 06 21 
   935)      1486.9  Rx         0167  8  00 80 35 00 00 1A 4E 00 
   936)      1487.1  Rx         0204  8  C0 00 7D 00 00 00 00 00 
   937)      1490.0  Rx         0041  8  00 00 00 00 00 00 00 00 
   938)      1490.2  Rx         0042  8  00 00 00 00 00 00 00 00 
   939)      1490.4  Rx         0242  8  02 5E 1F 64 BE 00 00 01 
   940)      1491.3  Rx         0430  8  02 00 E3 99 8A 01 13 91 
   941)      1491.6  Rx         0434  8  27 E8 14 0A 0F FF 00 20 
   942)      1491.8  Rx         0435  8  28 20 18 9A 09 20 09 02 
   943)      1493.9  Rx         0082  8  7B 00 14 40 75 00 00 FF 
   944)      1494.1  Rx         0085  8  7C FF 80 00 7C B0 FF FE 
   945)      1494.8  Rx         0076  8  3E 80 40 00 00 00 00 00 
   946)      1495.0  Rx         0077  8  00 00 08 01 7F F7 E9 FF 
   947)      1495.3  Rx         007D  8  00 00 F9 60 00 20 37 FF 
   948)      1495.9  Rx         0213  8  FF FF 00 00 80 11 FF 41 
   949)      1496.5  Rx         0216  8  00 00 00 00 AA 00 00 00 
   950)      1496.7  Rx         0217  8  00 00 00 00 00 00 00 00 
   951)      1497.0  Rx         0047  8  20 00 00 00 00 00 00 00 
   952)      1497.2  Rx         0165  8  10 40 00 00 00 00 00 00 
   953)      1497.4  Rx         0167  8  00 80 35 00 00 1A 4E 00 
   954)      1497.7  Rx         0171  8  F0 E0 00 00 00 00 00 00 
   955)      1497.9  Rx         0200  8  00 00 80 0C 80 0C 00 00 
   956)      1498.2  Rx         0202  8  00 F9 18 00 60 00 00 00 
   957)      1498.4  Rx         0204  8  C0 00 7D 00 00 00 00 00 
   958)      1498.7  Rx         0230  8  F0 1C 00 00 62 00 00 00 
   959)      1498.9  Rx         0415  8  00 00 EC F1 0F FE 0F FE 
   960)      1499.1  Rx         0416  8  52 00 FC 00 01 00 00 00 
   961)      1499.4  Rx         042F  8  7D 0C 00 38 46 25 00 00 
   962)      1499.6  Rx         04B0  8  9D 00 80 00 60 00 08 F8 
   963)      1503.5  Rx         0085  8  7C FF 80 00 7B C0 FF FE 
   964)      1504.9  Rx         0217  8  00 00 00 00 00 00 00 00 
   965)      1506.7  Rx         0167  8  00 80 35 00 00 1A 4E 00 
   966)      1507.0  Rx         0204  8  C0 00 7D 00 00 00 00 00 
   967)      1507.3  Rx         043D  8  10 00 00 00 00 00 00 00 
   968)      1507.5  Rx         043E  8  00 37 10 8C 89 3F 38 09 
   969)      1510.0  Rx         0041  8  00 00 00 00 00 00 00 00 
   970)      1510.2  Rx         0042  8  00 00 00 00 00 00 00 00 
   971)      1510.5  Rx         042C  8  8C 00 00 00 DB 40 00 00 
   972)      1513.9  Rx         0082  8  7B 00 14 40 75 00 00 FF 
   973)      1514.1  Rx         0085  8  7C FF 80 00 7A D0 FF FE 
   974)      1514.8  Rx         0076  8  3E 80 40 00 00 00 00 00 
   975)      1515.0  Rx         0077  8  00 00 07 FF 7F F7 E9 FF 
   976)      1515.3  Rx         007D  8  00 00 F8 70 00 1F C8 00 
   977)      1515.8  Rx         0326  8  01 A0 02 6A 01 D0 00 00 
   978)      1516.1  Rx         0213  8  FF FF 00 00 80 11 FF 41 
   979)      1516.5  Rx         0216  8  00 00 00 00 AA 00 00 00 
   980)      1516.7  Rx         0217  8  00 00 00 00 00 00 00 00 
   981)      1516.9  Rx         0047  8  20 00 00 00 00 00 00 00 
   982)      1517.2  Rx         0165  8  10 40 00 00 00 00 00 00 
   983)      1517.5  Rx         0167  8  00 80 35 00 00 1A 4E 00 
   984)      1517.7  Rx         0200  8  00 00 80 0C 80 0C 00 00 
   985)      1517.9  Rx         0202  8  00 F7 28 00 60 00 00 00 
   986)      1518.2  Rx         0204  8  C0 00 7D 00 00 00 00 00 
   987)      1518.4  Rx         0230  8  F0 1C 00 00 62 00 00 00 
   988)      1518.7  Rx         0415  8  00 00 F0 F0 0F FE 0F FE 
   989)      1518.9  Rx         04B0  8  9D 00 80 00 70 00 08 F7 
   990)      1523.6  Rx         0085  8  7C FF 80 00 79 E0 FF FE 
   991)      1524.9  Rx         0217  8  00 00 00 00 00 00 00 00 
   992)      1526.8  Rx         0167  8  00 80 35 00 00 1A 4E 00 
   993)      1527.0  Rx         0171  8  F0 E0 00 00 00 00 00 00 
   994)      1527.2  Rx         0204  8  C0 00 7D 00 00 00 00 00 
   995)      1527.5  Rx         042F  8  7D 0C 00 38 46 25 00 00 
   996)      1528.2  Rx         0455  8  A0 00 00 00 00 00 00 00 
   997)      1529.9  Rx         0041  8  00 00 00 00 00 00 00 00 
   998)      1530.1  Rx         0042  8  00 00 00 00 00 00 00 00 
   999)      1530.4  Rx         0242  8  02 5E 1F 64 BE 00 00 01 
  1000)      1533.9  Rx         0082  8  7B 00 14 40 75 00 00 FF 
  1001)      1534.1  Rx         0085  8  7C FF 80 00 78 F0 FF FE 
  1002)      1534.8  Rx         0076  8  3E 80 40 00 00 00 00 00 
  1003)      1535.0  Rx         0077  8  00 00 08 01 7F F7 E9 FF 
  1004)      1535.3  Rx         007D  8  00 00 F7 80 00 20 07 FF 
  1005)      1535.9  Rx         0213  8  FF FF 00 00 80 11 FF 41 
  1006)      1536.4  Rx         0216  8  00 00 00 00 AA 00 00 00 
  1007)      1536.7  Rx         0217  8  00 00 00 00 00 00 00 00 
  1008)      1537.0  Rx         0047  8  20 00 00 00 00 00 00 00 
  1009)      1537.2  Rx         0165  8  10 40 00 00 00 00 00 00 
  1010)      1537.5  Rx         0167  8  00 80 35 00 00 1A 4E 00 
  1011)      1537.7  Rx         0200  8  00 00 80 0C 80 0C 00 00 
  1012)      1537.9  Rx         0202  8  00 F5 38 00 60 00 00 00 
  1013)      1538.2  Rx         0204  8  C0 00 7D 00 00 00 00 00 
  1014)      1538.5  Rx         0230  8  F0 1C 00 00 62 00 00 00 
  1015)      1538.7  Rx         0415  8  00 00 F4 EF 0F FE 0F FE 
  1016)      1538.9  Rx         04B0  8  9D 00 80 00 80 00 08 F6 
  1017)      1541.3  Rx         05C7  8  C7 00 FF FF FF FF FF FF 
  1018)      1543.5  Rx         0085  8  7C FF 80 00 87 00 FF FE 
  1019)      1544.9  Rx         0217  8  00 00 00 00 00 00 00 00 
  1020)      1545.2  Rx         004A  8  02 00 00 00 00 00 00 00 
  1021)      1545.4  Rx         004B  8  00 C0 D8 D8 D8 D8 C0 00 
  1022)      1545.7  Rx         004C  8  20 AF FF 00 00 00 00 00 
  1023)      1546.7  Rx         0167  8  00 80 35 00 00 1A 4E 00 
  1024)      1547.0  Rx         0204  8  C0 00 7D 00 00 00 00 00 
  1025)      1549.7  Rx         0083  8  00 E0 80 00 00 00 00 00 
  1026)      1549.9  Rx         0041  8  00 00 00 00 00 00 00 00 
  1027)      1550.2  Rx         0042  8  00 00 00 00 00 00 00 00 
  1028)      1553.9  Rx         0082  8  7B 00 14 40 75 00 00 FF 
  1029)      1554.2  Rx         0085  8  7C FF 80 00 86 10 FF FE 
  1030)      1554.8  Rx         0076  8  3E 80 40 00 00 00 00 00 
  1031)      1555.0  Rx         0077  8  00 00 08 00 7F F7 E9 FF 
  1032)      1555.3  Rx         007D  8  00 00 F6 90 00 1F F8 02 
  1033)      1556.0  Rx         0213  8  FF FF 00 00 80 11 FF 41 
  1034)      1556.5  Rx         0216  8  00 00 00 00 AA 00 00 00 
  1035)      1556.7  Rx         0217  8  00 00 00 00 00 00 00 00 
  1036)      1556.9  Rx         0047  8  20 00 00 00 00 00 00 00 
  1037)      1557.2  Rx         0156  8  89 5D 00 00 03 00 00 00 
  1038)      1557.4  Rx         0165  8  10 40 00 00 00 00 00 00 
  1039)      1557.7  Rx         0166  8  00 00 00 00 8A 75 00 00 
  1040)      1557.9  Rx         0167  8  00 80 35 00 00 1A 4E 00 
  1041)      1558.2  Rx         0171  8  F0 E0 00 00 00 00 00 00 
  1042)      1558.4  Rx         0178  8  00 00 02 00 0E 79 DE 79 
  1043)      1558.6  Rx         0179  8  00 00 00 00 82 00 00 00 
  1044)      1558.9  Rx         0200  8  00 00 80 0C 80 0C 00 00 
  1045)      1559.2  Rx         0202  8  00 F3 48 00 60 00 00 00 
  1046)      1559.4  Rx         0204  8  C0 00 7D 00 00 00 00 00 
  1047)      1559.6  Rx         0230  8  F0 1C 00 00 62 00 00 00 
  1048)      1559.9  Rx         0415  8  00 00 F8 EE 0F FE 0F FE 
  1049)      1560.1  Rx         0421  8  04 00 14 00 00 00 3C 00 
  1050)      1560.3  Rx         0424  8  00 FF A0 00 00 00 00 00 
  1051)      1560.6  Rx         042C  8  8C 00 00 00 DB 40 00 00 
  1052)      1560.9  Rx         042D  8  00 02 B6 00 00 00 F0 00 
  1053)      1561.1  Rx         042F  8  7D 0C 00 38 46 25 00 00 
  1054)      1561.3  Rx         043D  8  10 00 00 00 00 00 00 00 
  1055)      1561.6  Rx         043E  8  00 37 10 8C 89 3F 38 09 
  1056)      1561.8  Rx         04B0  8  9D 00 80 00 90 00 00 F6 
  1057)      1563.5  Rx         0085  8  7C FF 80 00 85 20 FF FE 
  1058)      1564.9  Rx         0217  8  00 00 00 00 00 00 00 00 
  1059)      1566.8  Rx         0167  8  00 80 35 00 00 1A 4E 00 
  1060)      1567.0  Rx         0204  8  C0 00 7D 00 00 00 00 00 
  1061)      1570.4  Rx         0041  8  00 00 00 00 00 00 00 00 
  1062)      1570.6  Rx         0042  8  00 00 00 00 00 00 00 00 
  1063)      1570.8  Rx         0242  8  02 5E 1F 64 BE 00 00 01 
  1064)      1658.9  Rx         0202  8  00 F9 18 00 60 00 00 00 
  1065)      1659.2  Rx         0204  8  C0 00 7D 00 00 00 00 00 
  1066)      1659.4  Rx         0230  8  F0 1C 00 00 62 00 00 00 
  1067)      1659.7  Rx         0415  8  00 00 CC F9 0F FE 0F FE 
  1068)      1659.9  Rx         0421  8  04 00 14 00 00 00 3C 00 
  1069)      1660.1  Rx         0084  8  19 00 00 D1 36 13 13 00 
  1070)      1660.4  Rx         03B4  8  40 11 11 FF 20 20 00 00 
  1071)      1660.7  Rx         0424  8  00 FF A0 00 00 00 00 00 
  1072)      1660.9  Rx         042C  8  8C 00 00 00 DB 40 00 00 
  1073)      1661.1  Rx         042D  8  00 02 B6 00 00 00 F0 00 
  1074)      1661.4  Rx         043D  8  10 00 00 00 00 00 00 00 
  1075)      1661.6  Rx         043E  8  00 37 10 8C 89 3F 38 09 
  1076)      1661.9  Rx         04B0  8  9D 00 80 00 E0 00 00 F1 
  1077)      1663.5  Rx         0085  8  7C FF 80 00 7B C0 FF FE 
  1078)      1664.9  Rx         0217  8  00 00 00 00 00 00 00 00 
  1079)      1666.8  Rx         0167  8  00 80 35 00 00 1A 4E 00 
  1080)      1667.0  Rx         0204  8  C0 00 7D 00 00 00 00 00 
  1081)      1669.9  Rx         0041  8  00 00 00 00 00 00 00 00 
  1082)      1670.1  Rx         0042  8  00 00 00 00 00 00 00 00 
  1083)      1670.3  Rx         03B5  8  00 C5 00 B4 00 C7 00 C7 
  1084)      1673.9  Rx         0082  8  7B 00 14 40 75 00 00 FF 
  1085)      1674.2  Rx         0085  8  7C FF 80 00 7A D0 FF FE 
  1086)      1674.8  Rx         0076  8  3E 80 40 00 00 00 00 00 
  1087)      1675.0  Rx         0077  8  00 00 07 FF 7F F7 E5 FF 
  1088)      1675.3  Rx         007D  8  00 00 F0 F0 00 1F D8 02 
  1089)      1675.9  Rx         0213  8  FF FF 00 00 80 11 FF 41 
  1090)      1676.4  Rx         0216  8  00 00 00 00 AA 00 00 00 
  1091)      1676.7  Rx         0217  8  00 00 00 00 00 00 00 00 
  1092)      1677.0  Rx         0047  8  20 00 00 00 00 00 00 00 
  1093)      1677.2  Rx         0165  8  10 40 00 00 00 00 00 00 
  1094)      1677.4  Rx         0167  8  00 80 35 00 00 1A 4E 00 
  1095)      1677.7  Rx         0171  8  F0 E0 00 00 00 00 00 00 
  1096)      1677.9  Rx         0200  8  00 00 80 0C 80 0C 00 00 
  1097)      1678.2  Rx         0202  8  00 F7 28 00 60 00 00 00 
  1098)      1678.4  Rx         0204  8  C0 00 7D 00 00 00 00 00 
  1099)      1678.7  Rx         0230  8  F0 1C 00 00 62 00 00 00 
  1100)      1678.9  Rx         0415  8  00 00 D0 F8 0F FE 0F FE 
  1101)      1679.1  Rx         042F  8  7D 0C 00 38 46 25 00 00 
  1102)      1679.4  Rx         04B0  8  9D 00 80 00 F0 00 08 EF 
  1103)      1683.5  Rx         0085  8  7C FF 80 00 79 E0 FF FE 
  1104)      1684.9  Rx         0217  8  00 00 00 00 00 00 00 00 
  1105)      1686.7  Rx         0167  8  00 80 35 00 00 1A 4E 00 
  1106)      1687.0  Rx         0204  8  C0 00 7D 00 00 00 00 00 
  1107)      1689.9  Rx         0041  8  00 00 00 00 00 00 00 00 
  1108)      1690.2  Rx         0042  8  00 00 00 00 00 00 00 00 
  1109)      1690.4  Rx         0242  8  02 5E 1F 64 BE 00 00 01 
  1110)      1690.6  Rx         03C7  8  00 00 08 06 00 00 00 00 
  1111)      1691.5  Rx         0430  8  02 00 E3 99 8A 01 13 91 
  1112)      1691.7  Rx         0434  8  27 E8 14 0B 0F FF 00 20 
  1113)      1691.9  Rx         0435  8  28 20 18 9A 09 20 09 02 
  1114)      1694.0  Rx         0082  8  7B 00 14 40 75 00 00 FF 
  1115)      1694.2  Rx         0085  8  7C FF 80 00 78 F0 FF FE 
  1116)      1694.8  Rx         0076  8  3E 80 40 00 00 00 00 00 
  1117)      1695.0  Rx         0077  8  00 00 08 01 7F F7 E9 FF 
  1118)      1695.3  Rx         007D  8  00 00 FF 00 00 1F F8 00 
  1119)      1696.0  Rx         0213  8  FF FF 00 00 80 11 FF 41 
  1120)      1696.3  Rx         0092  8  6F AC 6F 8F 73 5F A1 8A 
  1121)      1696.6  Rx         0216  8  00 00 00 00 AA 00 00 00 
  1122)      1696.8  Rx         0047  8  20 00 00 00 00 00 00 00 
  1123)      1697.1  Rx         0165  8  10 40 00 00 00 00 00 00 
  1124)      1697.3  Rx         0167  8  00 80 35 00 00 1A 4E 00 
  1125)      1697.6  Rx         0200  8  00 00 80 0C 80 0C 00 00 
  1126)      1697.8  Rx         0202  8  00 F5 38 00 60 00 00 00 
  1127)      1698.0  Rx         0204  8  C0 00 7D 00 00 00 00 00 
  1128)      1698.3  Rx         0217  8  00 00 00 00 00 00 00 00 
  1129)      1698.6  Rx         0230  8  F0 1C 00 00 62 00 00 00 
  1130)      1698.8  Rx         0415  8  00 00 D4 F7 0F FE 0F FE 
  1131)      1699.0  Rx         0416  8  54 00 FA 00 01 00 00 00 
  1132)      1699.3  Rx         04B0  8  9D 00 80 00 00 00 08 FE 
  1133)      1703.6  Rx         0085  8  7C FF 80 00 87 00 FF FE 
  1134)      1704.9  Rx         0217  8  00 00 00 00 00 00 00 00 
  1135)      1706.8  Rx         0167  8  00 80 35 00 00 1A 4E 00 
  1136)      1707.0  Rx         0171  8  F0 E0 00 00 00 00 00 00 
  1137)      1707.2  Rx         0204  8  C0 00 7D 00 00 00 00 00 
  1138)      1707.5  Rx         042F  8  7D 0C 00 38 46 25 00 00 
  1139)      1707.7  Rx         043D  8  10 00 00 00 00 00 00 00 
  1140)      1708.0  Rx         043E  8  00 37 10 8C 89 3F 38 09 
  1141)      1709.9  Rx         0041  8  00 00 00 00 00 00 00 00 
  1142)      1710.1  Rx         0042  8  00 00 00 00 00 00 00 00 
  1143)      1710.4  Rx         03B3  8  40 88 00 12 10 00 80 22 
  1144)      1710.6  Rx         03C3  8  40 08 10 01 00 00 81 00 
  1145)      1710.9  Rx         042C  8  8C 00 00 00 DB 40 00 00 
  1146)      1714.0  Rx         0082  8  7B 00 14 40 75 00 00 FF 
  1147)      1714.2  Rx         0085  8  7C FF 80 00 86 10 FF FE 
  1148)      1714.8  Rx         0076  8  3E 80 40 00 00 00 00 00 
  1149)      1715.1  Rx         0077  8  00 00 08 00 7F F7 E9 FF 
  1150)      1715.3  Rx         0326  8  01 A0 02 6A 01 D0 00 00 
  1151)      1715.5  Rx         007D  8  00 00 FE 10 00 20 08 00 
  1152)      1716.0  Rx         0213  8  FF FF 00 00 80 11 FF 41 
  1153)      1716.5  Rx         0216  8  00 00 00 00 AA 00 00 00 
  1154)      1716.7  Rx         0217  8  00 00 00 00 00 00 00 00 
  1155)      1717.0  Rx         0047  8  20 00 00 00 00 00 00 00 
  1156)      1717.3  Rx         0165  8  10 40 00 00 00 00 00 00 
  1157)      1717.5  Rx         0167  8  00 80 35 00 00 1A 4E 00 
  1158)      1717.7  Rx         0200  8  00 00 80 0C 80 0C 00 00 
  1159)      1718.0  Rx         0202  8  00 F3 48 00 60 00 00 00 
  1160)      1718.2  Rx         0204  8  C0 00 7D 00 00 00 00 00 
  1161)      1718.5  Rx         0230  8  F0 1C 00 00 62 00 00 00 
  1162)      1718.7  Rx         0415  8  00 00 D8 F6 0F FE 0F FE 
  1163)      1719.0  Rx         04B0  8  9D 00 80 00 10 00 08 FD 
  1164)      1723.6  Rx         0085  8  7C FF 80 00 85 20 FF FE 
  1165)      1724.9  Rx         0217  8  00 00 00 00 00 00 00 00 
  1166)      1726.7  Rx         0167  8  00 80 35 00 00 1A 4E 00 
  1167)      1727.0  Rx         0204  8  C0 00 7D 00 00 00 00 00 
  1168)      1728.1  Rx         03E2  8  00 00 00 00 80 00 00 00 
  1169)      1728.3  Rx         03EA  8  00 00 00 00 00 00 60 00 
  1170)      1728.6  Rx         0455  8  A0 00 00 00 00 00 00 00 
  1171)      1729.9  Rx         0041  8  00 00 00 00 00 00 00 00 
  1172)      1730.2  Rx         0042  8  00 00 00 00 00 00 00 00 
  1173)      1730.4  Rx         0242  8  02 5E 1F 65 BE 00 00 01 
  1174)      1733.9  Rx         0082  8  7B 00 14 40 75 00 00 FF 
  1175)      1734.2  Rx         0085  8  7C FF 80 00 84 30 FF FE 
  1176)      1734.8  Rx         0076  8  3E 80 40 00 00 00 00 00 
  1177)      1735.0  Rx         0077  8  00 00 08 00 7F F7 E9 FF 
  1178)      1735.3  Rx         007D  8  00 00 FD 20 00 1F F7 FF 
  1179)      1736.0  Rx         0213  8  FF FF 00 00 80 11 FF 41 
  1180)      1736.5  Rx         0216  8  00 00 00 00 AA 00 00 00 
  1181)      1736.7  Rx         0217  8  00 00 00 00 00 00 00 00 
  1182)      1737.0  Rx         0047  8  20 00 00 00 00 00 00 00 
  1183)      1737.2  Rx         0165  8  10 40 00 00 00 00 00 00 
  1184)      1737.4  Rx         0167  8  00 80 35 00 00 1A 4E 00 
  1185)      1737.7  Rx         0171  8  F0 E0 00 00 00 00 00 00 
  1186)      1737.9  Rx         0200  8  00 00 80 0C 80 0C 00 00 
  1187)      1738.2  Rx         0202  8  00 F1 58 00 60 00 00 00 
  1188)      1738.4  Rx         0204  8  C0 00 7D 00 00 00 00 00 
  1189)      1738.7  Rx         0230  8  F0 1C 00 00 62 00 00 00 
  1190)      1738.9  Rx         0415  8  00 00 DC F5 0F FE 0F FE 
  1191)      1739.2  Rx         042F  8  7D 0C 00 38 46 25 00 00 
  1192)      1739.4  Rx         04B0  8  9D 00 80 00 20 00 08 FC 
  1193)      1743.5  Rx         0085  8  7C FF 80 00 83 40 FF FE 
  1194)      1744.9  Rx         0217  8  00 00 00 00 00 00 00 00 
  1195)      1745.2  Rx         004A  8  02 00 00 00 00 00 00 00 
  1196)      1745.4  Rx         004B  8  00 C0 D8 D8 D8 D8 C0 00 
  1197)      1745.7  Rx         004C  8  20 AF FF 00 00 00 00 00 
  1198)      1746.8  Rx         0167  8  00 80 35 00 00 1A 4E 00 
  1199)      1747.0  Rx         0204  8  C0 00 7D 00 00 00 00 00 
  1200)      1749.5  Rx         0083  8  00 E0 80 00 00 00 00 00 
  1201)      1749.9  Rx         0041  8  00 00 00 00 00 00 00 00 
  1202)      1750.2  Rx         0042  8  00 00 00 00 00 00 00 00 
  1203)      1753.9  Rx         0082  8  7B 00 14 40 75 00 00 FF 
  1204)      1754.1  Rx         0085  8  7C FF 80 00 82 50 FF FE 
  1205)      1754.8  Rx         0076  8  3E 80 40 00 00 00 00 00 
  1206)      1755.0  Rx         0077  8  00 00 08 00 7F F7 E5 FF 
  1207)      1755.3  Rx         007D  8  00 00 FC 30 00 20 18 02 
  1208)      1755.9  Rx         0213  8  FF FF 00 00 80 11 FF 41 
  1209)      1756.4  Rx         0216  8  00 00 00 00 AA 00 00 00 
  1210)      1756.7  Rx         0217  8  00 00 00 00 00 00 00 00 
  1211)      1757.0  Rx         0047  8  20 00 00 00 00 00 00 00 
  1212)      1757.2  Rx         0156  8  89 5D 00 00 03 00 00 00 
  1213)      1757.5  Rx         0165  8  10 40 00 00 00 00 00 00 
  1214)      1757.7  Rx         0166  8  00 00 00 00 8A 75 00 00 
  1215)      1757.9  Rx         0167  8  00 80 35 00 00 1A 4E 00 
  1216)      1758.1  Rx         0178  8  00 00 02 00 0E 79 DE 79 
  1217)      1758.4  Rx         0179  8  00 00 00 00 82 00 00 00 
  1218)      1758.7  Rx         0200  8  00 00 80 0C 80 0C 00 00 
  1219)      1758.9  Rx         0202  8  00 EF 68 00 60 00 00 00 
  1220)      1759.2  Rx         0204  8  C0 00 7D 00 00 00 00 00 
  1221)      1759.4  Rx         0230  8  F0 1C 00 00 62 00 00 00 
  1222)      1759.6  Rx         0415  8  00 00 E0 F4 0F FE 0F FE 
  1223)      1759.9  Rx         0421  8  04 00 14 00 00 00 3C 00 
  1224)      1760.2  Rx         0424  8  00 FF A0 00 00 00 00 00 
  1225)      1760.4  Rx         042C  8  8C 00 00 00 DB 40 00 00 
  1226)      1760.6  Rx         042D  8  00 02 B6 00 00 00 F0 00 
  1227)      1760.9  Rx         043D  8  10 00 00 00 00 00 00 00 
  1228)      1761.1  Rx         043E  8  00 37 10 8C 89 3F 38 09 
  1229)      1761.3  Rx         04B0  8  9D 00 80 00 30 00 00 FC 
  1230)      1763.6  Rx         0085  8  7C FF 80 00 81 60 FF FE 
  1231)      1764.9  Rx         0217  8  00 00 00 00 00 00 00 00 
  1232)      1766.8  Rx         0167  8  00 80 35 00 00 1A 4E 00 
  1233)      1767.0  Rx         0171  8  F0 E0 00 00 00 00 00 00 
  1234)      1767.2  Rx         0204  8  C0 00 7D 00 00 00 00 00 
  1235)      1767.5  Rx         042F  8  7D 0C 00 38 46 25 00 00 
  1236)      1769.9  Rx         0041  8  00 00 00 00 00 00 00 00 
  1237)      1770.1  Rx         0042  8  00 00 00 00 00 00 00 00 
  1238)      1770.4  Rx         0242  8  02 5E 1F 65 BE 00 00 01 
  1239)      1773.9  Rx         0082  8  7B 00 14 40 75 00 00 FF 
  1240)      1774.2  Rx         0085  8  7C FF 80 00 80 70 FF FE 
  1241)      1774.8  Rx         0076  8  3E 80 40 00 00 00 00 00 
  1242)      1775.1  Rx         0077  8  00 00 08 00 7F F7 E9 FF 
  1243)      1775.3  Rx         007D  8  00 00 FB 40 00 20 27 FF 
  1244)      1776.0  Rx         0213  8  FF FF 00 00 80 11 FF 41 
  1245)      1776.5  Rx         0216  8  00 00 00 00 AA 00 00 00 
  1246)      1776.7  Rx         0217  8  00 00 00 00 00 00 00 00 
  1247)      1777.0  Rx         0047  8  20 00 00 00 00 00 00 00 
  1248)      1777.2  Rx         0165  8  10 40 00 00 00 00 00 00 
  1249)      1777.4  Rx         0167  8  00 80 35 00 00 1A 4E 00 
  1250)      1777.7  Rx         0200  8  00 00 80 0C 80 0C 00 00 
  1251)      1778.0  Rx         0202  8  00 ED 78 00 60 00 00 00 
  1252)      1778.2  Rx         0204  8  C0 00 7D 00 00 00 00 00 
  1253)      1778.5  Rx         0230  8  F0 1C 00 00 62 00 00 00 
  1254)      1778.7  Rx         0415  8  00 00 E4 F3 0F FE 0F FE 
  1255)      1778.9  Rx         04B0  8  9D 00 80 00 40 00 00 FB 
  1256)      1783.5  Rx         0085  8  7C FF 80 00 7F 80 FF FE 
  1257)      1784.9  Rx         0217  8  00 00 00 00 00 00 00 00 
  1258)      1786.7  Rx         0167  8  00 80 35 00 00 1A 4E 00 
  1259)      1787.0  Rx         0204  8  C0 00 7D 00 00 00 00 00 
  1260)      1789.9  Rx         0041  8  00 00 00 00 00 00 00 00 
  1261)      1790.2  Rx         0042  8  00 00 00 00 00 00 00 00 
  1262)      1791.4  Rx         0430  8  02 00 E3 99 8A 01 13 91 
  1263)      1791.7  Rx         0434  8  27 E8 14 0A 0F FF 00 20 
  1264)      1791.9  Rx         0435  8  28 20 10 92 09 20 09 02 
  1265)      1794.0  Rx         0082  8  7B 00 14 40 75 00 00 FF 
  1266)      1794.2  Rx         0085  8  7C FF 80 00 7E 90 FF FE 
  1267)      1794.8  Rx         0076  8  3E 80 40 00 00 00 00 00 
  1268)      1795.1  Rx         0077  8  00 00 08 00 7F F7 ED FF 
  1269)      1795.3  Rx         007D  8  00 00 FA 50 00 1F D8 02 
  1270)      1796.0  Rx         0213  8  FF FF 00 00 80 11 FF 41 
  1271)      1796.5  Rx         0216  8  00 00 00 00 AA 00 00 00 
  1272)      1796.7  Rx         0217  8  00 00 00 00 00 00 00 00 
  1273)      1797.0  Rx         0047  8  20 00 00 00 00 00 00 00 
  1274)      1797.2  Rx         0165  8  10 40 00 00 00 00 00 00 
  1275)      1797.5  Rx         0167  8  00 80 35 00 00 1A 4E 00 
  1276)      1797.7  Rx         0171  8  F0 E0 00 00 00 00 00 00 
  1277)      1798.0  Rx         0200  8  00 00 80 0C 80 0C 00 00 
  1278)      1798.2  Rx         0202  8  00 FB 08 00 60 00 00 00 
  1279)      1798.4  Rx         0204  8  C0 00 7D 00 00 00 00 00 
  1280)      1798.7  Rx         0230  8  F0 1C 00 00 62 00 00 00 
  1281)      1799.0  Rx         0415  8  00 00 E8 F2 0F FE 0F FE 
  1282)      1799.2  Rx         0416  8  55 00 F9 00 01 00 00 00 
  1283)      1799.4  Rx         042F  8  7D 0C 00 38 46 25 00 00 
  1284)      1799.7  Rx         04B0  8  9D 00 80 00 50 00 00 FA 
  1285)      1801.3  Rx         0092  8  6F AB 6F 8E 73 5F 71 BC 
  1286)      1803.6  Rx         0085  8  7C FF 80 00 7D A0 FF FE 
  1287)      1804.9  Rx         0217  8  00 00 00 00 00 00 00 00 
  1288)      1806.8  Rx         0167  8  00 80 35 00 00 1A 4E 00 
  1289)      1807.0  Rx         0204  8  C0 00 7D 00 00 00 00 00 
  1290)      1807.2  Rx         043D  8  10 00 00 00 00 00 00 00 
  1291)      1807.5  Rx         043E  8  00 37 10 8C 89 3F 38 09 
  1292)      1809.9  Rx         0041  8  00 00 00 00 00 00 00 00 
  1293)      1810.1  Rx         0042  8  00 00 00 00 00 00 00 00 
  1294)      1810.4  Rx         0242  8  02 5E 1F 65 BE 00 00 01 
  1295)      1810.6  Rx         0331  8  C0 00 75 5C 64 04 10 02 
  1296)      1810.9  Rx         040A  8  C1 10 40 88 20 24 80 00 
  1297)      1811.1  Rx         042C  8  8C 00 00 00 DB 40 00 00 
  1298)      1813.9  Rx         0082  8  7B 00 14 40 75 00 00 FF 
  1299)      1814.2  Rx         0085  8  7C FF 80 00 7C B0 FF FE 
  1300)      1814.8  Rx         0076  8  3E 80 40 00 00 00 00 00 
  1301)      1815.0  Rx         0077  8  00 00 07 FF 7F F7 E9 FF 
  1302)      1815.3  Rx         0326  8  01 A0 02 6A 01 D0 00 00 
  1303)      1815.5  Rx         007D  8  00 00 F9 60 00 20 08 02 
  1304)      1815.9  Rx         0213  8  FF FF 00 00 80 11 FF 41 
  1305)      1816.5  Rx         0216  8  00 00 00 00 AA 00 00 00 
  1306)      1816.7  Rx         0217  8  00 00 00 00 00 00 00 00 
  1307)      1816.9  Rx         0047  8  20 00 00 00 00 00 00 00 
  1308)      1817.2  Rx         0165  8  10 40 00 00 00 00 00 00 
  1309)      1817.4  Rx         0167  8  00 80 35 00 00 1A 4E 00 
  1310)      1817.7  Rx         0200  8  00 00 80 0C 80 0C 00 00 
  1311)      1817.9  Rx         0202  8  00 F9 18 00 60 00 00 00 
  1312)      1818.2  Rx         0204  8  C0 00 7D 00 00 00 00 00 
  1313)      1818.4  Rx         0230  8  F0 1C 00 00 62 00 00 00 
  1314)      1818.7  Rx         0415  8  00 00 EC F1 0F FE 0F FE 
  1315)      1818.9  Rx         04B0  8  9D 00 80 00 60 00 08 F8 
  1316)      1823.5  Rx         0085  8  7C FF 80 00 7B C0 FF FE 
  1317)      1824.9  Rx         0217  8  00 00 00 00 00 00 00 00 
  1318)      1826.7  Rx         0167  8  00 80 35 00 00 1A 4E 00 
  1319)      1827.0  Rx         0171  8  F0 E0 00 00 00 00 00 00 
  1320)      1827.3  Rx         0204  8  C0 00 7D 00 00 00 00 00 
  1321)      1827.5  Rx         042F  8  7D 0C 00 38 46 25 00 00 
  1322)      1828.0  Rx         0455  8  A0 00 00 00 00 00 00 00 
  1323)      1829.9  Rx         0041  8  00 00 00 00 00 00 00 00 
  1324)      1830.1  Rx         0042  8  00 00 00 00 00 00 00 00 
  1325)      1834.0  Rx         0082  8  7B 00 14 40 75 00 00 FF 
  1326)      1834.2  Rx         0085  8  7C FF 80 00 7A D0 FF FE 
  1327)      1834.8  Rx         0076  8  3E 80 40 00 00 00 00 00 
  1328)      1835.0  Rx         0077  8  00 00 08 03 7F F7 E9 FF 
  1329)      1835.3  Rx         007D  8  00 00 F8 70 00 1F D8 00 
  1330)      1836.0  Rx         0213  8  FF FF 00 00 80 11 FF 41 
  1331)      1836.5  Rx         0216  8  00 00 00 00 AA 00 00 00 
  1332)      1836.7  Rx         0217  8  00 00 00 00 00 00 00 00 
  1333)      1836.9  Rx         0047  8  20 00 00 00 00 00 00 00 
  1334)      1837.2  Rx         0165  8  10 40 00 00 00 00 00 00 
  1335)      1837.5  Rx         0167  8  00 80 35 00 00 1A 4E 00 
  1336)      1837.7  Rx         0200  8  00 00 80 0C 80 0C 00 00 
  1337)      1837.9  Rx         0202  8  00 F7 28 00 60 00 00 00 
  1338)      1838.2  Rx         0204  8  C0 00 7D 00 00 00 00 00 
  1339)      1838.4  Rx         0230  8  F0 1C 00 00 62 00 00 00 
  1340)      1838.7  Rx         0415  8  00 00 F0 F0 0F FE 0F FE 
  1341)      1838.9  Rx         04B0  8  9D 00 80 00 70 00 00 F8 
  1342)      1843.6  Rx         0085  8  7C FF 80 00 79 E0 FF FE 
  1343)      1843.9  Rx         03DA  8  00 00 00 00 00 00 00 00 
  1344)      1844.9  Rx         0217  8  00 00 00 00 00 00 00 00 
  1345)      1845.1  Rx         004A  8  02 00 00 00 00 00 00 00 
  1346)      1845.4  Rx         004B  8  00 C0 D8 D8 D8 D8 C0 00 
  1347)      1845.6  Rx         004C  8  20 AF FF 00 00 00 00 00 
  1348)      1846.7  Rx         0167  8  00 80 35 00 00 1A 4E 00 
  1349)      1847.0  Rx         0204  8  C0 00 7D 00 00 00 00 00 
  1350)      1849.4  Rx         0083  8  00 E0 80 00 00 00 00 00 
  1351)      1849.9  Rx         0041  8  00 00 00 00 00 00 00 00 
  1352)      1850.2  Rx         0042  8  00 00 00 00 00 00 00 00 
  1353)      1850.4  Rx         0242  8  02 5E 1F 65 BE 00 00 01 
  1354)      1854.0  Rx         0082  8  7B 00 14 40 75 00 00 FF 
  1355)      1854.2  Rx         0085  8  7C FF 80 00 78 F0 FF FE 
  1356)      1854.8  Rx         0076  8  3E 80 40 00 00 00 00 00 
  1357)      1855.0  Rx         0077  8  00 00 08 00 7F F7 E9 FF 
  1358)      1855.3  Rx         007D  8  00 00 F7 80 00 1F D8 00 
  1359)      1855.9  Rx         0213  8  FF FF 00 00 80 11 FF 41 
  1360)      1856.4  Rx         0216  8  00 00 00 00 AA 00 00 00 
  1361)      1856.7  Rx         0217  8  00 00 00 00 00 00 00 00 
  1362)      1857.0  Rx         0047  8  20 00 00 00 00 00 00 00 
  1363)      1857.2  Rx         0156  8  89 5D 00 00 03 00 00 00 
  1364)      1857.4  Rx         0165  8  10 40 00 00 00 00 00 00 
  1365)      1857.7  Rx         0166  8  00 00 00 00 8A 75 00 00 
  1366)      1857.9  Rx         0167  8  00 80 35 00 00 1A 4E 00 
  1367)      1858.2  Rx         0171  8  F0 E0 00 00 00 00 00 00 
  1368)      1858.4  Rx         0178  8  00 00 02 00 0E 79 DE 79 
  1369)      1858.7  Rx         0179  8  00 00 00 00 82 00 00 00 
  1370)      1858.9  Rx         0200  8  00 00 80 0C 80 0C 00 00 
  1371)      1859.1  Rx         0202  8  00 F5 38 00 60 00 00 00 
  1372)      1859.4  Rx         0204  8  C0 00 7D 00 00 00 00 00 
  1373)      1859.6  Rx         0230  8  F0 1C 00 00 62 00 00 00 
  1374)      1859.9  Rx         0415  8  00 00 F4 EF 0F FE 0F FE 
  1375)      1860.1  Rx         0331  8  C0 00 75 5C 64 04 10 02 
  1376)      1860.4  Rx         03B6  8  08 00 04 00 00 00 00 00 
  1377)      1860.6  Rx         03B7  8  00 00 00 00 60 9D 4F 0A 
  1378)      1860.8  Rx         0421  8  04 00 14 00 00 00 3C 00 
  1379)      1861.1  Rx         0424  8  00 FF A0 00 00 00 00 00 
  1380)      1861.4  Rx         042C  8  8C 00 00 00 DB 40 00 00 
  1381)      1861.6  Rx         042D  8  00 02 B6 00 00 00 F0 00 
  1382)      1861.8  Rx         042F  8  7D 0C 00 38 46 25 00 00 
  1383)      1862.1  Rx         043D  8  10 00 00 00 00 00 00 00 
  1384)      1862.3  Rx         043E  8  00 37 10 8C 89 3F 38 09 
  1385)      1862.6  Rx         04B0  8  9D 00 80 00 80 00 00 F7 
  1386)      1863.5  Rx         0085  8  7C FF 80 00 87 00 FF FE 
  1387)      1864.9  Rx         0217  8  00 00 00 00 00 00 00 00 
  1388)      1866.7  Rx         0167  8  00 80 35 00 00 1A 4E 00 
  1389)      1867.0  Rx         0204  8  C0 00 7D 00 00 00 00 00 
  1390)      1869.9  Rx         0041  8  00 00 00 00 00 00 00 00 
  1391)      1870.1  Rx         0042  8  00 00 00 00 00 00 00 00 
  1392)      1873.9  Rx         0082  8  7B 00 14 40 75 00 00 FF 
  1393)      1874.2  Rx         0085  8  7C FF 80 00 86 10 FF FE 
  1394)      1874.8  Rx         0076  8  3E 80 40 00 00 00 00 00 
  1395)      1875.0  Rx         0077  8  00 00 08 01 7F F7 E9 FF 
  1396)      1875.2  Rx         007D  8  00 00 F6 90 00 20 28 02 
  1397)      1875.9  Rx         0213  8  FF FF 00 00 80 11 FF 41 
  1398)      1876.4  Rx         0216  8  00 00 00 00 AA 00 00 00 
  1399)      1876.7  Rx         0217  8  00 00 00 00 00 00 00 00 
  1400)      1876.9  Rx         0047  8  20 00 00 00 00 00 00 00 
  1401)      1877.2  Rx         0165  8  10 40 00 00 00 00 00 00 
  1402)      1877.4  Rx         0167  8  00 80 35 00 00 1A 4E 00 
  1403)      1877.7  Rx         0200  8  00 00 80 0C 80 0C 00 00 
  1404)      1877.9  Rx         0202  8  00 F3 48 00 60 00 00 00 
  1405)      1878.2  Rx         0204  8  C0 00 7D 00 00 00 00 00 
  1406)      1878.4  Rx         0230  8  F0 1C 00 00 62 00 00 00 
  1407)      1878.6  Rx         0415  8  00 00 F8 EE 0F FE 0F FE 
  1408)      1878.9  Rx         04B0  8  9D 00 80 00 90 00 00 F6 
  1409)      1883.6  Rx         0085  8  7C FF 80 00 85 20 FF FE 
  1410)      1884.9  Rx         0217  8  00 00 00 00 00 00 00 00 
  1411)      1885.3  Rx         03C8  8  00 00 00 00 00 00 50 00 
  1412)      1885.6  Rx         03E0  8  00 00 00 00 80 00 00 00 
  1413)      1886.8  Rx         0167  8  00 80 35 00 00 1A 4E 00 
  1414)      1887.0  Rx         0171  8  F0 E0 00 00 00 00 00 00 
  1415)      1887.2  Rx         0204  8  C0 00 7D 00 00 00 00 00 
  1416)      1887.5  Rx         042F  8  7D 0C 00 38 46 25 00 00 
  1417)      1889.9  Rx         0041  8  00 00 00 00 00 00 00 00 
  1418)      1890.1  Rx         0042  8  00 00 00 00 00 00 00 00 
  1419)      1890.4  Rx         0242  8  02 5E 1F 65 BE 00 00 01 
  1420)      1891.6  Rx         0430  8  02 00 E3 99 8A 01 13 91 
  1421)      1891.8  Rx         0434  8  27 E8 14 0A 0F FF 00 24 
  1422)      1892.1  Rx         0435  8  7C 70 18 DA 09 20 09 02 
  1423)      1893.9  Rx         0082  8  7B 00 14 40 75 00 00 FF 
  1424)      1894.1  Rx         0085  8  7C FF 80 00 84 30 FF FE 
  1425)      1894.8  Rx         0076  8  3E 80 40 00 00 00 00 00 
  1426)      1895.0  Rx         0077  8  00 00 08 00 7F F7 E5 FF 
  1427)      1895.3  Rx         007D  8  00 00 F5 A0 00 20 08 00 
  1428)      1896.0  Rx         0213  8  FF FF 00 00 80 11 FF 41 
  1429)      1896.5  Rx         0216  8  00 00 00 00 AA 00 00 00 
  1430)      1896.7  Rx         0217  8  00 00 00 00 00 00 00 00 
  1431)      1897.0  Rx         0047  8  20 00 00 00 00 00 00 00 
  1432)      1897.2  Rx         0165  8  10 40 00 00 00 00 00 00 
  1433)      1897.5  Rx         0167  8  00 80 35 00 00 1A 4E 00 
  1434)      1897.7  Rx         0200  8  00 00 80 0C 80 0C 00 00 
  1435)      1897.9  Rx         0202  8  00 F1 58 00 60 00 00 00 
  1436)      1898.2  Rx         0204  8  C0 00 7D 00 00 00 00 00 
  1437)      1898.4  Rx         0230  8  F0 1C 00 00 62 00 00 00 
  1438)      1898.7  Rx         0415  8  00 00 FC ED 0F FE 0F FE 
  1439)      1898.9  Rx         0416  8  56 00 F8 00 01 00 00 00 
  1440)      1899.2  Rx         04B0  8  9D 00 80 00 A0 00 08 F4 
  1441)      1903.5  Rx         0085  8  7C FF 80 00 83 40 FF FE 
  1442)      1904.9  Rx         0217  8  00 00 00 00 00 00 00 00 
  1443)      1906.0  Rx         0092  8  6F AC 6F 90 73 60 36 F3 
  1444)      1906.7  Rx         0167  8  00 80 35 00 00 1A 4E 00 
  1445)      1907.0  Rx         0204  8  C0 00 7D 00 00 00 00 00 
  1446)      1907.2  Rx         043D  8  10 00 00 00 00 00 00 00 
  1447)      1907.5  Rx         043E  8  00 37 10 8C 89 3F 38 09 
  1448)      1909.9  Rx         0041  8  00 00 00 00 00 00 00 00 
  1449)      1910.2  Rx         0042  8  00 00 00 00 00 00 00 00 
  1450)      1910.4  Rx         042C  8  8C 00 00 00 DB 40 00 00 
  1451)      1913.9  Rx         0082  8  7C 00 14 40 75 00 00 FF 
  1452)      1914.2  Rx         0085  8  7C FF 80 00 82 50 FF FE 
  1453)      1914.8  Rx         0076  8  3E 80 40 00 00 00 00 00 
  1454)      1915.0  Rx         0077  8  00 00 08 00 7F F7 E9 FF 
  1455)      1915.3  Rx         007D  8  00 00 F4 B0 00 20 18 02 
  1456)      1915.9  Rx         0213  8  FF FF 00 00 80 11 FF 41 
  1457)      1916.4  Rx         0216  8  00 00 00 00 AA 00 00 00 
  1458)      1916.7  Rx         0217  8  00 00 00 00 00 00 00 00 
  1459)      1916.9  Rx         0047  8  20 00 00 00 00 00 00 00 
  1460)      1917.2  Rx         0165  8  10 40 00 00 00 00 00 00 
  1461)      1917.4  Rx         0167  8  00 80 35 00 00 1A 4E 00 
  1462)      1917.7  Rx         0171  8  F0 E0 00 00 00 00 00 00 
  1463)      1917.9  Rx         0200  8  00 00 80 0C 80 0C 00 00 
  1464)      1918.2  Rx         0202  8  00 EF 68 00 60 00 00 00 
  1465)      1918.4  Rx         0204  8  C0 00 7D 00 00 00 00 00 
  1466)      1918.6  Rx         0230  8  F0 1C 00 00 62 00 00 00 
  1467)      1918.9  Rx         0326  8  01 A0 02 6A 01 D0 00 00 
  1468)      1919.2  Rx         0415  8  00 00 C0 FC 0F FE 0F FE 
  1469)      1919.4  Rx         042F  8  7D 0C 00 38 46 25 00 00 
  1470)      1919.6  Rx         04B0  8  9D 00 80 00 B0 00 08 F3 
  1471)      1921.9  Rx         035E  8  00 00 00 00 00 00 00 00 
  1472)      1923.5  Rx         0085  8  7C FF 80 00 81 60 FF FE 
  1473)      1924.9  Rx         0217  8  00 00 00 00 00 00 00 00 
  1474)      1926.7  Rx         0167  8  00 80 35 00 00 1A 4E 00 
  1475)      1927.0  Rx         0204  8  C0 00 7D 00 00 00 00 00 
  1476)      1928.0  Rx         0455  8  A0 00 00 00 00 00 00 00 
  1477)      1930.0  Rx         0041  8  00 00 00 00 00 00 00 00 
  1478)      1930.2  Rx         0042  8  00 00 00 00 00 00 00 00 
  1479)      1930.5  Rx         0242  8  02 5E 1F 64 BE 00 00 01 
  1480)      1933.9  Rx         0082  8  7B 00 14 40 75 00 00 FF 
  1481)      1934.2  Rx         0085  8  7C FF 80 00 80 70 FF FE 
  1482)      1934.7  Rx         0076  8  3E 80 40 00 00 00 00 00 
  1483)      1935.0  Rx         0077  8  00 00 08 00 7F F7 E9 FF 
  1484)      1935.2  Rx         007D  8  00 00 F3 C0 00 1F F8 02 
  1485)      1935.9  Rx         0213  8  FF FF 00 00 80 11 FF 41 
  1486)      1936.4  Rx         0216  8  00 00 00 00 AA 00 00 00 
  1487)      1936.7  Rx         0217  8  00 00 00 00 00 00 00 00 
  1488)      1936.9  Rx         0047  8  20 00 00 00 00 00 00 00 
  1489)      1937.2  Rx         0165  8  10 40 00 00 00 00 00 00 
  1490)      1937.4  Rx         0167  8  00 80 35 00 00 1A 4E 00 
  1491)      1937.7  Rx         0200  8  00 00 80 0C 80 0C 00 00 
  1492)      1937.9  Rx         0202  8  00 ED 78 00 60 00 00 00 
  1493)      1938.1  Rx         0204  8  C0 00 7D 00 00 00 00 00 
  1494)      1938.4  Rx         0230  8  F0 1C 00 00 62 00 00 00 
  1495)      1938.7  Rx         0415  8  00 00 C4 FB 0F FE 0F FE 
  1496)      1938.9  Rx         04B0  8  9D 00 80 00 C0 00 00 F3 
  1497)      1943.6  Rx         0085  8  7C FF 80 00 7F 80 FF FE 
  1498)      1944.9  Rx         0217  8  00 00 00 00 00 00 00 00 
  1499)      1945.1  Rx         004A  8  02 00 00 00 00 00 00 00 
  1500)      1945.4  Rx         004B  8  00 C0 D8 D8 D8 D8 C0 00 
  1501)      1945.7  Rx         004C  8  20 AF FF 00 00 00 00 00 
  1502)      1946.7  Rx         0167  8  00 80 35 00 00 1A 4E 00 
  1503)      1947.0  Rx         0171  8  F0 E0 00 00 00 00 00 00 
  1504)      1947.2  Rx         0204  8  C0 00 7D 00 00 00 00 00 
  1505)      1947.5  Rx         042F  8  7D 0C 00 38 46 25 00 00 
  1506)      1949.4  Rx         0083  8  00 E0 80 00 00 00 00 00 
  1507)      1950.1  Rx         0041  8  00 00 00 00 00 00 00 00 
  1508)      1950.3  Rx         0042  8  00 00 00 00 00 00 00 00 
