;$FILEVERSION=1.1
;$STARTTIME=45862.5715948843
;
;   Start time: 7/24/2025 13:43:05.798.0
;   Generated by PCAN-View v4.3.4.615
;
;   Message Number
;   |         Time Offset (ms)
;   |         |        Type
;   |         |        |        ID (hex)
;   |         |        |        |     Data Length
;   |         |        |        |     |   Data Bytes (hex) ...
;   |         |        |        |     |   |
;---+--   ----+----  --+--  ----+---  +  -+ -- -- -- -- -- -- --
     1)         0.7  Rx         0167  8  00 80 0B 00 00 19 F1 00 
     2)         0.9  Rx         0204  8  C0 12 7D 00 00 00 00 00 
     3)         1.2  Rx         0242  8  00 5B 1F 23 AB 00 00 01 
     4)         1.5  Rx         043D  8  00 33 35 F9 60 00 00 00 
     5)         1.7  Rx         043E  8  00 90 10 8D 72 34 4A 7B 
     6)         1.9  Rx         0047  8  20 00 00 00 00 00 00 00 
     7)         2.2  Rx         0165  8  10 40 00 00 21 43 00 00 
     8)         2.4  Rx         0171  8  F0 E0 00 00 00 00 00 00 
     9)         2.7  Rx         0200  8  00 00 7F FF 7F FF 00 00 
    10)         2.9  Rx         0230  8  1C 1C 00 00 5A 00 00 00 
    11)         3.2  Rx         0085  8  7D 03 80 00 7C 60 FF FE 
    12)         3.4  Rx         042F  8  7C 0C 00 3E 86 32 00 00 
    13)         5.5  Rx         0217  8  00 00 00 00 00 00 00 00 
    14)        10.0  Rx         0041  8  00 00 00 00 00 00 00 00 
    15)        10.2  Rx         0042  8  00 00 00 00 00 00 00 00 
    16)        10.5  Rx         0331  8  C0 00 57 84 62 00 00 04 
    17)        10.7  Rx         03B4  8  40 11 11 FF 20 20 00 00 
    18)        11.0  Rx         042C  8  AC 0C 80 00 DB 00 00 00 
    19)        12.5  Rx         0167  8  00 80 0B 00 00 19 F1 00 
    20)        12.7  Rx         0204  8  C0 12 7D 00 00 00 00 00 
    21)        13.0  Rx         043D  8  00 33 35 F9 60 00 00 00 
    22)        13.2  Rx         043E  8  00 90 10 8D 72 34 4A 7B 
    23)        13.4  Rx         0082  8  82 00 14 48 5D 00 20 FF 
    24)        13.7  Rx         0085  8  7D 03 80 00 7B 70 FF FE 
    25)        15.3  Rx         0076  8  3E 80 40 00 00 00 00 00 
    26)        15.6  Rx         0077  8  00 00 08 00 7F F7 F5 F7 
    27)        15.8  Rx         007D  8  00 00 F7 80 00 1F E7 FD 
    28)        16.1  Rx         0213  8  FF FF 00 00 80 11 FF 41 
    29)        16.3  Rx         0092  8  6F AB 6F 70 73 64 47 FF 
    30)        16.6  Rx         0216  8  00 00 00 00 AA 00 00 00 
    31)        17.0  Rx         0217  8  00 00 00 00 00 00 00 00 
    32)        17.7  Rx         0415  8  00 00 F4 EF 0F FE 0F FE 
    33)        18.0  Rx         04B0  8  17 00 80 00 80 00 00 F7 
    34)        21.1  Rx         03B5  8  00 C5 00 B2 00 C9 00 C7 
    35)        22.4  Rx         0047  8  20 00 00 00 00 00 00 00 
    36)        22.6  Rx         0165  8  10 40 00 00 21 43 00 00 
    37)        22.9  Rx         0085  8  7D 03 80 00 7A 80 FF FE 
    38)        23.1  Rx         0171  8  F0 E0 00 00 00 00 00 00 
    39)        23.3  Rx         0200  8  00 00 7F FF 7F FF 00 00 
    40)        23.6  Rx         0230  8  1C 1C 00 00 5A 00 00 00 
    41)        23.9  Rx         042F  8  7C 0C 00 3E 86 32 00 00 
    42)        25.4  Rx         0217  8  00 00 00 00 00 00 00 00 
    43)        30.1  Rx         0041  8  00 00 00 00 00 00 00 00 
    44)        30.3  Rx         0042  8  00 00 00 00 00 00 00 00 
    45)        33.2  Rx         0082  8  82 00 14 48 5D 00 20 FF 
    46)        33.4  Rx         0085  8  7D 03 80 00 79 90 FF FE 
    47)        33.6  Rx         0167  8  00 80 0B 00 00 19 F1 00 
    48)        33.9  Rx         0204  8  C0 12 7D 00 00 00 00 00 
    49)        34.1  Rx         043D  8  00 33 35 F9 60 00 00 00 
    50)        34.4  Rx         043E  8  00 90 10 8D 72 34 4A 7B 
    51)        35.2  Rx         059E  8  9E 00 FF FF FF FF FF FF 
    52)        35.4  Rx         0076  8  3E 80 40 00 00 00 00 00 
    53)        35.7  Rx         0077  8  00 00 07 FF 7F F7 F5 F5 
    54)        35.9  Rx         007D  8  00 00 F6 90 00 1F E8 03 
    55)        36.2  Rx         0213  8  FF FF 00 00 80 11 FF 41 
    56)        36.5  Rx         0216  8  00 00 00 00 AA 00 00 00 
    57)        36.8  Rx         0217  8  00 00 00 00 00 00 00 00 
    58)        37.0  Rx         02F1  8  00 00 50 00 50 FE 00 C0 
    59)        37.3  Rx         0386  8  00 00 00 00 00 00 00 00 
    60)        37.5  Rx         0415  8  00 00 F8 EE 0F FE 0F FE 
    61)        37.8  Rx         0430  8  02 00 E3 99 8A 01 13 91 
    62)        38.0  Rx         0434  8  27 E8 15 27 0F FF 00 20 
    63)        38.2  Rx         0435  8  28 20 18 1A AA 20 09 02 
    64)        38.5  Rx         0439  8  00 00 05 00 00 00 00 00 
    65)        38.7  Rx         04B0  8  17 00 80 00 90 00 00 F6 
    66)        41.3  Rx         0242  8  00 5B 1F 23 AB 00 00 01 
    67)        41.5  Rx         03C7  8  00 00 08 06 00 00 00 00 
    68)        42.1  Rx         0083  8  00 E0 80 00 00 00 00 00 
    69)        42.7  Rx         0085  8  7D 03 80 00 78 A0 FF FE 
    70)        43.5  Rx         0167  8  00 80 0B 00 00 19 F1 00 
    71)        43.8  Rx         0204  8  C0 12 7D 00 00 00 00 00 
    72)        44.0  Rx         043D  8  00 33 35 F9 60 00 00 00 
    73)        44.3  Rx         043E  8  00 90 10 8D 72 34 4A 7B 
    74)        44.5  Rx         0047  8  20 00 00 00 00 00 00 00 
    75)        44.7  Rx         0165  8  10 40 00 00 21 43 00 00 
    76)        45.0  Rx         0171  8  F0 E0 00 00 00 00 00 00 
    77)        45.2  Rx         0200  8  00 00 7F FF 7F FF 00 00 
    78)        45.5  Rx         0230  8  1C 1C 00 00 5A 00 00 00 
    79)        45.7  Rx         0217  8  00 00 00 00 00 00 00 00 
    80)        46.0  Rx         042F  8  7C 0C 00 3E 86 32 00 00 
    81)        47.1  Rx         004A  8  02 00 00 00 00 00 00 00 
    82)        47.3  Rx         004B  8  00 C0 D8 D8 D8 D8 C0 00 
    83)        47.6  Rx         004C  8  60 AF FF 00 00 00 00 00 
    84)        49.2  Rx         0455  8  A0 00 00 00 00 00 00 00 
    85)        50.2  Rx         0041  8  00 00 00 00 00 00 00 00 
    86)        50.5  Rx         0042  8  00 00 00 00 00 00 00 00 
    87)        53.2  Rx         0082  8  82 00 14 48 5D 00 20 FF 
    88)        53.4  Rx         0085  8  7D 03 80 00 77 B0 FF FE 
    89)        54.4  Rx         0167  8  00 80 0B 00 00 19 F1 00 
    90)        54.7  Rx         0204  8  C0 12 7D 00 00 00 00 00 
    91)        55.0  Rx         043D  8  00 33 35 F9 60 00 00 00 
    92)        55.2  Rx         043E  8  00 90 10 8D 72 34 4A 7B 
    93)        55.6  Rx         0076  8  3E 80 40 00 00 00 00 00 
    94)        55.8  Rx         0077  8  00 00 08 01 7F F7 F5 F5 
    95)        56.0  Rx         007D  8  00 00 F5 A0 00 1F B8 00 
    96)        56.5  Rx         0213  8  FF FF 00 00 80 11 FF 41 
    97)        57.0  Rx         0216  8  00 00 00 00 AA 00 00 00 
    98)        57.7  Rx         0217  8  00 00 00 00 00 00 00 00 
    99)        57.9  Rx         0415  8  00 00 FC ED 0F FE 0F FE 
   100)        58.2  Rx         0416  8  56 00 F8 08 01 00 00 00 
   101)        59.7  Rx         04B0  8  17 00 80 00 A0 00 00 F5 
   102)        61.1  Rx         03B3  8  40 48 00 12 10 05 80 3A 
   103)        61.3  Rx         03C3  8  40 C0 10 01 00 00 81 00 
   104)        61.5  Rx         042C  8  AC 0C 80 00 DB 00 00 00 
   105)        62.7  Rx         0085  8  7D 03 80 00 76 C0 FF FE 
   106)        64.3  Rx         0047  8  20 00 00 00 00 00 00 00 
   107)        64.6  Rx         0165  8  10 40 00 00 21 43 00 00 
   108)        64.9  Rx         0171  8  F0 E0 00 00 00 00 00 00 
   109)        65.1  Rx         0200  8  00 00 7F FF 7F FF 00 00 
   110)        65.3  Rx         0230  8  1C 1C 00 00 5A 00 00 00 
   111)        65.6  Rx         0217  8  00 00 00 00 00 00 00 00 
   112)        65.8  Rx         042F  8  7C 0C 00 3E 86 32 00 00 
   113)        70.1  Rx         0041  8  00 00 00 00 00 00 00 00 
   114)        70.3  Rx         0042  8  00 00 00 00 00 00 00 00 
   115)        73.2  Rx         0082  8  82 00 14 48 5D 00 20 FF 
   116)        73.4  Rx         0085  8  7D 03 80 00 75 D0 FF FE 
   117)        74.5  Rx         0167  8  00 80 0B 00 00 19 F1 00 
   118)        74.7  Rx         0204  8  C0 12 7D 00 00 00 00 00 
   119)        74.9  Rx         043D  8  00 33 35 F9 60 00 00 00 
   120)        75.2  Rx         043E  8  00 90 10 8D 72 34 4A 7B 
   121)        75.5  Rx         0076  8  3E 80 40 00 00 00 00 00 
   122)        75.8  Rx         0077  8  00 00 08 00 7F F7 F5 F6 
   123)        76.0  Rx         007D  8  00 00 F4 B0 00 1F F7 FD 
   124)        76.5  Rx         0213  8  FF FF 00 00 80 11 FF 41 
   125)        77.0  Rx         0216  8  00 00 00 00 AA 00 00 00 
   126)        77.7  Rx         0217  8  00 00 00 00 00 00 00 00 
   127)        78.0  Rx         0415  8  00 00 C0 FC 0F FE 0F FE 
   128)        78.2  Rx         04B0  8  17 00 80 00 B0 00 00 F4 
   129)        81.4  Rx         0242  8  00 5B 1F 23 AB 00 00 01 
   130)        82.7  Rx         0085  8  7D 03 80 00 74 E0 FF FE 
   131)        84.5  Rx         0156  8  50 5A 00 00 03 00 00 00 
   132)        84.7  Rx         0166  8  00 00 00 00 B3 06 00 00 
   133)        85.0  Rx         0178  8  00 00 01 FF 0E 74 DA 75 
   134)        85.2  Rx         0179  8  00 00 00 00 24 00 00 29 
   135)        85.5  Rx         0217  8  00 00 00 00 00 00 00 00 
   136)        85.7  Rx         0421  8  00 00 30 00 00 00 4A 00 
   137)        86.0  Rx         0424  8  00 22 40 00 00 00 00 00 
   138)        86.2  Rx         042D  8  00 02 89 00 00 00 F0 00 
   139)        90.1  Rx         0041  8  00 00 00 00 00 00 00 00 
   140)        90.4  Rx         0042  8  00 00 00 00 00 00 00 00 
   141)        93.1  Rx         0082  8  82 00 14 48 5D 00 20 FF 
   142)        93.4  Rx         0085  8  7D 03 80 00 73 F0 FF FE 
   143)        95.3  Rx         0076  8  3E 80 40 00 00 00 00 00 
   144)        95.5  Rx         0077  8  00 00 08 02 7F F7 F5 F6 
   145)        95.8  Rx         007D  8  00 00 F3 C0 00 1F D8 03 
   146)        96.0  Rx         0167  8  00 80 0B 00 00 19 F1 00 
   147)        96.3  Rx         0204  8  C0 11 7D 00 00 00 00 00 
   148)        96.5  Rx         0213  8  FF FF 00 00 80 11 FF 41 
   149)        96.7  Rx         043D  8  00 33 35 F9 60 00 00 00 
   150)        96.9  Rx         043E  8  00 90 10 8D 72 34 4A 7B 
   151)        97.2  Rx         0047  8  20 00 00 00 00 00 00 00 
   152)        97.5  Rx         0165  8  10 40 00 00 21 43 00 00 
   153)        97.7  Rx         0171  8  F0 E0 00 00 00 00 00 00 
   154)        98.0  Rx         0200  8  00 00 7F FF 7F FF 00 00 
   155)        98.2  Rx         0216  8  00 00 00 00 AA 00 00 00 
   156)        98.4  Rx         0230  8  1C 1C 00 00 5A 00 00 00 
   157)        98.7  Rx         0217  8  00 00 00 00 00 00 00 00 
   158)        99.0  Rx         042F  8  7C 0C 00 3E 86 32 00 00 
   159)        99.4  Rx         0415  8  00 00 C4 FB 0F FE 0F FE 
   160)        99.9  Rx         04B0  8  17 00 80 00 C0 00 00 F3 
   161)       100.7  Rx         0326  8  01 A0 02 6A 01 D0 00 00 
   162)       102.7  Rx         0085  8  7D 03 80 00 82 00 FF FE 
   163)       105.4  Rx         0217  8  00 00 00 00 00 00 00 00 
   164)       107.5  Rx         0167  8  00 80 0B 00 00 19 F1 00 
   165)       107.8  Rx         0204  8  C0 12 7D 00 00 00 00 00 
   166)       108.0  Rx         043D  8  00 33 35 F9 60 00 00 00 
   167)       108.3  Rx         043E  8  00 90 10 8D 72 34 4A 7B 
   168)       110.2  Rx         0041  8  00 00 00 00 00 00 00 00 
   169)       110.4  Rx         0042  8  00 00 00 00 00 00 00 00 
   170)       110.7  Rx         042C  8  AC 0C 80 00 DB 00 00 00 
   171)       113.2  Rx         0082  8  82 00 14 48 5D 00 20 FF 
   172)       113.4  Rx         0085  8  7D 03 80 00 81 10 FF FE 
   173)       115.3  Rx         0076  8  3E 80 40 00 00 00 00 00 
   174)       115.5  Rx         0077  8  00 00 08 01 7F F7 F9 F5 
   175)       115.8  Rx         007D  8  00 00 F2 D0 00 1F E7 FD 
   176)       116.1  Rx         0213  8  FF FF 00 00 80 11 FF 41 
   177)       116.8  Rx         0216  8  00 00 00 00 AA 00 00 00 
   178)       117.0  Rx         0217  8  00 00 00 00 00 00 00 00 
   179)       117.4  Rx         0047  8  20 00 00 00 00 00 00 00 
   180)       117.6  Rx         0165  8  10 40 00 00 21 43 00 00 
   181)       117.9  Rx         0171  8  F0 E0 00 00 00 00 00 00 
   182)       118.2  Rx         0200  8  00 00 7F FF 7F FF 00 00 
   183)       118.4  Rx         0230  8  1C 1C 00 00 5A 00 00 00 
   184)       118.6  Rx         0415  8  00 00 C8 FA 0F FE 0F FE 
   185)       118.9  Rx         042F  8  7C 0C 00 3E 86 32 00 00 
   186)       119.1  Rx         04B0  8  17 00 80 00 D0 00 00 F2 
   187)       120.9  Rx         0092  8  6F B0 6F 6E 73 56 1B 36 
   188)       121.3  Rx         0242  8  00 5B 1F 23 AB 00 00 01 
   189)       122.7  Rx         0085  8  7D 03 80 00 80 20 FF FE 
   190)       125.4  Rx         0217  8  00 00 00 00 00 00 00 00 
   191)       127.5  Rx         0167  8  00 80 0B 00 00 19 F1 00 
   192)       127.8  Rx         0204  8  C0 12 7D 00 00 00 00 00 
   193)       128.0  Rx         043D  8  00 33 35 F9 60 00 00 00 
   194)       128.2  Rx         043E  8  00 90 10 8D 72 34 4A 7B 
   195)       130.2  Rx         0041  8  00 00 00 00 00 00 00 00 
   196)       130.4  Rx         0042  8  00 00 00 00 00 00 00 00 
   197)       133.1  Rx         0082  8  83 00 14 48 5D 00 20 FF 
   198)       133.4  Rx         0085  8  7D 03 80 00 7F 30 FF FE 
   199)       135.3  Rx         0076  8  3E 80 40 00 00 00 00 00 
   200)       135.6  Rx         0077  8  00 00 08 00 7F F7 F9 F5 
   201)       135.8  Rx         007D  8  00 00 F1 E0 00 1F A7 FE 
   202)       136.0  Rx         0213  8  FF FF 00 00 80 11 FF 41 
   203)       136.5  Rx         0216  8  00 00 00 00 AA 00 00 00 
   204)       136.8  Rx         0430  8  02 00 E3 99 8A 01 13 91 
   205)       137.0  Rx         0217  8  00 00 00 00 00 00 00 00 
   206)       137.2  Rx         0434  8  27 E8 15 29 0F FF 00 20 
   207)       137.5  Rx         0435  8  28 20 10 12 AA 20 09 02 
   208)       137.7  Rx         0167  8  00 80 0B 00 00 19 F1 00 
   209)       137.9  Rx         0204  8  C0 12 7D 00 00 00 00 00 
   210)       138.2  Rx         0415  8  00 00 CC F9 0F FE 0F FE 
   211)       138.4  Rx         043D  8  00 33 35 F9 60 00 00 00 
   212)       138.7  Rx         043E  8  00 90 10 8D 72 34 4A 7B 
   213)       138.9  Rx         0047  8  20 00 00 00 00 00 00 00 
   214)       139.2  Rx         0165  8  10 40 00 00 21 43 00 00 
   215)       139.4  Rx         0171  8  F0 E0 00 00 00 00 00 00 
   216)       139.7  Rx         0200  8  00 00 7F FF 7F FF 00 00 
   217)       139.9  Rx         0230  8  1C 1C 00 00 5A 00 00 00 
   218)       140.2  Rx         042F  8  7C 0C 00 3E 86 32 00 00 
   219)       140.4  Rx         04B0  8  17 00 80 00 E0 00 00 F1 
   220)       142.0  Rx         0083  8  00 E0 80 00 00 00 00 00 
   221)       142.7  Rx         0085  8  7D 03 80 00 7E 40 FF FE 
   222)       145.4  Rx         0217  8  00 00 00 00 00 00 00 00 
   223)       146.9  Rx         004A  8  02 00 00 00 00 00 00 00 
   224)       147.2  Rx         004B  8  00 C0 D8 D8 D8 D8 C0 00 
   225)       147.5  Rx         004C  8  60 AF FF 00 00 00 00 00 
   226)       149.0  Rx         0455  8  A0 00 00 00 00 00 00 00 
   227)       149.5  Rx         0167  8  00 80 0B 00 00 19 F1 00 
   228)       149.7  Rx         0204  8  C0 11 7D 00 00 00 00 00 
   229)       150.0  Rx         043D  8  00 33 35 F9 60 00 00 00 
   230)       150.2  Rx         043E  8  00 90 10 8D 72 34 4A 7B 
   231)       150.4  Rx         0041  8  00 00 00 00 00 00 00 00 
   232)       150.7  Rx         0042  8  00 00 00 00 00 00 00 00 
   233)       153.1  Rx         0082  8  82 00 14 48 5D 00 20 FF 
   234)       153.3  Rx         0085  8  7D 03 80 00 7D 50 FF FE 
   235)       155.3  Rx         0076  8  3E 80 40 00 00 00 00 00 
   236)       155.6  Rx         0077  8  00 00 08 00 7F F7 F5 F6 
   237)       155.8  Rx         007D  8  00 00 F0 F0 00 1F F8 01 
   238)       156.3  Rx         0213  8  FF FF 00 00 80 11 FF 41 
   239)       156.8  Rx         0216  8  00 00 00 00 AA 00 00 00 
   240)       157.0  Rx         0217  8  00 00 00 00 00 00 00 00 
   241)       157.7  Rx         0415  8  00 00 D0 F8 0F FE 0F FE 
   242)       157.9  Rx         0416  8  57 00 F7 08 01 00 00 00 
   243)       159.4  Rx         0047  8  20 00 00 00 00 00 00 00 
   244)       159.6  Rx         0165  8  10 40 00 00 21 43 00 00 
   245)       159.9  Rx         0171  8  F0 E0 00 00 00 00 00 00 
   246)       160.1  Rx         0200  8  00 00 7F FF 7F FF 00 00 
   247)       160.3  Rx         0230  8  1C 1C 00 00 5A 00 00 00 
   248)       160.6  Rx         042F  8  7C 0C 00 3E 86 32 00 00 
   249)       160.9  Rx         04B0  8  17 00 80 00 F0 00 00 F0 
   250)       161.2  Rx         0242  8  00 5B 1F 23 AB 00 00 01 
   251)       161.4  Rx         040A  8  C1 02 32 30 39 33 31 FF 
   252)       161.6  Rx         042C  8  AC 0C 80 00 DB 00 00 00 
   253)       162.7  Rx         0085  8  7D 03 80 00 7C 60 FF FE 
   254)       165.4  Rx         0217  8  00 00 00 00 00 00 00 00 
   255)       169.5  Rx         0167  8  00 80 0B 00 00 19 F1 00 
   256)       169.7  Rx         0204  8  C0 12 7D 00 00 00 00 00 
   257)       169.9  Rx         043D  8  00 33 35 F9 60 00 00 00 
   258)       170.2  Rx         0041  8  00 00 00 00 00 00 00 00 
   259)       170.5  Rx         0042  8  00 00 00 00 00 00 00 00 
   260)       170.7  Rx         043E  8  00 90 10 8D 72 34 4A 7B 
   261)       173.1  Rx         0082  8  83 00 14 48 5D 00 20 FF 
   262)       173.4  Rx         0085  8  7D 03 80 00 7B 70 FF FE 
   263)       175.3  Rx         0076  8  3E 80 40 00 00 00 00 00 
   264)       175.5  Rx         0077  8  00 00 08 02 7F F7 F5 F5 
   265)       175.8  Rx         007D  8  00 00 FF 00 00 1F D7 FE 
   266)       176.3  Rx         0213  8  FF FF 00 00 80 11 FF 41 
   267)       176.7  Rx         0216  8  00 00 00 00 AA 00 00 00 
   268)       177.0  Rx         0217  8  00 00 00 00 00 00 00 00 
   269)       177.7  Rx         0415  8  00 00 D4 F7 0F FE 0F FE 
   270)       178.2  Rx         04B0  8  17 00 80 00 00 00 00 FF 
   271)       182.7  Rx         0085  8  7D 03 80 00 7A 80 FF FE 
   272)       185.3  Rx         0217  8  00 00 00 00 00 00 00 00 
   273)       189.4  Rx         0167  8  00 80 0B 00 00 19 F1 00 
   274)       189.7  Rx         0204  8  C0 11 7D 00 00 00 00 00 
   275)       190.0  Rx         043D  8  00 33 35 F9 60 00 00 00 
   276)       190.2  Rx         0041  8  00 00 00 00 00 00 00 00 
   277)       190.4  Rx         0042  8  00 00 00 00 00 00 00 00 
   278)       190.7  Rx         043E  8  00 90 10 8D 72 34 4A 7B 
   279)       190.9  Rx         0047  8  20 00 00 00 00 00 00 00 
   280)       191.2  Rx         0165  8  10 40 00 00 21 43 00 00 
   281)       191.4  Rx         0171  8  F0 E0 00 00 00 00 00 00 
   282)       191.7  Rx         0200  8  00 00 7F FF 7F FF 00 00 
   283)       191.9  Rx         0230  8  1C 1C 00 00 5A 00 00 00 
   284)       192.1  Rx         042F  8  7C 0C 00 3E 86 32 00 00 
   285)       192.4  Rx         0156  8  50 5A 00 00 03 00 00 00 
   286)       192.6  Rx         0166  8  00 00 00 00 B3 06 00 00 
   287)       192.9  Rx         0178  8  00 00 01 FF 0E 74 DA 75 
   288)       193.1  Rx         0179  8  00 00 00 00 24 00 00 29 
   289)       193.4  Rx         0082  8  82 00 14 48 5D 00 20 FF 
   290)       193.6  Rx         0085  8  7D 03 80 00 79 90 FF FE 
   291)       193.8  Rx         0421  8  00 00 30 00 00 00 4A 00 
   292)       194.1  Rx         0424  8  00 22 40 00 00 00 00 00 
   293)       194.3  Rx         042D  8  00 02 89 00 00 00 F0 00 
   294)       195.4  Rx         0076  8  3E 80 40 00 00 00 00 00 
   295)       195.6  Rx         0077  8  00 00 08 00 7F F7 F5 F6 
   296)       195.9  Rx         007D  8  00 00 FE 10 00 1F F8 03 
   297)       196.1  Rx         0213  8  FF FF 00 00 80 11 FF 41 
   298)       196.6  Rx         0216  8  00 00 00 00 AA 00 00 00 
   299)       197.6  Rx         0217  8  00 00 00 00 00 00 00 00 
   300)       197.8  Rx         0415  8  00 00 D8 F6 0F FE 0F FE 
   301)       198.1  Rx         04B0  8  17 00 80 00 10 00 00 FE 
   302)       200.2  Rx         0326  8  01 A0 02 6A 01 D0 00 00 
   303)       200.9  Rx         0242  8  00 5B 1F 23 AB 00 00 01 
   304)       202.6  Rx         0085  8  7D 03 80 00 78 A0 FF FE 
   305)       203.5  Rx         0167  8  00 80 0B 00 00 19 F1 00 
   306)       203.7  Rx         0204  8  C0 12 7D 00 00 00 00 00 
   307)       204.0  Rx         043D  8  00 33 35 F9 60 00 00 00 
   308)       204.2  Rx         043E  8  00 90 10 8D 72 34 4A 7B 
   309)       205.3  Rx         0217  8  00 00 00 00 00 00 00 00 
   310)       209.9  Rx         0041  8  00 00 00 00 00 00 00 00 
   311)       210.2  Rx         0042  8  00 00 00 00 00 00 00 00 
   312)       210.4  Rx         0331  8  C0 00 57 84 62 00 00 04 
   313)       210.7  Rx         03B6  8  08 00 05 00 00 00 00 00 
   314)       210.9  Rx         03B7  8  00 00 01 00 60 50 62 3D 
   315)       211.2  Rx         042C  8  AC 0C 80 00 DB 00 00 00 
   316)       213.1  Rx         0082  8  83 00 14 48 5D 00 20 FF 
   317)       213.3  Rx         0085  8  7D 03 80 00 77 B0 FF FE 
   318)       213.6  Rx         0047  8  20 00 00 00 00 00 00 00 
   319)       213.8  Rx         0165  8  10 40 00 00 21 43 00 00 
   320)       214.1  Rx         0171  8  F0 E0 00 00 00 00 00 00 
   321)       214.3  Rx         0200  8  00 00 7F FF 7F FF 00 00 
   322)       214.5  Rx         0230  8  1C 1C 00 00 5A 00 00 00 
   323)       214.8  Rx         042F  8  7C 0C 00 3E 86 32 00 00 
   324)       215.4  Rx         0076  8  3E 80 40 00 00 00 00 00 
   325)       215.6  Rx         0077  8  00 00 08 00 7F F7 F5 F5 
   326)       215.9  Rx         007D  8  00 00 FD 20 00 1F F7 FC 
   327)       216.1  Rx         0213  8  FF FF 00 00 80 11 FF 41 
   328)       216.6  Rx         0216  8  00 00 00 00 AA 00 00 00 
   329)       217.6  Rx         0217  8  00 00 00 00 00 00 00 00 
   330)       217.8  Rx         0415  8  00 00 DC F5 0F FE 0F FE 
   331)       218.3  Rx         04B0  8  17 00 80 00 20 00 00 FD 
   332)       222.7  Rx         0085  8  7D 03 80 00 76 C0 FF FE 
   333)       224.4  Rx         0167  8  00 80 0B 00 00 19 F1 00 
   334)       224.6  Rx         0204  8  C0 11 7D 00 00 00 00 00 
   335)       224.9  Rx         043D  8  00 33 35 F9 60 00 00 00 
   336)       225.1  Rx         043E  8  00 90 10 8D 72 34 4A 7B 
   337)       225.5  Rx         0217  8  00 00 00 00 00 00 00 00 
   338)       225.7  Rx         0092  8  6F AD 6F 6E 73 60 E2 68 
   339)       230.0  Rx         0041  8  00 00 00 00 00 00 00 00 
   340)       230.2  Rx         0042  8  00 00 00 00 00 00 00 00 
   341)       233.1  Rx         0082  8  82 00 14 48 5D 00 20 FF 
   342)       233.3  Rx         0085  8  7D 03 80 00 75 D0 FF FE 
   343)       234.3  Rx         0047  8  20 00 00 00 00 00 00 00 
   344)       234.5  Rx         0165  8  10 40 00 00 21 43 00 00 
   345)       234.8  Rx         0171  8  F0 E0 00 00 00 00 00 00 
   346)       235.0  Rx         0200  8  00 00 7F FF 7F FF 00 00 
   347)       235.3  Rx         0230  8  1C 1C 00 00 5A 00 00 00 
   348)       235.5  Rx         0076  8  3E 80 40 00 00 00 00 00 
   349)       235.8  Rx         0077  8  00 00 07 FF 7F F7 F5 F5 
   350)       236.0  Rx         007D  8  00 00 FC 30 00 1F D8 00 
   351)       236.2  Rx         042F  8  7C 0C 00 3E 86 32 00 00 
   352)       236.5  Rx         0213  8  FF FF 00 00 80 11 FF 41 
   353)       236.8  Rx         0216  8  00 00 00 00 AA 00 00 00 
   354)       237.1  Rx         0430  8  02 00 E3 99 8A 01 13 91 
   355)       237.4  Rx         0434  8  27 E8 15 29 0F FF 00 20 
   356)       237.6  Rx         0435  8  28 20 18 1A AA 20 09 02 
   357)       237.9  Rx         0217  8  00 00 00 00 00 00 00 00 
   358)       238.3  Rx         0415  8  00 00 E0 F4 0F FE 0F FE 
   359)       239.0  Rx         04B0  8  17 00 80 00 30 00 00 FC 
   360)       241.1  Rx         0242  8  00 5B 1F 23 AB 00 00 01 
   361)       242.0  Rx         0083  8  00 E0 80 00 00 00 00 00 
   362)       242.6  Rx         0085  8  7D 03 80 00 74 E0 FF FE 
   363)       244.4  Rx         0167  8  00 80 0B 00 00 19 F1 00 
   364)       244.7  Rx         0204  8  C0 12 7D 00 00 00 00 00 
   365)       244.9  Rx         043D  8  00 33 35 F9 60 00 00 00 
   366)       245.2  Rx         043E  8  00 90 10 8D 72 34 4A 7B 
   367)       245.5  Rx         0217  8  00 00 00 00 00 00 00 00 
   368)       246.9  Rx         004A  8  02 00 00 00 00 00 00 00 
   369)       247.1  Rx         004B  8  00 C0 D8 D8 D8 D8 C0 00 
   370)       247.4  Rx         004C  8  60 AF FF 00 00 00 00 00 
   371)       249.3  Rx         0455  8  A0 00 00 00 00 00 00 00 
   372)       250.1  Rx         0041  8  00 00 00 00 00 00 00 00 
   373)       250.4  Rx         0042  8  00 00 00 00 00 00 00 00 
   374)       253.1  Rx         0082  8  82 00 14 48 5D 00 20 FF 
   375)       253.3  Rx         0085  8  7D 03 80 00 73 F0 FF FE 
   376)       255.3  Rx         0076  8  3E 80 40 00 00 00 00 00 
   377)       255.5  Rx         0077  8  00 00 08 01 7F F7 F5 F5 
   378)       255.8  Rx         007D  8  00 00 FB 40 00 1F D7 FE 
   379)       256.2  Rx         0213  8  FF FF 00 00 80 11 FF 41 
   380)       256.7  Rx         0216  8  00 00 00 00 AA 00 00 00 
   381)       257.2  Rx         0217  8  00 00 00 00 00 00 00 00 
   382)       257.7  Rx         0415  8  00 00 E4 F3 0F FE 0F FE 
   383)       257.9  Rx         0416  8  58 00 F6 08 01 00 00 00 
   384)       258.9  Rx         04B0  8  17 00 80 00 40 00 00 FB 
   385)       261.0  Rx         042C  8  AC 0C 80 00 DB 00 00 00 
   386)       262.7  Rx         0085  8  7D 03 80 00 82 00 FF FE 
   387)       264.4  Rx         0167  8  00 80 0B 00 00 19 F1 00 
   388)       264.6  Rx         0204  8  C0 12 7D 00 00 00 00 00 
   389)       264.9  Rx         043D  8  00 33 35 F9 60 00 00 00 
   390)       265.1  Rx         043E  8  00 90 10 8D 72 34 4A 7B 
   391)       265.3  Rx         0047  8  20 00 00 00 00 00 00 00 
   392)       265.6  Rx         0165  8  10 40 00 00 21 43 00 00 
   393)       265.9  Rx         0171  8  F0 E0 00 00 00 00 00 00 
   394)       266.1  Rx         0200  8  00 00 7F FF 7F FF 00 00 
   395)       266.3  Rx         0217  8  00 00 00 00 00 00 00 00 
   396)       266.6  Rx         0230  8  1C 1C 00 00 5A 00 00 00 
   397)       266.8  Rx         042F  8  7C 0C 00 3E 86 32 00 00 
   398)       270.2  Rx         0041  8  00 00 00 00 00 00 00 00 
   399)       270.4  Rx         0042  8  00 00 00 00 00 00 00 00 
   400)       273.1  Rx         0082  8  82 00 14 48 5D 00 20 FF 
   401)       273.3  Rx         0085  8  7D 03 80 00 81 10 FF FE 
   402)       275.3  Rx         0076  8  3E 80 40 00 00 00 00 00 
   403)       275.6  Rx         0077  8  00 00 08 03 7F F7 F9 F5 
   404)       275.8  Rx         0167  8  00 80 0B 00 00 19 F1 00 
   405)       276.1  Rx         007D  8  00 00 FA 50 00 1F E8 00 
   406)       276.3  Rx         0204  8  C0 11 7D 00 00 00 00 00 
   407)       276.6  Rx         0213  8  FF FF 00 00 80 11 FF 41 
   408)       276.8  Rx         043D  8  00 33 35 F9 60 00 00 00 
   409)       277.0  Rx         043E  8  00 90 10 8D 72 34 4A 7B 
   410)       277.8  Rx         0216  8  00 00 00 00 AA 00 00 00 
   411)       278.0  Rx         0217  8  00 00 00 00 00 00 00 00 
   412)       278.3  Rx         0415  8  00 00 E8 F2 0F FE 0F FE 
   413)       278.7  Rx         04B0  8  17 00 80 00 50 00 00 FA 
   414)       281.0  Rx         0242  8  00 5B 1F 23 AB 00 00 01 
   415)       282.6  Rx         0085  8  7D 03 80 00 80 20 FF FE 
   416)       285.3  Rx         0217  8  00 00 00 00 00 00 00 00 
   417)       285.5  Rx         0047  8  20 00 00 00 00 00 00 00 
   418)       285.8  Rx         0165  8  10 40 00 00 21 43 00 00 
   419)       286.0  Rx         0171  8  F0 E0 00 00 00 00 00 00 
   420)       286.3  Rx         0200  8  00 00 7F FF 7F FF 00 00 
   421)       286.5  Rx         0230  8  1C 1C 00 00 5A 00 00 00 
   422)       286.8  Rx         042F  8  7C 0C 00 3E 86 32 00 00 
   423)       290.5  Rx         0041  8  00 00 00 00 00 00 00 00 
   424)       290.8  Rx         0042  8  00 00 00 00 00 00 00 00 
   425)       293.1  Rx         0082  8  83 00 14 48 5D 00 20 FF 
   426)       293.3  Rx         0085  8  7D 03 80 00 7F 30 FF FE 
   427)       295.2  Rx         0076  8  3E 80 40 00 00 00 00 00 
   428)       295.5  Rx         0077  8  00 00 08 00 7F F7 F5 F5 
   429)       295.7  Rx         007D  8  00 00 F9 60 00 1F F8 03 
   430)       296.2  Rx         0213  8  FF FF 00 00 80 11 FF 41 
   431)       296.4  Rx         0167  8  00 80 0B 00 00 19 F1 00 
   432)       296.7  Rx         0204  8  C0 11 7D 00 00 00 00 00 
   433)       296.9  Rx         0216  8  00 00 00 00 AA 00 00 00 
   434)       297.1  Rx         043D  8  00 33 35 F9 60 00 00 00 
   435)       297.4  Rx         043E  8  00 90 10 8D 72 34 4A 7B 
   436)       297.6  Rx         0156  8  50 5A 00 00 03 00 00 00 
   437)       297.9  Rx         0166  8  00 00 00 00 B3 06 00 00 
   438)       298.1  Rx         0178  8  00 00 01 FF 0E 74 DA 75 
   439)       298.4  Rx         0179  8  00 00 00 00 24 00 00 29 
   440)       298.6  Rx         0217  8  00 00 00 00 00 00 00 00 
   441)       298.8  Rx         0415  8  00 00 EC F1 0F FE 0F FE 
   442)       299.1  Rx         0421  8  00 00 30 00 00 00 4A 00 
   443)       299.4  Rx         0424  8  00 22 40 00 00 00 00 00 
   444)       299.6  Rx         042D  8  00 02 89 00 00 00 F0 00 
   445)       299.8  Rx         04B0  8  17 00 80 00 60 00 00 F9 
   446)       301.4  Rx         0326  8  01 A0 02 6A 01 D0 00 00 
   447)       302.6  Rx         0085  8  7D 03 80 00 7E 40 FF FE 
   448)       305.2  Rx         0217  8  00 00 00 00 00 00 00 00 
   449)       308.4  Rx         0167  8  00 80 0B 00 00 19 F1 00 
   450)       308.6  Rx         0204  8  C0 12 7D 00 00 00 00 00 
   451)       308.8  Rx         043D  8  00 33 35 F9 60 00 00 00 
   452)       309.1  Rx         043E  8  00 90 10 8D 72 34 4A 7B 
   453)       309.3  Rx         0047  8  20 00 00 00 00 00 00 00 
   454)       309.6  Rx         0165  8  10 40 00 00 21 43 00 00 
   455)       309.8  Rx         0171  8  F0 E0 00 00 00 00 00 00 
   456)       310.1  Rx         0200  8  00 00 7F FF 7F FF 00 00 
   457)       310.3  Rx         0041  8  00 00 00 00 00 00 00 00 
   458)       310.6  Rx         0042  8  00 00 00 00 00 00 00 00 
   459)       310.8  Rx         0230  8  1C 1C 00 00 5A 00 00 00 
   460)       311.0  Rx         042C  8  AC 0C 80 00 DB 00 00 00 
   461)       311.3  Rx         042F  8  7C 0C 00 3E 86 32 00 00 
   462)       313.0  Rx         0082  8  83 00 14 48 5D 00 20 FF 
   463)       313.2  Rx         0085  8  7D 03 80 00 7D 50 FF FE 
   464)       315.3  Rx         0076  8  3E 80 40 00 00 00 00 00 
   465)       315.5  Rx         0077  8  00 00 07 FE 7F F7 F9 F6 
   466)       315.7  Rx         007D  8  00 00 F8 70 00 20 28 03 
   467)       316.0  Rx         0213  8  FF FF 00 00 80 11 FF 41 
   468)       316.7  Rx         0216  8  00 00 00 00 AA 00 00 00 
   469)       317.4  Rx         0217  8  00 00 00 00 00 00 00 00 
   470)       317.7  Rx         0415  8  00 00 F0 F0 0F FE 0F FE 
   471)       317.9  Rx         04B0  8  17 00 80 00 70 00 00 F8 
   472)       320.5  Rx         0167  8  00 80 0B 00 00 19 F1 00 
   473)       320.7  Rx         0204  8  C0 12 7D 00 00 00 00 00 
   474)       320.9  Rx         0242  8  00 5B 1F 23 AB 00 00 01 
   475)       321.2  Rx         043D  8  00 33 35 F9 60 00 00 00 
   476)       321.4  Rx         043E  8  00 90 10 8D 72 34 4A 7B 
   477)       322.6  Rx         0085  8  7D 03 80 00 7C 60 FF FE 
   478)       325.2  Rx         0217  8  00 00 00 00 00 00 00 00 
   479)       329.9  Rx         0041  8  00 00 00 00 00 00 00 00 
   480)       330.1  Rx         0042  8  00 00 00 00 00 00 00 00 
   481)       330.4  Rx         0047  8  20 00 00 00 00 00 00 00 
   482)       330.6  Rx         0092  8  6F AB 6F 6E 73 56 B7 9F 
   483)       330.8  Rx         0165  8  10 40 00 00 21 43 00 00 
   484)       331.1  Rx         0171  8  F0 E0 00 00 00 00 00 00 
   485)       331.4  Rx         0200  8  00 00 7F FF 7F FF 00 00 
   486)       331.6  Rx         0230  8  1C 1C 00 00 5A 00 00 00 
   487)       331.8  Rx         042F  8  7C 0C 00 3E 86 32 00 00 
   488)       333.0  Rx         0082  8  84 00 14 48 5D 00 20 FF 
   489)       333.3  Rx         0085  8  7D 03 80 00 7B 70 FF FE 
   490)       335.2  Rx         0076  8  3E 80 40 00 00 00 00 00 
   491)       335.5  Rx         0077  8  00 00 08 02 7F F7 F1 F5 
   492)       335.7  Rx         007D  8  00 00 F7 80 00 1F A8 00 
   493)       336.0  Rx         0213  8  FF FF 00 00 80 11 FF 41 
   494)       336.4  Rx         0216  8  00 00 00 00 AA 00 00 00 
   495)       336.6  Rx         0217  8  00 00 00 00 00 00 00 00 
   496)       336.9  Rx         0430  8  02 00 E3 99 8A 01 13 91 
   497)       337.2  Rx         0434  8  27 E8 15 29 0F FF 00 20 
   498)       337.4  Rx         0435  8  28 20 10 12 AA 20 09 02 
   499)       337.6  Rx         0415  8  00 00 F4 EF 0F FE 0F FE 
   500)       337.9  Rx         04B0  8  17 00 80 00 80 00 00 F7 
   501)       341.3  Rx         0167  8  00 80 0B 00 00 19 F1 00 
   502)       341.6  Rx         0204  8  C0 12 7D 00 00 00 00 00 
   503)       341.8  Rx         0083  8  00 E0 80 00 00 00 00 00 
   504)       342.1  Rx         043D  8  00 33 35 F9 60 00 00 00 
   505)       342.3  Rx         043E  8  00 90 10 8D 72 34 4A 7B 
   506)       342.6  Rx         0085  8  7D 03 80 00 7A 80 FF FE 
   507)       345.2  Rx         0217  8  00 00 00 00 00 00 00 00 
   508)       346.8  Rx         004A  8  02 00 00 00 00 00 00 00 
   509)       347.0  Rx         004B  8  00 C0 D8 D8 D8 D8 C0 00 
   510)       347.2  Rx         004C  8  60 AF FF 00 00 00 00 00 
   511)       349.0  Rx         0455  8  A0 00 00 00 00 00 00 00 
   512)       350.1  Rx         0041  8  00 00 00 00 00 00 00 00 
   513)       350.3  Rx         0042  8  00 00 00 00 00 00 00 00 
   514)       351.2  Rx         0047  8  20 00 00 00 00 00 00 00 
   515)       351.5  Rx         0165  8  10 40 00 00 21 43 00 00 
   516)       351.7  Rx         0171  8  F0 E0 00 00 00 00 00 00 
   517)       351.9  Rx         0200  8  00 00 7F FF 7F FF 00 00 
   518)       352.2  Rx         0230  8  1C 1C 00 00 5A 00 00 00 
   519)       352.4  Rx         042F  8  7C 0C 00 3E 86 32 00 00 
   520)       353.0  Rx         0082  8  85 00 14 48 5D 00 20 FF 
   521)       353.2  Rx         0085  8  7D 03 80 00 79 90 FF FE 
   522)       355.2  Rx         0076  8  3E 80 40 00 00 00 00 00 
   523)       355.5  Rx         0077  8  00 00 08 00 7F F7 F5 F5 
   524)       355.7  Rx         007D  8  00 00 F6 90 00 1F D8 03 
   525)       356.0  Rx         0213  8  FF FF 00 00 80 11 FF 41 
   526)       356.7  Rx         0216  8  00 00 00 00 AA 00 00 00 
   527)       357.4  Rx         0217  8  00 00 00 00 00 00 00 00 
   528)       357.6  Rx         0415  8  00 00 F8 EE 0F FE 0F FE 
   529)       357.9  Rx         0416  8  59 00 F5 08 01 00 00 00 
   530)       358.8  Rx         04B0  8  17 00 80 00 90 00 00 F6 
   531)       360.9  Rx         0242  8  00 5B 1F 23 AB 00 00 01 
   532)       361.1  Rx         040A  8  C1 04 01 75 08 44 55 C2 
   533)       361.3  Rx         0167  8  00 80 0B 00 00 19 F1 00 
   534)       361.6  Rx         0204  8  C0 12 7D 00 00 00 00 00 
   535)       361.8  Rx         042C  8  AC 0C 80 00 DB 00 00 00 
   536)       362.0  Rx         043D  8  00 33 35 F9 60 00 00 00 
   537)       362.3  Rx         043E  8  00 90 10 8D 72 34 4A 7B 
   538)       362.6  Rx         0085  8  7D 03 80 00 78 A0 FF FE 
   539)       365.2  Rx         0217  8  00 00 00 00 00 00 00 00 
   540)       370.0  Rx         0041  8  00 00 00 00 00 00 00 00 
   541)       370.2  Rx         0042  8  00 00 00 00 00 00 00 00 
   542)       373.0  Rx         0082  8  84 00 14 48 5D 00 20 FF 
   543)       373.3  Rx         0085  8  7D 03 80 00 77 B0 FF FE 
   544)       375.1  Rx         0076  8  3E 80 40 00 00 00 00 00 
   545)       375.3  Rx         0077  8  00 00 08 01 7F F7 F5 F5 
   546)       375.6  Rx         007D  8  00 00 F5 A0 00 1F D8 00 
   547)       376.1  Rx         0213  8  FF FF 00 00 80 11 FF 41 
   548)       376.5  Rx         0216  8  00 00 00 00 AA 00 00 00 
   549)       377.3  Rx         0217  8  00 00 00 00 00 00 00 00 
   550)       377.5  Rx         0415  8  00 00 FC ED 0F FE 0F FE 
   551)       377.8  Rx         04B0  8  17 00 80 00 A0 00 00 F5 
   552)       381.3  Rx         0167  8  00 80 0B 00 00 19 F1 00 
   553)       381.6  Rx         0204  8  C0 11 7D 00 00 00 00 00 
   554)       381.8  Rx         043D  8  00 33 35 F9 60 00 00 00 
   555)       382.0  Rx         043E  8  00 90 10 8D 72 34 4A 7B 
   556)       382.3  Rx         0047  8  20 00 00 00 00 00 00 00 
   557)       382.5  Rx         0165  8  10 40 00 00 21 43 00 00 
   558)       382.8  Rx         0085  8  7D 03 80 00 76 C0 FF FE 
   559)       383.0  Rx         0171  8  F0 E0 00 00 00 00 00 00 
   560)       383.3  Rx         0200  8  00 00 7F FF 7F FF 00 00 
   561)       383.5  Rx         0230  8  1C 1C 00 00 5A 00 00 00 
   562)       383.7  Rx         042F  8  7C 0C 00 3E 86 32 00 00 
   563)       385.3  Rx         0217  8  00 00 00 00 00 00 00 00 
   564)       389.9  Rx         0041  8  00 00 00 00 00 00 00 00 
   565)       390.1  Rx         0042  8  00 00 00 00 00 00 00 00 
   566)       393.0  Rx         0082  8  83 00 14 48 5D 00 20 FF 
   567)       393.2  Rx         0085  8  7D 03 80 00 75 D0 FF FE 
   568)       393.5  Rx         0167  8  00 80 0B 00 00 19 F1 00 
   569)       393.7  Rx         0204  8  C0 11 7D 00 00 00 00 00 
   570)       393.9  Rx         043D  8  00 33 35 F9 60 00 00 00 
   571)       394.2  Rx         043E  8  00 90 10 8D 72 34 4A 7B 
   572)       395.1  Rx         0076  8  3E 80 40 00 00 00 00 00 
   573)       395.4  Rx         0077  8  00 00 07 FF 7F F7 F1 F5 
   574)       395.6  Rx         007D  8  00 00 F4 B0 00 1F D8 03 
   575)       395.9  Rx         0213  8  FF FF 00 00 80 11 FF 41 
   576)       396.6  Rx         0216  8  00 00 00 00 AA 00 00 00 
   577)       397.3  Rx         0217  8  00 00 00 00 00 00 00 00 
   578)       397.6  Rx         0415  8  00 00 C0 FC 0F FE 0F FE 
   579)       397.8  Rx         04B0  8  17 00 80 00 B0 00 00 F4 
   580)       399.7  Rx         0326  8  01 A0 02 6A 01 D0 00 00 
   581)       400.7  Rx         0242  8  00 5B 1F 23 AB 00 00 01 
   582)       402.5  Rx         0085  8  7D 03 80 00 74 E0 FF FE 
   583)       403.4  Rx         0167  8  00 80 0B 00 00 19 F1 00 
   584)       403.6  Rx         0204  8  C0 12 7D 00 00 00 00 00 
   585)       403.8  Rx         043D  8  00 33 35 F9 60 00 00 00 
   586)       404.1  Rx         043E  8  00 90 10 8D 72 34 4A 7B 
   587)       404.3  Rx         0047  8  20 00 00 00 00 00 00 00 
   588)       404.6  Rx         0165  8  10 40 00 00 21 43 00 00 
   589)       404.8  Rx         0171  8  F0 E0 00 00 00 00 00 00 
   590)       405.0  Rx         0200  8  00 00 7F FF 7F FF 00 00 
   591)       405.3  Rx         0230  8  1C 1C 00 00 5A 00 00 00 
   592)       405.6  Rx         0217  8  00 00 00 00 00 00 00 00 
   593)       405.8  Rx         042F  8  7C 0C 00 3E 86 32 00 00 
   594)       406.0  Rx         0156  8  50 5A 00 00 03 00 00 00 
   595)       406.3  Rx         0166  8  00 00 00 00 B3 06 00 00 
   596)       406.5  Rx         0178  8  00 00 01 FF 0E 74 DA 75 
   597)       406.7  Rx         0179  8  00 00 00 00 24 00 00 29 
   598)       407.0  Rx         0421  8  00 00 30 00 00 00 4A 00 
   599)       407.3  Rx         0424  8  00 22 40 00 00 00 00 00 
   600)       407.5  Rx         042D  8  00 02 89 00 00 00 F0 00 
   601)       410.1  Rx         0041  8  00 00 00 00 00 00 00 00 
   602)       410.3  Rx         0042  8  00 00 00 00 00 00 00 00 
   603)       410.5  Rx         042C  8  AC 0C 80 00 DB 00 00 00 
   604)       413.0  Rx         0082  8  83 00 14 48 5D 00 20 FF 
   605)       413.2  Rx         0085  8  7D 03 80 00 73 F0 FF FE 
   606)       415.2  Rx         0076  8  3E 80 40 00 00 00 00 00 
   607)       415.4  Rx         0077  8  00 00 08 01 7F F7 F5 F5 
   608)       415.7  Rx         007D  8  00 00 F3 C0 00 20 08 03 
   609)       415.9  Rx         0213  8  FF FF 00 00 80 11 FF 41 
   610)       416.3  Rx         0167  8  00 80 0B 00 00 19 F1 00 
   611)       416.6  Rx         0204  8  C0 12 7D 00 00 00 00 00 
   612)       416.8  Rx         0216  8  00 00 00 00 AA 00 00 00 
   613)       417.0  Rx         043D  8  00 33 35 F9 60 00 00 00 
   614)       417.2  Rx         043E  8  00 90 10 8D 72 34 4A 7B 
   615)       417.8  Rx         0217  8  00 00 00 00 00 00 00 00 
   616)       418.1  Rx         0415  8  00 00 C4 FB 0F FE 0F FE 
   617)       418.3  Rx         04B0  8  17 00 80 00 C0 00 00 F3 
   618)       422.5  Rx         0085  8  7D 03 80 00 82 00 FF FE 
   619)       425.2  Rx         0217  8  00 00 00 00 00 00 00 00 
   620)       426.2  Rx         0047  8  20 00 00 00 00 00 00 00 
   621)       426.4  Rx         0165  8  10 40 00 00 21 43 00 00 
   622)       426.6  Rx         0171  8  F0 E0 00 00 00 00 00 00 
   623)       426.9  Rx         0200  8  00 00 7F FF 7F FF 00 00 
   624)       427.1  Rx         0230  8  1C 1C 00 00 5A 00 00 00 
   625)       427.4  Rx         042F  8  7C 0C 00 3E 86 32 00 00 
   626)       427.6  Rx         0439  8  00 00 05 00 00 00 00 00 
   627)       427.9  Rx         0447  8  22 00 00 4B 02 00 00 00 
   628)       430.1  Rx         0041  8  00 00 00 00 00 00 00 00 
   629)       430.4  Rx         0042  8  00 00 00 00 00 00 00 00 
   630)       433.0  Rx         0082  8  83 00 14 48 5D 00 20 FF 
   631)       433.2  Rx         0085  8  7D 03 80 00 81 10 FF FE 
   632)       435.2  Rx         0076  8  3E 80 40 00 00 00 00 00 
   633)       435.4  Rx         0077  8  00 00 08 03 7F F7 F1 F5 
   634)       435.7  Rx         03C8  8  00 00 00 00 00 00 50 00 
   635)       435.9  Rx         007D  8  00 00 F2 D0 00 1F E8 01 
   636)       436.1  Rx         0092  8  6F A9 6F 6E 73 63 7A D1 
   637)       436.4  Rx         0213  8  FF FF 00 00 80 11 FF 41 
   638)       436.6  Rx         03E0  8  00 00 00 00 80 00 00 00 
   639)       436.9  Rx         0216  8  00 00 00 00 AA 00 00 00 
   640)       437.1  Rx         0430  8  00 00 E3 99 8A 01 00 00 
   641)       437.3  Rx         0167  8  00 80 0B 00 00 19 F1 00 
   642)       437.6  Rx         0204  8  C0 12 7D 00 00 00 00 00 
   643)       437.8  Rx         0217  8  00 00 00 00 00 00 00 00 
   644)       438.1  Rx         0434  8  27 E8 11 29 0F FF 00 00 
   645)       438.3  Rx         0435  8  28 20 18 1A AA 00 00 00 
   646)       438.6  Rx         043D  8  00 33 35 F9 60 00 00 00 
   647)       438.8  Rx         043E  8  00 90 10 8D 72 34 4A 7B 
   648)       439.0  Rx         0415  8  00 00 C8 FA 0F FE 0F FE 
   649)       439.3  Rx         04B0  8  17 00 80 00 D0 00 00 F2 
   650)       441.0  Rx         0242  8  00 5B 1F 23 AB 00 00 01 
   651)       441.5  Rx         0083  8  00 E0 80 00 00 00 00 00 
   652)       442.5  Rx         0085  8  7D 03 80 00 80 20 FF FE 
   653)       445.1  Rx         0217  8  00 00 00 00 00 00 00 00 
   654)       446.6  Rx         004A  8  02 00 00 00 00 00 00 00 
   655)       446.9  Rx         004B  8  00 C0 D8 D8 D8 D8 C0 00 
   656)       447.2  Rx         004C  8  60 AF FF 00 00 00 00 00 
   657)       447.4  Rx         0047  8  20 00 00 00 00 00 00 00 
   658)       447.6  Rx         0165  8  10 40 00 00 21 43 00 00 
   659)       447.9  Rx         0171  8  F0 E0 00 00 00 00 00 00 
   660)       448.1  Rx         0200  8  00 00 7F FF 7F FF 00 00 
   661)       448.3  Rx         0230  8  1C 1C 00 00 5A 00 00 00 
   662)       448.6  Rx         042F  8  7C 0C 00 3E 86 32 00 00 
   663)       449.1  Rx         0455  8  A0 00 00 00 00 00 00 00 
   664)       450.1  Rx         0041  8  00 00 00 00 00 00 00 00 
   665)       450.4  Rx         0042  8  00 00 00 00 00 00 00 00 
   666)       453.0  Rx         0082  8  83 00 14 48 5D 00 20 FF 
   667)       453.2  Rx         0085  8  7D 03 80 00 7F 30 FF FE 
   668)       455.2  Rx         0076  8  3E 80 40 00 00 00 00 00 
   669)       455.4  Rx         0077  8  00 00 08 00 7F F7 F5 F5 
   670)       455.7  Rx         007D  8  00 00 F1 E0 00 1F E8 00 
   671)       456.2  Rx         0213  8  FF FF 00 00 80 11 FF 41 
   672)       456.7  Rx         0216  8  00 00 00 00 AA 00 00 00 
   673)       457.3  Rx         0217  8  00 00 00 00 00 00 00 00 
   674)       457.6  Rx         0415  8  00 00 CC F9 0F FE 0F FE 
   675)       457.8  Rx         0416  8  5A 00 F4 08 01 00 00 00 
   676)       458.2  Rx         0167  8  00 80 0B 00 00 19 F1 00 
   677)       458.5  Rx         0204  8  C0 12 7D 00 00 00 00 00 
   678)       458.8  Rx         043D  8  00 33 35 F9 60 00 00 00 
   679)       459.0  Rx         043E  8  00 90 10 8D 72 34 4A 7B 
   680)       459.2  Rx         04B0  8  17 00 80 00 E0 00 00 F1 
   681)       461.0  Rx         03B6  8  08 00 06 00 00 00 00 00 
   682)       461.2  Rx         03B7  8  00 00 02 00 60 50 63 4C 
   683)       461.4  Rx         03B8  8  FF FF FF FF 00 00 00 00 
   684)       461.7  Rx         042C  8  AC 0C 80 00 DB 00 00 00 
   685)       462.5  Rx         0085  8  7D 03 80 00 7E 40 FF FE 
   686)       465.2  Rx         0217  8  00 00 00 00 00 00 00 00 
   687)       468.2  Rx         0047  8  20 00 00 00 00 00 00 00 
   688)       468.4  Rx         0165  8  10 40 00 00 21 43 00 00 
   689)       468.7  Rx         0171  8  F0 E0 00 00 00 00 00 00 
   690)       468.9  Rx         0200  8  00 00 7F FF 7F FF 00 00 
   691)       469.2  Rx         0230  8  1C 1C 00 00 5A 00 00 00 
   692)       469.4  Rx         042F  8  7C 0C 00 3E 86 32 00 00 
   693)       470.1  Rx         0041  8  00 00 00 00 00 00 00 00 
   694)       470.3  Rx         0042  8  00 00 00 00 00 00 00 00 
   695)       473.0  Rx         0082  8  83 00 14 48 5D 00 20 FF 
   696)       473.2  Rx         0085  8  7D 03 80 00 7D 50 FF FE 
   697)       475.2  Rx         0076  8  3E 80 40 00 00 00 00 00 
   698)       475.4  Rx         0077  8  00 00 08 01 7F F7 F9 F5 
   699)       475.7  Rx         007D  8  00 00 F0 F0 00 20 38 00 
   700)       476.1  Rx         0213  8  FF FF 00 00 80 11 FF 41 
   701)       476.6  Rx         0216  8  00 00 00 00 AA 00 00 00 
   702)       477.3  Rx         0217  8  00 00 00 00 00 00 00 00 
   703)       477.6  Rx         0415  8  00 00 D0 F8 0F FE 0F FE 
   704)       477.8  Rx         04B0  8  17 00 80 00 F0 00 00 F0 
   705)       478.3  Rx         0167  8  00 80 0B 00 00 19 F1 00 
   706)       478.5  Rx         0204  8  C0 12 7D 00 00 00 00 00 
   707)       478.8  Rx         043D  8  00 33 35 F9 60 00 00 00 
   708)       479.0  Rx         043E  8  00 90 10 8D 72 34 4A 7B 
   709)       480.9  Rx         0242  8  00 5B 1F 23 AB 00 00 01 
   710)       482.5  Rx         0085  8  7D 03 80 00 7C 60 FF FE 
   711)       485.2  Rx         0217  8  00 00 00 00 00 00 00 00 
   712)       489.9  Rx         0041  8  00 00 00 00 00 00 00 00 
   713)       490.2  Rx         0042  8  00 00 00 00 00 00 00 00 
   714)       492.9  Rx         0082  8  83 00 14 48 5D 00 20 FF 
   715)       493.2  Rx         0085  8  7D 03 80 00 7B 70 FF FE 
   716)       495.1  Rx         0076  8  3E 80 40 00 00 00 00 00 
   717)       495.3  Rx         0077  8  00 00 08 00 7F F7 F9 F5 
   718)       495.6  Rx         007D  8  00 00 FF 00 00 1F F8 03 
   719)       496.0  Rx         0213  8  FF FF 00 00 80 11 FF 41 
   720)       496.6  Rx         0216  8  00 00 00 00 AA 00 00 00 
   721)       497.3  Rx         0217  8  00 00 00 00 00 00 00 00 
   722)       497.5  Rx         0415  8  00 00 D4 F7 0F FE 0F FE 
   723)       497.8  Rx         04B0  8  17 00 80 00 00 00 00 FF 
   724)       498.2  Rx         0167  8  00 80 0B 00 00 19 F1 00 
   725)       498.5  Rx         0204  8  C0 12 7D 00 00 00 00 00 
   726)       498.7  Rx         043D  8  00 33 35 F9 60 00 00 00 
   727)       498.9  Rx         043E  8  00 90 10 8D 72 34 4A 7B 
   728)       499.2  Rx         0047  8  20 00 00 00 00 00 00 00 
   729)       499.5  Rx         0165  8  10 40 00 00 21 43 00 00 
   730)       499.7  Rx         0171  8  F0 E0 00 00 00 00 00 00 
   731)       499.9  Rx         0200  8  00 00 7F FF 7F FF 00 00 
   732)       500.2  Rx         0230  8  1C 1C 00 00 5A 00 00 00 
   733)       500.4  Rx         042F  8  7C 0C 00 3E 86 32 00 00 
   734)       501.3  Rx         0326  8  01 A0 02 6A 01 D0 00 00 
   735)       502.5  Rx         0085  8  7D 03 80 00 7A 80 FF FE 
   736)       505.2  Rx         0217  8  00 00 00 00 00 00 00 00 
   737)       509.3  Rx         0167  8  00 80 0B 00 00 19 F1 00 
   738)       509.5  Rx         0204  8  C0 11 7D 00 00 00 00 00 
   739)       509.8  Rx         043D  8  00 33 35 F9 60 00 00 00 
   740)       510.0  Rx         0041  8  00 00 00 00 00 00 00 00 
   741)       510.3  Rx         0042  8  00 00 00 00 00 00 00 00 
   742)       510.5  Rx         042C  8  AC 0C 80 00 DB 00 00 00 
   743)       510.8  Rx         043E  8  00 90 10 8D 72 34 4A 7B 
   744)       511.0  Rx         0156  8  50 5A 00 00 03 00 00 00 
   745)       511.2  Rx         0166  8  00 00 00 00 B3 06 00 00 
   746)       511.5  Rx         0178  8  00 00 01 FF 0E 74 DA 75 
   747)       511.7  Rx         0179  8  00 00 00 00 24 00 00 29 
   748)       512.0  Rx         0421  8  00 00 30 00 00 00 4A 00 
   749)       512.2  Rx         0424  8  00 22 40 00 00 00 00 00 
   750)       512.5  Rx         042D  8  00 02 89 00 00 00 F0 00 
   751)       513.0  Rx         0082  8  82 00 14 48 5D 00 20 FF 
   752)       513.2  Rx         0085  8  7D 03 80 00 79 90 FF FE 
   753)       515.1  Rx         0076  8  3E 80 40 00 00 00 00 00 
   754)       515.4  Rx         0077  8  00 00 07 FF 7F F7 F5 F5 
   755)       515.6  Rx         007D  8  00 00 FE 10 00 1F F8 00 
   756)       515.9  Rx         0213  8  FF FF 00 00 80 11 FF 41 
   757)       516.6  Rx         0216  8  00 00 00 00 AA 00 00 00 
   758)       517.3  Rx         0217  8  00 00 00 00 00 00 00 00 
   759)       517.5  Rx         0415  8  00 00 D8 F6 0F FE 0F FE 
   760)       517.8  Rx         04B0  8  17 00 80 00 10 00 00 FE 
   761)       520.8  Rx         0242  8  00 5B 1F 23 AB 00 00 01 
   762)       521.0  Rx         03B5  8  00 C5 00 B2 00 C9 00 C7 
   763)       521.3  Rx         0167  8  00 80 0B 00 00 19 F1 00 
   764)       521.5  Rx         0204  8  C0 12 7D 00 00 00 00 00 
   765)       521.8  Rx         043D  8  00 33 35 F9 60 00 00 00 
   766)       522.0  Rx         043E  8  00 90 10 8D 72 34 4A 7B 
   767)       522.2  Rx         0047  8  20 00 00 00 00 00 00 00 
   768)       522.5  Rx         0165  8  10 40 00 00 21 43 00 00 
   769)       522.7  Rx         0085  8  7D 03 80 00 78 A0 FF FE 
   770)       523.0  Rx         0171  8  F0 E0 00 00 00 00 00 00 
   771)       523.2  Rx         0200  8  00 00 7F FF 7F FF 00 00 
   772)       523.5  Rx         0230  8  1C 1C 00 00 5A 00 00 00 
   773)       523.7  Rx         042F  8  7C 0C 00 3E 86 32 00 00 
   774)       525.2  Rx         0217  8  00 00 00 00 00 00 00 00 
   775)       529.8  Rx         0041  8  00 00 00 00 00 00 00 00 
   776)       530.1  Rx         0042  8  00 00 00 00 00 00 00 00 
   777)       533.0  Rx         0082  8  81 00 14 48 5D 00 20 FF 
   778)       533.3  Rx         0085  8  7D 03 80 00 77 B0 FF FE 
   779)       533.5  Rx         0167  8  00 80 0B 00 00 19 F1 00 
   780)       533.7  Rx         0204  8  C0 12 7D 00 00 00 00 00 
   781)       534.0  Rx         043D  8  00 33 35 F9 60 00 00 00 
   782)       534.2  Rx         043E  8  00 90 10 8D 72 34 4A 7B 
   783)       535.1  Rx         0076  8  3E 80 40 00 00 00 00 00 
   784)       535.4  Rx         0077  8  00 00 08 01 7F F7 F9 F6 
   785)       535.6  Rx         007D  8  00 00 FD 20 00 1F D7 FD 
   786)       535.9  Rx         0213  8  FF FF 00 00 80 11 FF 41 
   787)       536.3  Rx         0216  8  00 00 00 00 AA 00 00 00 
   788)       536.6  Rx         0217  8  00 00 00 00 00 00 00 00 
   789)       536.8  Rx         0430  8  02 00 E3 99 8A 01 13 91 
   790)       537.0  Rx         0434  8  27 E8 15 29 0F FF 00 20 
   791)       537.3  Rx         0435  8  28 20 10 12 AA 20 09 02 
   792)       537.5  Rx         0415  8  00 00 DC F5 0F FE 0F FE 
   793)       537.8  Rx         04B0  8  17 00 80 00 20 00 00 FD 
   794)       540.3  Rx         0092  8  6F AB 6F 6E 73 5E 46 08 
   795)       541.4  Rx         0083  8  00 E0 80 00 00 00 00 00 
   796)       542.5  Rx         0085  8  7D 03 80 00 76 C0 FF FE 
   797)       543.3  Rx         0167  8  00 80 0B 00 00 19 F1 00 
   798)       543.5  Rx         0204  8  C0 11 7D 00 00 00 00 00 
   799)       543.7  Rx         043D  8  00 33 35 F9 60 00 00 00 
   800)       544.0  Rx         043E  8  00 90 10 8D 72 34 4A 7B 
   801)       544.3  Rx         0047  8  20 00 00 00 00 00 00 00 
   802)       544.5  Rx         0165  8  10 40 00 00 21 43 00 00 
   803)       544.7  Rx         0171  8  F0 E0 00 00 00 00 00 00 
   804)       545.0  Rx         0200  8  00 00 7F FF 7F FF 00 00 
   805)       545.2  Rx         0230  8  1C 1C 00 00 5A 00 00 00 
   806)       545.5  Rx         0217  8  00 00 00 00 00 00 00 00 
   807)       545.7  Rx         042F  8  7C 0C 00 3E 86 32 00 00 
   808)       546.6  Rx         004A  8  02 00 00 00 00 00 00 00 
   809)       546.8  Rx         004B  8  00 C0 D8 D8 D8 D8 C0 00 
   810)       547.1  Rx         004C  8  60 AF FF 00 00 00 00 00 
   811)       549.1  Rx         0455  8  A0 00 00 00 00 00 00 00 
   812)       550.0  Rx         0041  8  00 00 00 00 00 00 00 00 
   813)       550.2  Rx         0042  8  00 00 00 00 00 00 00 00 
   814)       552.9  Rx         0082  8  82 00 14 48 5D 00 20 FF 
   815)       553.2  Rx         0085  8  7D 03 80 00 75 D0 FF FE 
   816)       554.2  Rx         0167  8  00 80 0B 00 00 19 F1 00 
   817)       554.5  Rx         0204  8  C0 11 7D 00 00 00 00 00 
   818)       554.7  Rx         043D  8  00 33 35 F9 60 00 00 00 
   819)       554.9  Rx         043E  8  00 90 10 8D 72 34 4A 7B 
   820)       555.3  Rx         0076  8  3E 80 40 00 00 00 00 00 
   821)       555.5  Rx         0077  8  00 00 08 00 7F F7 F5 F5 
   822)       555.8  Rx         007D  8  00 00 FC 30 00 1F D7 FE 
   823)       556.2  Rx         0213  8  FF FF 00 00 80 11 FF 41 
   824)       557.2  Rx         0216  8  00 00 00 00 AA 00 00 00 
   825)       557.5  Rx         0217  8  00 00 00 00 00 00 00 00 
   826)       557.7  Rx         0415  8  00 00 E0 F4 0F FE 0F FE 
   827)       558.0  Rx         0416  8  5B 00 F3 08 01 00 00 00 
   828)       558.9  Rx         04B0  8  17 00 80 00 30 00 00 FC 
   829)       560.8  Rx         0242  8  00 5B 1F 23 AB 00 00 01 
   830)       561.0  Rx         03B3  8  40 48 00 12 10 05 80 3A 
   831)       561.2  Rx         040A  8  C1 10 40 88 20 24 80 00 
   832)       561.5  Rx         042C  8  AC 0C 80 00 DB 00 00 00 
   833)       562.5  Rx         0085  8  7D 03 80 00 74 E0 FF FE 
   834)       564.1  Rx         0047  8  20 00 00 00 00 00 00 00 
   835)       564.4  Rx         0165  8  10 40 00 00 21 43 00 00 
   836)       564.6  Rx         0171  8  F0 E0 00 00 00 00 00 00 
   837)       564.8  Rx         0200  8  00 00 7F FF 7F FF 00 00 
   838)       565.1  Rx         0230  8  1C 1C 00 00 5A 00 00 00 
   839)       565.3  Rx         0217  8  00 00 00 00 00 00 00 00 
   840)       565.5  Rx         042F  8  7C 0C 00 3E 86 32 00 00 
   841)       570.0  Rx         0041  8  00 00 00 00 00 00 00 00 
   842)       570.2  Rx         0042  8  00 00 00 00 00 00 00 00 
   843)       572.9  Rx         0082  8  83 00 14 48 5D 00 20 FF 
   844)       573.2  Rx         0085  8  7D 03 80 00 73 F0 FF FE 
   845)       574.2  Rx         0167  8  00 80 0B 00 00 19 F1 00 
   846)       574.5  Rx         0204  8  C0 11 7D 00 00 00 00 00 
   847)       574.7  Rx         043D  8  00 33 35 F9 60 00 00 00 
   848)       574.9  Rx         043E  8  00 90 10 8D 72 34 4A 7B 
   849)       575.3  Rx         0076  8  3E 80 40 00 00 00 00 00 
   850)       575.5  Rx         0077  8  00 00 08 00 7F F7 F5 F5 
   851)       575.8  Rx         007D  8  00 00 FB 40 00 20 18 00 
   852)       576.3  Rx         0213  8  FF FF 00 00 80 11 FF 41 
   853)       577.2  Rx         0216  8  00 00 00 00 AA 00 00 00 
   854)       577.5  Rx         0217  8  00 00 00 00 00 00 00 00 
   855)       577.7  Rx         0415  8  00 00 E4 F3 0F FE 0F FE 
   856)       578.0  Rx         04B0  8  17 00 80 00 40 00 00 FB 
   857)       582.5  Rx         0085  8  7D 03 80 00 82 00 FF FE 
   858)       585.1  Rx         0217  8  00 00 00 00 00 00 00 00 
   859)       589.9  Rx         0041  8  00 00 00 00 00 00 00 00 
   860)       590.2  Rx         0042  8  00 00 00 00 00 00 00 00 
   861)       592.9  Rx         0082  8  84 00 14 48 5D 00 20 FF 
   862)       593.2  Rx         0085  8  7D 03 80 00 81 10 FF FE 
   863)       594.2  Rx         0167  8  00 80 0B 00 00 19 F1 00 
   864)       594.5  Rx         0204  8  C0 12 7D 00 00 00 00 00 
   865)       594.7  Rx         043D  8  00 33 35 F9 60 00 00 00 
   866)       594.9  Rx         043E  8  00 90 10 8D 72 34 4A 7B 
   867)       595.2  Rx         0047  8  20 00 00 00 00 00 00 00 
   868)       595.4  Rx         0076  8  3E 80 40 00 00 00 00 00 
   869)       595.7  Rx         0077  8  00 00 08 01 7F F7 F5 F5 
   870)       595.9  Rx         007D  8  00 00 FA 50 00 1F E7 FE 
   871)       596.1  Rx         0165  8  10 40 00 00 21 43 00 00 
   872)       596.4  Rx         0171  8  F0 E0 00 00 00 00 00 00 
   873)       596.7  Rx         0200  8  00 00 7F FF 7F FF 00 00 
   874)       596.9  Rx         0213  8  FF FF 00 00 80 11 FF 41 
   875)       597.1  Rx         0230  8  1C 1C 00 00 5A 00 00 00 
   876)       597.4  Rx         042F  8  7C 0C 00 3E 86 32 00 00 
   877)       598.1  Rx         0216  8  00 00 00 00 AA 00 00 00 
   878)       598.3  Rx         0217  8  00 00 00 00 00 00 00 00 
   879)       598.9  Rx         0415  8  00 00 E8 F2 0F FE 0F FE 
   880)       599.4  Rx         04B0  8  17 00 80 00 50 00 00 FA 
   881)       600.6  Rx         0326  8  01 A0 02 6A 01 D0 00 00 
   882)       601.0  Rx         0242  8  00 5B 1F 23 AB 00 00 01 
   883)       602.5  Rx         0085  8  7D 03 80 00 80 20 FF FE 
   884)       605.2  Rx         0217  8  00 00 00 00 00 00 00 00 
   885)       606.3  Rx         0167  8  00 80 0B 00 00 19 F1 00 
   886)       606.5  Rx         0204  8  C0 12 7D 00 00 00 00 00 
   887)       606.7  Rx         043D  8  00 33 35 F9 60 00 00 00 
   888)       607.0  Rx         043E  8  00 90 10 8D 72 34 4A 7B 
   889)       609.8  Rx         0041  8  00 00 00 00 00 00 00 00 
   890)       610.1  Rx         0042  8  00 00 00 00 00 00 00 00 
   891)       610.3  Rx         042C  8  AC 0C 80 00 DB 00 00 00 
   892)       612.9  Rx         0082  8  84 00 14 48 5D 00 20 FF 
   893)       613.1  Rx         0085  8  7D 03 80 00 7F 30 FF FE 
   894)       615.1  Rx         0076  8  3E 80 40 00 00 00 00 00 
   895)       615.3  Rx         0077  8  00 00 08 00 7F F7 F1 F5 
   896)       615.6  Rx         007D  8  00 00 F9 60 00 1F D7 FF 
   897)       615.8  Rx         0213  8  FF FF 00 00 80 11 FF 41 
   898)       616.1  Rx         0047  8  20 00 00 00 00 00 00 00 
   899)       616.3  Rx         0165  8  10 40 00 00 21 43 00 00 
   900)       616.6  Rx         0171  8  F0 E0 00 00 00 00 00 00 
   901)       616.8  Rx         0200  8  00 00 7F FF 7F FF 00 00 
   902)       617.1  Rx         0216  8  00 00 00 00 AA 00 00 00 
   903)       617.3  Rx         0230  8  1C 1C 00 00 5A 00 00 00 
   904)       617.6  Rx         042F  8  7C 0C 00 3E 86 32 00 00 
   905)       617.8  Rx         0156  8  50 5A 00 00 03 00 00 00 
   906)       618.0  Rx         0166  8  00 00 00 00 B3 06 00 00 
   907)       618.3  Rx         0178  8  00 00 01 FF 0E 74 DA 75 
   908)       618.5  Rx         0179  8  00 00 00 00 24 00 00 29 
   909)       618.8  Rx         0217  8  00 00 00 00 00 00 00 00 
   910)       619.0  Rx         0415  8  00 00 EC F1 0F FE 0F FE 
   911)       619.3  Rx         0421  8  00 00 30 00 00 00 4A 00 
   912)       619.5  Rx         0424  8  00 22 40 00 00 00 00 00 
   913)       619.7  Rx         042D  8  00 02 89 00 00 00 F0 00 
   914)       620.0  Rx         04B0  8  17 00 80 00 60 00 00 F9 
   915)       622.5  Rx         0085  8  7D 03 80 00 7E 40 FF FE 
   916)       625.2  Rx         0217  8  00 00 00 00 00 00 00 00 
   917)       628.2  Rx         0167  8  00 80 0B 00 00 19 F1 00 
   918)       628.5  Rx         0204  8  C0 11 7D 00 00 00 00 00 
   919)       628.7  Rx         043D  8  00 33 35 F9 60 00 00 00 
   920)       628.9  Rx         043E  8  00 90 10 8D 72 34 4A 7B 
   921)       629.8  Rx         0041  8  00 00 00 00 00 00 00 00 
   922)       630.1  Rx         0042  8  00 00 00 00 00 00 00 00 
   923)       632.9  Rx         0082  8  85 00 14 48 5D 00 20 FF 
   924)       633.2  Rx         0085  8  7D 03 80 00 7D 50 FF FE 
   925)       635.1  Rx         0076  8  3E 80 40 00 00 00 00 00 
   926)       635.3  Rx         0077  8  00 00 07 FF 7F F7 F9 F6 
   927)       635.6  Rx         007D  8  00 00 F8 70 00 20 28 01 
   928)       635.8  Rx         0213  8  FF FF 00 00 80 11 FF 41 
   929)       636.3  Rx         0216  8  00 00 00 00 AA 00 00 00 
   930)       636.5  Rx         0430  8  02 00 E3 99 8A 01 13 91 
   931)       636.8  Rx         0217  8  00 00 00 00 00 00 00 00 
   932)       637.0  Rx         0434  8  27 E8 15 27 0F FF 00 20 
   933)       637.2  Rx         0435  8  28 20 18 1A AA 20 09 02 
   934)       637.5  Rx         0415  8  00 00 F0 F0 0F FE 0F FE 
   935)       637.7  Rx         04B0  8  17 00 80 00 70 00 00 F8 
   936)       638.1  Rx         0047  8  20 00 00 00 00 00 00 00 
   937)       638.3  Rx         0165  8  10 40 00 00 21 43 00 00 
   938)       638.5  Rx         0171  8  F0 E0 00 00 00 00 00 00 
   939)       638.8  Rx         0200  8  00 00 7F FF 7F FF 00 00 
   940)       639.1  Rx         0230  8  1C 1C 00 00 5A 00 00 00 
   941)       639.3  Rx         042F  8  7C 0C 00 3E 86 32 00 00 
   942)       641.0  Rx         0242  8  00 5B 1F 23 AB 00 00 01 
   943)       641.8  Rx         0083  8  00 E0 80 00 00 00 00 00 
   944)       642.6  Rx         0085  8  7D 03 80 00 7C 60 FF FE 
   945)       645.2  Rx         0217  8  00 00 00 00 00 00 00 00 
   946)       645.4  Rx         0092  8  6F AA 6F 6A 73 6B 0C 3A 
   947)       646.5  Rx         004A  8  02 00 00 00 00 00 00 00 
   948)       646.7  Rx         004B  8  00 C0 D8 D8 D8 D8 C0 00 
   949)       647.0  Rx         004C  8  60 AF FF 00 00 00 00 00 
   950)       648.2  Rx         0167  8  00 80 0B 00 00 19 F1 00 
   951)       648.4  Rx         0204  8  C0 12 7D 00 00 00 00 00 
   952)       648.7  Rx         043D  8  00 33 35 F9 60 00 00 00 
   953)       648.9  Rx         043E  8  00 90 10 8D 72 34 4A 7B 
   954)       649.2  Rx         0455  8  A0 00 00 00 00 00 00 00 
   955)       650.0  Rx         0041  8  00 00 00 00 00 00 00 00 
   956)       650.2  Rx         0042  8  00 00 00 00 00 00 00 00 
   957)       652.9  Rx         0082  8  86 00 14 48 5D 00 20 FF 
   958)       653.1  Rx         0085  8  7D 03 80 00 7B 70 FF FE 
   959)       655.1  Rx         0076  8  3E 80 40 00 00 00 00 00 
   960)       655.3  Rx         0077  8  00 00 08 00 7F F7 F1 F4 
   961)       655.6  Rx         007D  8  00 00 F7 80 00 20 07 FC 
   962)       656.0  Rx         0213  8  FF FF 00 00 80 11 FF 41 
   963)       656.5  Rx         0216  8  00 00 00 00 AA 00 00 00 
   964)       657.2  Rx         0217  8  00 00 00 00 00 00 00 00 
   965)       657.5  Rx         0415  8  00 00 F4 EF 0F FE 0F FE 
   966)       657.7  Rx         0416  8  5C 00 F2 08 01 00 00 00 
   967)       658.6  Rx         04B0  8  17 00 80 00 80 00 00 F7 
   968)       660.7  Rx         042C  8  AC 0C 80 00 DB 00 00 00 
   969)       662.4  Rx         0085  8  7D 03 80 00 7A 80 FF FE 
   970)       665.0  Rx         0217  8  00 00 00 00 00 00 00 00 
   971)       668.2  Rx         0167  8  00 80 0B 00 00 19 F1 00 
   972)       668.4  Rx         0204  8  C0 12 7D 00 00 00 00 00 
   973)       668.7  Rx         043D  8  00 33 35 F9 60 00 00 00 
   974)       668.9  Rx         043E  8  00 90 10 8D 72 34 4A 7B 
   975)       669.1  Rx         0047  8  20 00 00 00 00 00 00 00 
   976)       669.4  Rx         0165  8  10 40 00 00 21 43 00 00 
   977)       669.6  Rx         0171  8  F0 E0 00 00 00 00 00 00 
   978)       669.9  Rx         0200  8  00 00 7F FF 7F FF 00 00 
   979)       670.1  Rx         0041  8  00 00 00 00 00 00 00 00 
   980)       670.4  Rx         0042  8  00 00 00 00 00 00 00 00 
   981)       670.6  Rx         0230  8  1C 1C 00 00 5A 00 00 00 
   982)       670.9  Rx         042F  8  7C 0C 00 3E 86 32 00 00 
   983)       672.9  Rx         0082  8  87 00 14 48 5D 00 20 FF 
   984)       673.1  Rx         0085  8  7D 03 80 00 79 90 FF FE 
   985)       675.2  Rx         0076  8  3E 80 40 00 00 00 00 00 
   986)       675.4  Rx         0077  8  00 00 08 01 7F F7 F9 F5 
   987)       675.7  Rx         007D  8  00 00 F6 90 00 20 18 00 
   988)       676.1  Rx         0213  8  FF FF 00 00 80 11 FF 41 
   989)       677.1  Rx         0216  8  00 00 00 00 AA 00 00 00 
   990)       677.3  Rx         0217  8  00 00 00 00 00 00 00 00 
   991)       677.5  Rx         0415  8  00 00 F8 EE 0F FE 0F FE 
   992)       677.8  Rx         04B0  8  17 00 80 00 90 00 00 F6 
   993)       679.2  Rx         0167  8  00 80 0B 00 00 19 F1 00 
   994)       679.5  Rx         0204  8  C0 12 7D 00 00 00 00 00 
   995)       679.7  Rx         043D  8  00 33 35 F9 60 00 00 00 
   996)       679.9  Rx         043E  8  00 90 10 8D 72 34 4A 7B 
   997)       680.9  Rx         0242  8  00 5B 1F 24 AB 00 00 01 
   998)       682.5  Rx         0085  8  7D 03 80 00 78 A0 FF FE 
   999)       685.1  Rx         0217  8  00 00 00 00 00 00 00 00 
  1000)       689.1  Rx         0047  8  20 00 00 00 00 00 00 00 
  1001)       689.3  Rx         0165  8  10 40 00 00 21 43 00 00 
  1002)       689.6  Rx         0171  8  F0 E0 00 00 00 00 00 00 
  1003)       689.8  Rx         0200  8  00 00 7F FF 7F FF 00 00 
  1004)       690.1  Rx         0041  8  00 00 00 00 00 00 00 00 
  1005)       690.3  Rx         0042  8  00 00 00 00 00 00 00 00 
  1006)       690.6  Rx         0230  8  1C 1C 00 00 5A 00 00 00 
  1007)       690.8  Rx         042F  8  7C 0C 00 3E 86 32 00 00 
  1008)       692.9  Rx         0082  8  87 00 14 48 5D 00 20 FF 
  1009)       693.2  Rx         0085  8  7D 03 80 00 77 B0 FF FE 
  1010)       695.1  Rx         0076  8  3E 80 40 00 00 00 00 00 
  1011)       695.3  Rx         0077  8  00 00 07 FF 7F F7 F5 F5 
  1012)       695.6  Rx         007D  8  00 00 F5 A0 00 1F E8 01 
  1013)       696.1  Rx         0213  8  FF FF 00 00 80 11 FF 41 
  1014)       696.8  Rx         0216  8  00 00 00 00 AA 00 00 00 
  1015)       697.3  Rx         0217  8  00 00 00 00 00 00 00 00 
  1016)       697.5  Rx         0415  8  00 00 FC ED 0F FE 0F FE 
  1017)       697.8  Rx         04B0  8  17 00 80 00 A0 00 00 F5 
  1018)       699.2  Rx         0167  8  00 80 0B 00 00 19 F1 00 
  1019)       699.4  Rx         0204  8  C0 12 7D 00 00 00 00 00 
  1020)       699.7  Rx         043D  8  00 33 35 F9 60 00 00 00 
  1021)       699.9  Rx         043E  8  00 90 10 8D 72 34 4A 7B 
  1022)       702.3  Rx         0326  8  01 A0 02 6A 01 D0 00 00 
  1023)       702.5  Rx         0085  8  7D 03 80 00 76 C0 FF FE 
  1024)       705.1  Rx         0217  8  00 00 00 00 00 00 00 00 
  1025)       705.3  Rx         035E  8  00 00 00 00 00 00 00 00 
  1026)       709.2  Rx         0167  8  00 80 0B 00 00 19 F1 00 
  1027)       709.5  Rx         0204  8  C0 11 7D 00 00 00 00 00 
  1028)       709.7  Rx         043D  8  00 33 35 F9 60 00 00 00 
  1029)       710.0  Rx         043E  8  00 90 10 8D 72 34 4A 7B 
  1030)       710.2  Rx         0047  8  20 00 00 00 00 00 00 00 
  1031)       710.4  Rx         0041  8  00 00 00 00 00 00 00 00 
  1032)       710.7  Rx         0042  8  00 00 00 00 00 00 00 00 
  1033)       711.0  Rx         0165  8  10 40 00 00 21 43 00 00 
  1034)       711.2  Rx         0171  8  F0 E0 00 00 00 00 00 00 
  1035)       711.4  Rx         0200  8  00 00 7F FF 7F FF 00 00 
  1036)       711.7  Rx         0230  8  1C 1C 00 00 5A 00 00 00 
  1037)       711.9  Rx         03B6  8  08 00 07 00 00 00 00 00 
  1038)       712.2  Rx         03B7  8  00 00 03 00 60 50 5E DB 
  1039)       712.4  Rx         042C  8  AC 0C 80 00 DB 00 00 00 
  1040)       712.7  Rx         042F  8  7C 0C 00 3E 86 32 00 00 
  1041)       712.9  Rx         0082  8  87 00 14 48 5D 00 20 FF 
  1042)       713.1  Rx         0085  8  7D 03 80 00 75 D0 FF FE 
  1043)       715.1  Rx         0076  8  3E 80 40 00 00 00 00 00 
  1044)       715.4  Rx         0077  8  00 00 08 01 7F F7 F1 F5 
  1045)       715.6  Rx         007D  8  00 00 F4 B0 00 20 07 FE 
  1046)       715.9  Rx         0213  8  FF FF 00 00 80 11 FF 41 
  1047)       717.1  Rx         0216  8  00 00 00 00 AA 00 00 00 
  1048)       717.3  Rx         0217  8  00 00 00 00 00 00 00 00 
  1049)       717.6  Rx         0415  8  00 00 C0 FC 0F FE 0F FE 
  1050)       717.8  Rx         04B0  8  17 00 80 00 B0 00 00 F4 
  1051)       720.9  Rx         0242  8  00 5B 1F 24 AB 00 00 01 
  1052)       721.2  Rx         0167  8  00 80 0B 00 00 19 F1 00 
  1053)       721.4  Rx         0204  8  C0 12 7D 00 00 00 00 00 
  1054)       721.7  Rx         043D  8  00 33 35 F9 60 00 00 00 
  1055)       721.9  Rx         043E  8  00 90 10 8D 72 34 4A 7B 
  1056)       722.2  Rx         0156  8  50 5A 00 00 03 00 00 00 
  1057)       722.4  Rx         0166  8  00 00 00 00 B3 06 00 00 
  1058)       722.6  Rx         0085  8  7D 03 80 00 74 E0 FF FE 
  1059)       722.9  Rx         0178  8  00 00 01 FF 0E 74 DA 75 
  1060)       723.2  Rx         0179  8  00 00 00 00 24 00 00 29 
  1061)       723.4  Rx         0421  8  00 00 30 00 00 00 4A 00 
  1062)       723.6  Rx         0424  8  00 22 40 00 00 00 00 00 
  1063)       723.9  Rx         042D  8  00 02 89 00 00 00 F0 00 
  1064)       725.1  Rx         0217  8  00 00 00 00 00 00 00 00 
  1065)       729.7  Rx         0041  8  00 00 00 00 00 00 00 00 
  1066)       729.9  Rx         0042  8  00 00 00 00 00 00 00 00 
  1067)       732.9  Rx         0082  8  87 00 14 48 5D 00 20 FF 
  1068)       733.1  Rx         0085  8  7D 03 80 00 73 F0 FF FE 
  1069)       733.4  Rx         0167  8  00 80 0B 00 00 19 F1 00 
  1070)       733.6  Rx         0204  8  C0 12 7D 00 00 00 00 00 
  1071)       733.9  Rx         043D  8  00 33 35 F9 60 00 00 00 
  1072)       734.1  Rx         043E  8  00 90 10 8D 72 34 4A 7B 
  1073)       734.3  Rx         0047  8  20 00 00 00 00 00 00 00 
  1074)       734.6  Rx         0165  8  10 40 00 00 21 43 00 00 
  1075)       734.8  Rx         0171  8  F0 E0 00 00 00 00 00 00 
  1076)       735.1  Rx         0200  8  00 00 7F FF 7F FF 00 00 
  1077)       735.3  Rx         0076  8  3E 80 40 00 00 00 00 00 
  1078)       735.6  Rx         0077  8  00 00 08 00 7F F7 F9 F5 
  1079)       735.8  Rx         007D  8  00 00 F3 C0 00 1F C8 00 
  1080)       736.0  Rx         0230  8  1C 1C 00 00 5A 00 00 00 
  1081)       736.3  Rx         042F  8  7C 0C 00 3E 86 32 00 00 
  1082)       736.6  Rx         0213  8  FF FF 00 00 80 11 FF 41 
  1083)       736.8  Rx         0430  8  06 00 E3 99 8A 01 17 91 
  1084)       737.1  Rx         0434  8  27 E8 15 29 0F FF 00 20 
  1085)       737.3  Rx         0435  8  28 20 10 12 AA 20 09 02 
  1086)       737.5  Rx         0216  8  00 00 00 00 AA 00 00 00 
  1087)       737.8  Rx         0217  8  00 00 00 00 00 00 00 00 
  1088)       738.3  Rx         0415  8  00 00 C4 FB 0F FE 0F FE 
  1089)       739.0  Rx         04B0  8  17 00 80 00 C0 00 00 F3 
  1090)       741.2  Rx         0083  8  00 E0 80 00 00 00 00 00 
  1091)       742.5  Rx         0085  8  7D 03 80 00 82 00 FF FE 
  1092)       745.1  Rx         0217  8  00 00 00 00 00 00 00 00 
  1093)       745.6  Rx         0167  8  00 80 0B 00 00 19 F1 00 
  1094)       745.9  Rx         0204  8  C0 11 7D 00 00 00 00 00 
  1095)       746.1  Rx         043D  8  00 33 35 F9 60 00 00 00 
  1096)       746.3  Rx         043E  8  00 90 10 8D 72 34 4A 7B 
  1097)       746.6  Rx         004A  8  02 00 00 00 00 00 00 00 
  1098)       746.8  Rx         004B  8  00 C0 D8 D8 D8 D8 C0 00 
  1099)       747.1  Rx         004C  8  60 AF FF 00 00 00 00 00 
  1100)       748.9  Rx         03E2  8  00 00 00 00 80 00 00 00 
  1101)       749.2  Rx         03EA  8  00 00 00 00 00 00 60 00 
  1102)       749.4  Rx         0455  8  A0 00 00 00 00 00 00 00 
  1103)       750.0  Rx         0041  8  00 00 00 00 00 00 00 00 
  1104)       750.2  Rx         0042  8  00 00 00 00 00 00 00 00 
  1105)       750.5  Rx         0092  8  6F AD 6F 71 73 67 CF 71 
  1106)       752.9  Rx         0082  8  87 00 14 48 5D 00 20 FF 
  1107)       753.2  Rx         0085  8  7D 03 80 00 81 10 FF FE 
  1108)       754.7  Rx         03DA  8  00 00 00 00 00 00 00 00 
  1109)       755.0  Rx         0076  8  3E 80 40 00 00 00 00 00 
  1110)       755.3  Rx         0047  8  20 00 00 00 00 00 00 00 
  1111)       755.5  Rx         0077  8  00 00 08 00 7F F7 F9 F6 
  1112)       755.8  Rx         007D  8  00 00 F2 D0 00 20 08 03 
  1113)       756.1  Rx         0165  8  10 40 00 00 21 43 00 00 
  1114)       756.3  Rx         0171  8  F0 E0 00 00 00 00 00 00 
  1115)       756.5  Rx         0200  8  00 00 7F FF 7F FF 00 00 
  1116)       756.8  Rx         0213  8  FF FF 00 00 80 11 FF 41 
  1117)       757.0  Rx         0230  8  1C 1C 00 00 5A 00 00 00 
  1118)       757.2  Rx         042F  8  7C 0C 00 3E 86 32 00 00 
  1119)       757.7  Rx         0216  8  00 00 00 00 AA 00 00 00 
  1120)       758.0  Rx         0217  8  00 00 00 00 00 00 00 00 
  1121)       758.7  Rx         0415  8  00 00 C8 FA 0F FE 0F FE 
  1122)       758.9  Rx         0416  8  5D 00 F1 08 01 00 00 00 
  1123)       759.9  Rx         04B0  8  17 00 80 00 D0 00 00 F2 
  1124)       760.8  Rx         0242  8  00 5B 1F 24 AB 00 00 01 
  1125)       761.1  Rx         040A  8  C0 00 00 B4 75 6C 2B 00 
  1126)       761.3  Rx         042C  8  AC 0C 80 00 DB 00 00 00 
  1127)       762.4  Rx         0085  8  7D 03 80 00 80 20 FF FE 
  1128)       765.1  Rx         0217  8  00 00 00 00 00 00 00 00 
  1129)       766.2  Rx         0167  8  00 80 0B 00 00 19 F1 00 
  1130)       766.4  Rx         0204  8  C0 10 7D 00 00 00 00 00 
  1131)       766.6  Rx         043D  8  00 33 35 F9 60 00 00 00 
  1132)       766.8  Rx         043E  8  00 90 10 8D 72 34 4A 7B 
  1133)       769.9  Rx         0041  8  00 00 00 00 00 00 00 00 
  1134)       770.1  Rx         0042  8  00 00 00 00 00 00 00 00 
  1135)       772.9  Rx         0082  8  87 00 14 48 5D 00 20 FF 
  1136)       773.1  Rx         0085  8  7D 03 80 00 7F 30 FF FE 
  1137)       775.0  Rx         0076  8  3E 80 40 00 00 00 00 00 
  1138)       775.3  Rx         0077  8  00 00 08 01 7F F7 F5 F6 
  1139)       775.5  Rx         007D  8  00 00 F1 E0 00 1F E7 FF 
  1140)       776.0  Rx         0213  8  FF FF 00 00 80 11 FF 41 
  1141)       776.2  Rx         0047  8  20 00 00 00 00 00 00 00 
  1142)       776.5  Rx         0165  8  10 40 00 00 21 43 00 00 
  1143)       776.7  Rx         0171  8  F0 E0 00 00 00 00 00 00 
  1144)       777.0  Rx         0200  8  00 00 7F FF 7F FF 00 00 
  1145)       777.2  Rx         0230  8  1C 1C 00 00 5A 00 00 00 
  1146)       777.5  Rx         042F  8  7C 0C 00 3E 86 32 00 00 
  1147)       777.7  Rx         0216  8  00 00 00 00 AA 00 00 00 
  1148)       777.9  Rx         0217  8  00 00 00 00 00 00 00 00 
  1149)       778.7  Rx         0415  8  00 00 CC F9 0F FE 0F FE 
  1150)       779.2  Rx         04B0  8  17 00 80 00 E0 00 00 F1 
  1151)       780.8  Rx         0084  8  19 00 00 CD 2A 3B 0D 00 
  1152)       782.4  Rx         0085  8  7D 03 80 00 7E 40 FF FE 
  1153)       783.6  Rx         05C7  8  C7 00 FF FF FF FF FF FF 
  1154)       785.1  Rx         0217  8  00 00 00 00 00 00 00 00 
  1155)       787.2  Rx         0167  8  00 80 0B 00 00 19 F1 00 
  1156)       787.4  Rx         0204  8  C0 12 7D 00 00 00 00 00 
  1157)       787.7  Rx         043D  8  00 33 35 F9 60 00 00 00 
  1158)       787.9  Rx         043E  8  00 90 10 8D 72 34 4A 7B 
  1159)       789.8  Rx         0041  8  00 00 00 00 00 00 00 00 
  1160)       790.1  Rx         0042  8  00 00 00 00 00 00 00 00 
  1161)       792.9  Rx         0082  8  86 00 14 48 5D 00 20 FF 
  1162)       793.1  Rx         0085  8  7D 03 80 00 7D 50 FF FE 
  1163)       795.0  Rx         0076  8  3E 80 40 00 00 00 00 00 
  1164)       795.3  Rx         0077  8  00 00 08 00 7F F7 F5 F6 
  1165)       795.6  Rx         007D  8  00 00 F0 F0 00 1F F8 00 
  1166)       796.0  Rx         0213  8  FF FF 00 00 80 11 FF 41 
  1167)       796.9  Rx         0216  8  00 00 00 00 AA 00 00 00 
  1168)       797.2  Rx         0047  8  20 00 00 00 00 00 00 00 
  1169)       797.4  Rx         0165  8  10 40 00 00 21 43 00 00 
  1170)       797.7  Rx         0171  8  F0 E0 00 00 00 00 00 00 
  1171)       797.9  Rx         0200  8  00 00 7F FF 7F FF 00 00 
  1172)       798.2  Rx         0217  8  00 00 00 00 00 00 00 00 
  1173)       798.4  Rx         0230  8  1C 1C 00 00 5A 00 00 00 
  1174)       798.7  Rx         0415  8  00 00 D0 F8 0F FE 0F FE 
  1175)       798.9  Rx         042F  8  7C 0C 00 3E 86 32 00 00 
  1176)       799.1  Rx         04B0  8  17 00 80 00 F0 00 00 F0 
  1177)       800.2  Rx         0326  8  01 A0 02 6A 01 D0 00 00 
  1178)       800.6  Rx         0581  8  81 00 FF FF FF FF FF FF 
  1179)       800.9  Rx         0242  8  00 5B 1F 24 AB 00 00 01 
  1180)       802.4  Rx         0085  8  7D 03 80 00 7C 60 FF FE 
  1181)       805.1  Rx         0217  8  00 00 00 00 00 00 00 00 
  1182)       808.2  Rx         0167  8  00 80 0B 00 00 19 F1 00 
  1183)       808.4  Rx         0204  8  C0 12 7D 00 00 00 00 00 
  1184)       808.7  Rx         043D  8  00 33 35 F9 60 00 00 00 
  1185)       808.9  Rx         043E  8  00 90 10 8D 72 34 4A 7B 
  1186)       809.9  Rx         0041  8  00 00 00 00 00 00 00 00 
  1187)       810.1  Rx         0042  8  00 00 00 00 00 00 00 00 
  1188)       810.4  Rx         042C  8  AC 0C 80 00 DB 00 00 00 
  1189)       812.9  Rx         0082  8  86 00 14 48 5D 00 20 FF 
  1190)       813.1  Rx         0085  8  7D 03 80 00 7B 70 FF FE 
  1191)       815.0  Rx         0076  8  3E 80 40 00 00 00 00 00 
  1192)       815.3  Rx         0077  8  00 00 07 FF 7F F7 F9 F5 
  1193)       815.5  Rx         007D  8  00 00 FF 00 00 1F B8 01 
  1194)       816.0  Rx         0213  8  FF FF 00 00 80 11 FF 41 
  1195)       816.9  Rx         0216  8  00 00 00 00 AA 00 00 00 
  1196)       817.2  Rx         0217  8  00 00 00 00 00 00 00 00 
  1197)       817.4  Rx         0415  8  00 00 D4 F7 0F FE 0F FE 
  1198)       817.7  Rx         04B0  8  17 00 80 00 00 00 00 FF 
  1199)       818.0  Rx         0047  8  20 00 00 00 00 00 00 00 
  1200)       818.3  Rx         0165  8  10 40 00 00 21 43 00 00 
  1201)       818.5  Rx         0171  8  F0 E0 00 00 00 00 00 00 
  1202)       818.8  Rx         0200  8  00 00 7F FF 7F FF 00 00 
  1203)       819.0  Rx         0230  8  1C 1C 00 00 5A 00 00 00 
  1204)       819.2  Rx         042F  8  7C 0C 00 3E 86 32 00 00 
  1205)       822.4  Rx         0085  8  7D 03 80 00 7A 80 FF FE 
  1206)       825.1  Rx         0217  8  00 00 00 00 00 00 00 00 
  1207)       828.2  Rx         0167  8  00 80 0B 00 00 19 F1 00 
  1208)       828.4  Rx         0204  8  C0 11 7D 00 00 00 00 00 
  1209)       828.6  Rx         043D  8  00 33 35 F9 60 00 00 00 
  1210)       828.8  Rx         043E  8  00 90 10 8D 72 34 4A 7B 
  1211)       829.1  Rx         0156  8  50 5A 00 00 03 00 00 00 
  1212)       829.3  Rx         0166  8  00 00 00 00 B3 06 00 00 
  1213)       829.6  Rx         0178  8  00 00 01 FF 0E 74 DA 75 
  1214)       829.8  Rx         0179  8  00 00 00 00 24 00 00 29 
  1215)       830.1  Rx         0041  8  00 00 00 00 00 00 00 00 
  1216)       830.3  Rx         0042  8  00 00 00 00 00 00 00 00 
  1217)       830.5  Rx         0421  8  00 00 30 00 00 00 4A 00 
  1218)       830.8  Rx         0424  8  00 22 40 00 00 00 00 00 
  1219)       831.1  Rx         042D  8  00 02 89 00 00 00 F0 00 
  1220)       832.9  Rx         0082  8  85 00 14 48 5D 00 20 FF 
  1221)       833.1  Rx         0085  8  7D 03 80 00 79 90 FF FE 
  1222)       835.0  Rx         0076  8  3E 80 40 00 00 00 00 00 
  1223)       835.3  Rx         0077  8  00 00 08 02 7F F7 F5 F5 
  1224)       835.5  Rx         007D  8  00 00 FE 10 00 1F C8 00 
  1225)       835.8  Rx         0213  8  FF FF 00 00 80 11 FF 41 
  1226)       836.3  Rx         0216  8  00 00 00 00 AA 00 00 00 
  1227)       836.6  Rx         0430  8  02 00 E3 99 8A 01 13 91 
  1228)       836.8  Rx         0434  8  27 E8 15 29 0F FF 00 24 
  1229)       837.0  Rx         0435  8  7C 70 18 5A AA 20 09 02 
  1230)       837.3  Rx         0217  8  00 00 00 00 00 00 00 00 
  1231)       837.5  Rx         0415  8  00 00 D8 F6 0F FE 0F FE 
  1232)       837.8  Rx         04B0  8  17 00 80 00 10 00 00 FE 
  1233)       840.3  Rx         0167  8  00 80 0B 00 00 19 F1 00 
  1234)       840.5  Rx         0204  8  C0 12 7D 00 00 00 00 00 
  1235)       840.8  Rx         043D  8  00 33 35 F9 60 00 00 00 
  1236)       841.0  Rx         0242  8  00 5B 1F 24 AB 00 00 01 
  1237)       841.3  Rx         0083  8  00 E0 80 00 00 00 00 00 
  1238)       841.5  Rx         043E  8  00 90 10 8D 72 34 4A 7B 
  1239)       841.8  Rx         0047  8  20 00 00 00 00 00 00 00 
  1240)       842.0  Rx         0165  8  10 40 00 00 21 43 00 00 
  1241)       842.2  Rx         0171  8  F0 E0 00 00 00 00 00 00 
  1242)       842.5  Rx         0200  8  00 00 7F FF 7F FF 00 00 
  1243)       842.7  Rx         0085  8  7D 03 80 00 78 A0 FF FE 
  1244)       843.0  Rx         0230  8  1C 1C 00 00 5A 00 00 00 
  1245)       843.2  Rx         042F  8  7C 0C 00 3E 86 32 00 00 
  1246)       845.1  Rx         0217  8  00 00 00 00 00 00 00 00 
  1247)       846.4  Rx         004A  8  02 00 00 00 00 00 00 00 
  1248)       846.6  Rx         004B  8  00 C0 D8 D8 D8 D8 C0 00 
  1249)       846.9  Rx         004C  8  60 AF FF 00 00 00 00 00 
  1250)       849.0  Rx         0455  8  A0 00 00 00 00 00 00 00 
  1251)       849.8  Rx         0041  8  00 00 00 00 00 00 00 00 
  1252)       850.1  Rx         0042  8  00 00 00 00 00 00 00 00 
  1253)       850.3  Rx         05E2  8  62 00 FF FF FF FF FF FF 
  1254)       852.1  Rx         0167  8  00 80 0B 00 00 19 F1 00 
  1255)       852.3  Rx         0204  8  C0 12 7D 00 00 00 00 00 
  1256)       852.6  Rx         043D  8  00 33 35 F9 60 00 00 00 
  1257)       852.8  Rx         043E  8  00 90 10 8D 72 34 4A 7B 
  1258)       853.1  Rx         0082  8  85 00 14 48 5D 00 20 FF 
  1259)       853.3  Rx         0085  8  7D 03 80 00 77 B0 FF FE 
  1260)       855.0  Rx         0076  8  3E 80 40 00 00 00 00 00 
  1261)       855.3  Rx         0077  8  00 00 08 00 7F F7 F5 F5 
  1262)       855.5  Rx         0092  8  6F AC 6F 6D 73 64 A5 A3 
  1263)       855.7  Rx         007D  8  00 00 FD 20 00 1F D8 00 
  1264)       856.0  Rx         0213  8  FF FF 00 00 80 11 FF 41 
  1265)       857.0  Rx         0216  8  00 00 00 00 AA 00 00 00 
  1266)       857.2  Rx         0217  8  00 00 00 00 00 00 00 00 
  1267)       857.4  Rx         0415  8  00 00 DC F5 0F FE 0F FE 
  1268)       857.7  Rx         0416  8  5E 00 F0 08 01 00 00 00 
  1269)       858.6  Rx         04B0  8  17 00 80 00 20 00 00 FD 
  1270)       860.8  Rx         042C  8  AC 0C 80 00 DB 00 00 00 
  1271)       862.0  Rx         0047  8  20 00 00 00 00 00 00 00 
  1272)       862.2  Rx         0165  8  10 40 00 00 21 43 00 00 
  1273)       862.5  Rx         0085  8  7D 03 80 00 76 C0 FF FE 
  1274)       862.7  Rx         0171  8  F0 E0 00 00 00 00 00 00 
  1275)       863.0  Rx         0200  8  00 00 7F FF 7F FF 00 00 
  1276)       863.2  Rx         0230  8  1C 1C 00 00 5A 00 00 00 
  1277)       863.5  Rx         042F  8  7C 0C 00 3E 86 32 00 00 
  1278)       865.1  Rx         0217  8  00 00 00 00 00 00 00 00 
  1279)       869.7  Rx         0041  8  00 00 00 00 00 00 00 00 
  1280)       870.0  Rx         0042  8  00 00 00 00 00 00 00 00 
  1281)       872.8  Rx         0082  8  85 00 14 48 5D 00 20 FF 
  1282)       873.1  Rx         0085  8  7D 03 80 00 75 D0 FF FE 
  1283)       873.3  Rx         0167  8  00 80 0B 00 00 19 F1 00 
  1284)       873.6  Rx         0204  8  C0 11 7D 00 00 00 00 00 
  1285)       873.8  Rx         043D  8  00 33 35 F9 60 00 00 00 
  1286)       874.1  Rx         043E  8  00 90 10 8D 72 34 4A 7B 
  1287)       875.0  Rx         0076  8  3E 80 40 00 00 00 00 00 
  1288)       875.3  Rx         0077  8  00 00 07 FF 7F F7 F5 F5 
  1289)       875.5  Rx         007D  8  00 00 FC 30 00 1F C8 03 
  1290)       876.0  Rx         0213  8  FF FF 00 00 80 11 FF 41 
  1291)       876.9  Rx         0216  8  00 00 00 00 AA 00 00 00 
  1292)       877.2  Rx         0217  8  00 00 00 00 00 00 00 00 
  1293)       877.4  Rx         0415  8  00 00 E0 F4 0F FE 0F FE 
  1294)       877.7  Rx         04B0  8  17 00 80 00 30 00 00 FC 
  1295)       880.7  Rx         0242  8  00 5B 1F 24 AB 00 00 01 
  1296)       882.4  Rx         0085  8  7D 03 80 00 74 E0 FF FE 
  1297)       883.0  Rx         0047  8  20 00 00 00 00 00 00 00 
  1298)       883.3  Rx         0165  8  10 40 00 00 21 43 00 00 
  1299)       883.5  Rx         0171  8  F0 E0 00 00 00 00 00 00 
  1300)       883.8  Rx         0200  8  00 00 7F FF 7F FF 00 00 
  1301)       884.0  Rx         0230  8  1C 1C 00 00 5A 00 00 00 
  1302)       884.3  Rx         042F  8  7C 0C 00 3E 86 32 00 00 
  1303)       885.1  Rx         0217  8  00 00 00 00 00 00 00 00 
  1304)       889.7  Rx         0041  8  00 00 00 00 00 00 00 00 
  1305)       890.0  Rx         0042  8  00 00 00 00 00 00 00 00 
  1306)       892.9  Rx         0082  8  84 00 14 48 5D 00 20 FF 
  1307)       893.1  Rx         0085  8  7D 03 80 00 73 F0 FF FE 
  1308)       893.4  Rx         0167  8  00 80 0B 00 00 19 F1 00 
  1309)       893.6  Rx         0204  8  C0 11 7D 00 00 00 00 00 
  1310)       893.9  Rx         043D  8  00 33 35 F9 60 00 00 00 
  1311)       894.1  Rx         043E  8  00 90 10 8D 72 34 4A 7B 
  1312)       895.0  Rx         0076  8  3E 80 40 00 00 00 00 00 
  1313)       895.3  Rx         0077  8  00 00 07 FF 7F F7 F1 F6 
  1314)       895.5  Rx         007D  8  00 00 FB 40 00 20 08 00 
  1315)       896.0  Rx         0213  8  FF FF 00 00 80 11 FF 41 
  1316)       896.9  Rx         0216  8  00 00 00 00 AA 00 00 00 
  1317)       897.2  Rx         0217  8  00 00 00 00 00 00 00 00 
  1318)       897.4  Rx         0415  8  00 00 E4 F3 0F FE 0F FE 
  1319)       897.7  Rx         04B0  8  17 00 80 00 40 00 00 FB 
  1320)       900.2  Rx         0326  8  01 A0 02 6A 01 D0 00 00 
  1321)       902.4  Rx         0085  8  7D 03 80 00 82 00 FF FE 
  1322)       903.2  Rx         0167  8  00 80 0B 00 00 19 F1 00 
  1323)       903.4  Rx         0204  8  C0 12 7D 00 00 00 00 00 
  1324)       903.7  Rx         043D  8  00 33 35 F9 60 00 00 00 
  1325)       903.9  Rx         043E  8  00 90 10 8D 72 34 4A 7B 
  1326)       904.1  Rx         0047  8  20 00 00 00 00 00 00 00 
  1327)       904.4  Rx         0165  8  10 40 00 00 21 43 00 00 
  1328)       904.6  Rx         0171  8  F0 E0 00 00 00 00 00 00 
  1329)       904.9  Rx         0200  8  00 00 7F FF 7F FF 00 00 
  1330)       905.1  Rx         0230  8  1C 1C 00 00 5A 00 00 00 
  1331)       905.4  Rx         0217  8  00 00 00 00 00 00 00 00 
  1332)       905.6  Rx         042F  8  7C 0C 00 3E 86 32 00 00 
  1333)       909.9  Rx         0041  8  00 00 00 00 00 00 00 00 
  1334)       910.1  Rx         0042  8  00 00 00 00 00 00 00 00 
  1335)       910.3  Rx         042C  8  AC 0C 80 00 DB 00 00 00 
  1336)       912.8  Rx         0082  8  84 00 14 48 5D 00 20 FF 
  1337)       913.1  Rx         0085  8  7D 03 80 00 81 10 FF FE 
  1338)       915.1  Rx         0076  8  3E 80 40 00 00 00 00 00 
  1339)       915.3  Rx         0077  8  00 00 07 FF 7F F7 F1 F5 
  1340)       915.5  Rx         0167  8  00 80 0B 00 00 19 F1 00 
  1341)       915.8  Rx         007D  8  00 00 FA 50 00 20 28 00 
  1342)       916.0  Rx         0204  8  C0 12 7D 00 00 00 00 00 
  1343)       916.3  Rx         0213  8  FF FF 00 00 80 11 FF 41 
  1344)       916.5  Rx         043D  8  00 33 35 F9 60 00 00 00 
  1345)       916.7  Rx         043E  8  00 90 10 8D 72 34 4A 7B 
  1346)       917.5  Rx         0216  8  00 00 00 00 AA 00 00 00 
  1347)       917.7  Rx         0217  8  00 00 00 00 00 00 00 00 
  1348)       918.0  Rx         0415  8  00 00 E8 F2 0F FE 0F FE 
  1349)       918.2  Rx         04B0  8  17 00 80 00 50 00 00 FA 
  1350)       921.4  Rx         0242  8  00 5D 1F 24 AB 00 00 01 
  1351)       922.4  Rx         0085  8  7D 03 80 00 80 20 FF FE 
  1352)       925.0  Rx         0217  8  00 00 00 00 00 00 00 00 
  1353)       925.3  Rx         0047  8  20 00 00 00 00 00 00 00 
  1354)       925.5  Rx         0165  8  10 40 00 00 21 43 00 00 
  1355)       925.7  Rx         0171  8  F0 E0 00 00 00 00 00 00 
  1356)       926.0  Rx         0200  8  00 00 7F FF 7F FF 00 00 
  1357)       926.2  Rx         0230  8  1C 1C 00 00 5A 00 00 00 
  1358)       926.5  Rx         042F  8  7C 0C 00 3E 86 32 00 00 
  1359)       929.9  Rx         0041  8  00 00 00 00 00 00 00 00 
  1360)       930.1  Rx         0042  8  00 00 00 00 00 00 00 00 
  1361)       932.9  Rx         0082  8  83 00 14 48 5D 00 20 FF 
  1362)       933.1  Rx         0085  8  7D 03 80 00 7F 30 FF FE 
  1363)       935.0  Rx         0076  8  3E 80 40 00 00 00 00 00 
  1364)       935.3  Rx         0077  8  00 00 07 FF 7F F7 F1 F5 
  1365)       935.5  Rx         007D  8  00 00 F9 60 00 1F F7 F8 
  1366)       935.8  Rx         0213  8  FF FF 00 00 80 11 FF 41 
  1367)       936.1  Rx         0167  8  00 80 0B 00 00 19 F1 00 
  1368)       936.4  Rx         0204  8  C0 12 7D 00 00 00 00 00 
  1369)       936.6  Rx         0216  8  00 00 00 00 AA 00 00 00 
  1370)       936.8  Rx         0430  8  02 00 E3 99 8A 01 13 91 
  1371)       937.1  Rx         0434  8  27 E8 15 29 0F FF 00 20 
  1372)       937.3  Rx         0435  8  28 20 10 12 AA 20 09 02 
  1373)       937.6  Rx         043D  8  00 33 35 F9 60 00 00 00 
  1374)       937.8  Rx         0217  8  00 00 00 00 00 00 00 00 
  1375)       938.0  Rx         0415  8  00 00 EC F1 0F FE 0F FE 
  1376)       938.3  Rx         043E  8  00 90 10 8D 72 34 4A 7B 
  1377)       938.5  Rx         0156  8  50 5A 00 00 03 00 00 00 
  1378)       938.7  Rx         0166  8  00 00 00 00 B3 06 00 00 
  1379)       939.0  Rx         0178  8  00 00 01 FF 0E 74 DA 75 
  1380)       939.2  Rx         0179  8  00 00 00 00 24 00 00 29 
  1381)       939.5  Rx         0421  8  00 00 30 00 00 00 4A 00 
  1382)       939.7  Rx         0424  8  00 22 40 00 00 00 00 00 
  1383)       939.9  Rx         042D  8  00 02 89 00 00 00 F0 00 
  1384)       940.2  Rx         04B0  8  17 00 80 00 60 00 00 F9 
  1385)       941.0  Rx         0083  8  00 E0 80 00 00 00 00 00 
  1386)       942.4  Rx         0085  8  7D 03 80 00 7E 40 FF FE 
  1387)       945.0  Rx         0217  8  00 00 00 00 00 00 00 00 
  1388)       946.3  Rx         004A  8  02 00 00 00 00 00 00 00 
  1389)       946.5  Rx         004B  8  00 C0 D8 D8 D8 D8 C0 00 
  1390)       946.8  Rx         004C  8  60 AF FF 00 00 00 00 00 
  1391)       948.9  Rx         0455  8  A0 00 00 00 00 00 00 00 
  1392)       949.2  Rx         0167  8  00 80 0B 00 00 19 F1 00 
  1393)       949.4  Rx         0204  8  C0 12 7D 00 00 00 00 00 
  1394)       949.6  Rx         043D  8  00 33 35 F9 60 00 00 00 
  1395)       949.8  Rx         043E  8  00 90 10 8D 72 34 4A 7B 
  1396)       950.1  Rx         0041  8  00 00 00 00 00 00 00 00 
  1397)       950.4  Rx         0042  8  00 00 00 00 00 00 00 00 
  1398)       950.6  Rx         0047  8  20 00 00 00 00 00 00 00 
  1399)       950.9  Rx         0165  8  10 40 00 00 21 43 00 00 
  1400)       951.1  Rx         0171  8  F0 E0 00 00 00 00 00 00 
  1401)       951.3  Rx         0200  8  00 00 7F FF 7F FF 00 00 
  1402)       951.6  Rx         0230  8  1C 1C 00 00 5A 00 00 00 
  1403)       951.8  Rx         042F  8  7C 0C 00 3E 86 32 00 00 
  1404)       952.8  Rx         0082  8  83 00 14 48 5D 00 20 FF 
  1405)       953.1  Rx         0085  8  7D 03 80 00 7D 50 FF FE 
  1406)       955.1  Rx         0076  8  3E 80 40 00 00 00 00 00 
  1407)       955.3  Rx         0077  8  00 00 08 00 7F F7 F1 F5 
  1408)       955.6  Rx         007D  8  00 00 F8 70 00 20 18 03 
  1409)       956.0  Rx         0213  8  FF FF 00 00 80 11 FF 41 
  1410)       957.0  Rx         0216  8  00 00 00 00 AA 00 00 00 
  1411)       957.3  Rx         0217  8  00 00 00 00 00 00 00 00 
  1412)       957.5  Rx         0415  8  00 00 F0 F0 0F FE 0F FE 
  1413)       957.7  Rx         0416  8  5F 00 EF 08 01 00 00 00 
  1414)       958.7  Rx         04B0  8  17 00 80 00 70 00 00 F8 
  1415)       960.3  Rx         0092  8  6F AB 6F 6E 73 69 69 DA 
  1416)       960.7  Rx         0242  8  00 5D 1F 24 AB 00 00 01 
  1417)       961.0  Rx         038D  8  20 00 00 00 60 00 00 00 
  1418)       961.2  Rx         0167  8  00 80 0B 00 00 19 F1 00 
  1419)       961.4  Rx         0204  8  C0 12 7D 00 00 00 00 00 
  1420)       961.7  Rx         03B6  8  08 00 08 00 00 00 00 00 
  1421)       962.0  Rx         03B7  8  00 00 00 00 60 9D 4F 0A 
  1422)       962.2  Rx         03B8  8  FF FF FF FF 00 00 00 00 
  1423)       962.4  Rx         03E3  8  00 01 04 11 80 00 00 00 
  1424)       962.7  Rx         0085  8  7D 03 80 00 7C 60 FF FE 
  1425)       962.9  Rx         03EB  8  00 04 14 00 00 20 00 00 
  1426)       963.2  Rx         040A  8  C1 00 31 46 41 36 50 38 
  1427)       963.4  Rx         042C  8  AC 0C 80 00 DB 00 00 00 
  1428)       963.6  Rx         043C  8  21 80 0D 73 2B 99 88 14 
  1429)       963.9  Rx         043D  8  00 33 35 F9 60 00 00 00 
  1430)       964.1  Rx         043E  8  00 90 10 8D 72 34 4A 7B 
  1431)       964.3  Rx         0447  8  22 00 00 4B 00 00 00 00 
  1432)       965.0  Rx         0217  8  00 00 00 00 00 00 00 00 
  1433)       969.7  Rx         0041  8  00 00 00 00 00 00 00 00 
  1434)       970.0  Rx         0042  8  00 00 00 00 00 00 00 00 
  1435)       971.0  Rx         0047  8  20 00 00 00 00 00 00 00 
  1436)       971.3  Rx         0165  8  10 40 00 00 21 43 00 00 
  1437)       971.5  Rx         0171  8  F0 E0 00 00 00 00 00 00 
  1438)       971.7  Rx         0200  8  00 00 7F FF 7F FF 00 00 
  1439)       972.0  Rx         0230  8  1C 1C 00 00 5A 00 00 00 
  1440)       972.2  Rx         042F  8  7C 0C 00 3E 86 32 00 00 
  1441)       973.1  Rx         0082  8  83 00 14 48 5D 00 20 FF 
  1442)       973.3  Rx         0085  8  7D 03 80 00 7B 70 FF FE 
  1443)       975.0  Rx         0076  8  3E 80 40 00 00 00 00 00 
  1444)       975.3  Rx         0077  8  00 00 08 01 7F F7 F1 F5 
  1445)       975.5  Rx         007D  8  00 00 F7 80 00 1F F7 FD 
  1446)       976.0  Rx         0213  8  FF FF 00 00 80 11 FF 41 
  1447)       976.9  Rx         0216  8  00 00 00 00 AA 00 00 00 
  1448)       977.2  Rx         0217  8  00 00 00 00 00 00 00 00 
  1449)       977.4  Rx         0415  8  00 00 F4 EF 0F FE 0F FE 
  1450)       977.7  Rx         04B0  8  17 00 80 00 80 00 00 F7 
  1451)       981.1  Rx         0167  8  00 80 0B 00 00 19 F1 00 
  1452)       981.4  Rx         0204  8  C0 11 7D 00 00 00 00 00 
  1453)       981.6  Rx         043D  8  00 33 35 F9 60 00 00 00 
  1454)       981.8  Rx         043E  8  00 90 10 8D 72 34 4A 7B 
  1455)       982.4  Rx         0085  8  7D 03 80 00 7A 80 FF FE 
  1456)       985.0  Rx         0217  8  00 00 00 00 00 00 00 00 
  1457)       989.6  Rx         0041  8  00 00 00 00 00 00 00 00 
  1458)       989.9  Rx         0042  8  00 00 00 00 00 00 00 00 
  1459)       992.8  Rx         0082  8  83 00 14 48 5D 00 20 FF 
  1460)       993.1  Rx         0085  8  7D 03 80 00 79 90 FF FE 
  1461)       994.9  Rx         0076  8  3E 80 40 00 00 00 00 00 
  1462)       995.2  Rx         0077  8  00 00 07 FF 7F F7 F5 F5 
  1463)       995.4  Rx         007D  8  00 00 F6 90 00 1F E8 01 
  1464)       995.9  Rx         0213  8  FF FF 00 00 80 11 FF 41 
  1465)       996.8  Rx         0216  8  00 00 00 00 AA 00 00 00 
  1466)       997.1  Rx         0217  8  00 00 00 00 00 00 00 00 
  1467)       997.3  Rx         0415  8  00 00 F8 EE 0F FE 0F FE 
  1468)       997.6  Rx         04B0  8  17 00 80 00 90 00 00 F6 
  1469)      1000.1  Rx         0326  8  01 A0 02 6A 01 D0 00 00 
  1470)      1000.7  Rx         0242  8  00 5D 1F 24 AB 00 00 01 
  1471)      1001.2  Rx         0167  8  00 80 0B 00 00 19 F1 00 
  1472)      1001.4  Rx         0204  8  C0 11 7D 00 00 00 00 00 
  1473)      1001.6  Rx         043D  8  00 33 35 F9 60 00 00 00 
  1474)      1001.9  Rx         043E  8  00 90 10 8D 72 34 4A 7B 
  1475)      1002.1  Rx         0047  8  20 00 00 00 00 00 00 00 
  1476)      1002.4  Rx         0165  8  10 40 00 00 21 43 00 00 
  1477)      1002.6  Rx         0085  8  7D 03 80 00 78 A0 FF FE 
  1478)      1002.8  Rx         0171  8  F0 E0 00 00 00 00 00 00 
  1479)      1003.1  Rx         0200  8  00 00 7F FF 7F FF 00 00 
  1480)      1003.3  Rx         0230  8  1C 1C 00 00 5A 00 00 00 
  1481)      1003.6  Rx         042F  8  7C 0C 00 3E 86 32 00 00 
  1482)      1005.1  Rx         0217  8  00 00 00 00 00 00 00 00 
  1483)      1009.7  Rx         0041  8  00 00 00 00 00 00 00 00 
  1484)      1010.0  Rx         0042  8  00 00 00 00 00 00 00 00 
  1485)      1010.2  Rx         0331  8  C0 00 57 85 62 00 00 04 
  1486)      1010.4  Rx         03B4  8  40 11 11 FF 20 20 00 00 
  1487)      1010.7  Rx         042C  8  AC 0C 80 00 DB 00 00 00 
  1488)      1012.9  Rx         0082  8  83 00 14 48 5D 00 20 FF 
  1489)      1013.1  Rx         0085  8  7D 03 80 00 77 B0 FF FE 
  1490)      1013.4  Rx         0167  8  00 80 0B 00 00 19 F1 00 
  1491)      1013.6  Rx         0204  8  C0 13 7D 00 00 00 00 00 
  1492)      1013.8  Rx         043D  8  00 33 35 F9 60 00 00 00 
  1493)      1014.1  Rx         043E  8  00 90 10 8D 72 34 4A 7B 
  1494)      1014.9  Rx         0076  8  3E 80 40 00 00 00 00 00 
  1495)      1015.2  Rx         0077  8  00 00 08 03 7F F7 F5 F5 
  1496)      1015.5  Rx         007D  8  00 00 F5 A0 00 1F C8 01 
  1497)      1015.7  Rx         0213  8  FF FF 00 00 80 11 FF 41 
  1498)      1016.9  Rx         0216  8  00 00 00 00 AA 00 00 00 
  1499)      1017.1  Rx         0217  8  00 00 00 00 00 00 00 00 
  1500)      1017.4  Rx         0415  8  00 00 FC ED 0F FE 0F FE 
  1501)      1017.6  Rx         04B0  8  17 00 80 00 A0 00 00 F5 
  1502)      1020.8  Rx         03B5  8  00 C5 00 B2 00 C9 00 C7 
  1503)      1022.4  Rx         0085  8  7D 03 80 00 76 C0 FF FE 
  1504)      1023.0  Rx         0047  8  20 00 00 00 00 00 00 00 
  1505)      1023.3  Rx         0165  8  10 40 00 00 21 43 00 00 
  1506)      1023.5  Rx         0171  8  F0 E0 00 00 00 00 00 00 
  1507)      1023.7  Rx         0200  8  00 00 7F FF 7F FF 00 00 
  1508)      1024.0  Rx         0230  8  1C 1C 00 00 5A 00 00 00 
