;$FILEVERSION=1.1
;$STARTTIME=45617.6579229051
;
;   Start time: 11/21/2024 15:47:24.539.0
;   Generated by PCAN-View v4.3.4.615
;
;   Message Number
;   |         Time Offset (ms)
;   |         |        Type
;   |         |        |        ID (hex)
;   |         |        |        |     Data Length
;   |         |        |        |     |   Data Bytes (hex) ...
;   |         |        |        |     |   |
;---+--   ----+----  --+--  ----+---  +  -+ -- -- -- -- -- -- --
     1)         1.8  Rx         0455  8  00 00 00 00 00 00 00 00 
     2)         4.9  Rx         0217  8  00 00 00 00 00 00 00 00 
     3)         8.0  Rx         0041  8  20 D1 CE D4 66 09 00 00 
     4)         8.3  Rx         0085  8  7C FF 80 00 FA C0 7D 01 
     5)         8.7  Rx         072E  8  07 62 41 A9 01 08 00 00 
     6)        14.9  Rx         0076  8  3E 80 40 00 00 00 00 00 
     7)        15.1  Rx         0077  8  FF FF 0F FF 7F FF FF FF 
     8)        15.4  Rx         007D  8  C0 00 F4 B0 00 1F BF FF 
     9)        15.7  Rx         0213  8  FF FF 00 00 80 13 FF 41 
    10)        16.1  Rx         0216  8  00 00 00 00 AA 00 00 00 
    11)        16.4  Rx         0217  8  00 00 00 00 00 00 00 00 
    12)        16.6  Rx         0415  8  00 00 D8 F6 0F FF 0F FF 
    13)        16.8  Rx         04B0  8  51 00 80 00 B0 00 10 F2 
    14)        18.1  Rx         042C  8  84 02 00 00 38 B0 00 00 
    15)        18.4  Rx         004A  8  02 00 00 00 00 00 00 00 
    16)        18.6  Rx         004B  8  00 C0 D8 D8 D8 D8 C0 00 
    17)        18.9  Rx         004C  8  60 AF FF 00 00 00 00 00 
    18)        19.1  Rx         0082  8  82 00 14 40 7A 00 40 FF 
    19)        19.4  Rx         0085  8  7C FF 80 00 F9 D0 7D 01 
    20)        19.6  Rx         0726  8  03 22 41 A9 00 00 00 00 
    21)        24.9  Rx         0217  8  00 00 00 00 00 00 00 00 
    22)        28.1  Rx         0085  8  7C FF 80 00 F8 E0 7D 01 
    23)        28.3  Rx         0041  8  20 D1 CE D4 66 09 00 00 
    24)        28.8  Rx         072E  8  07 62 41 A9 01 08 00 00 
    25)        34.9  Rx         0076  8  3E 80 40 00 00 00 00 00 
    26)        35.2  Rx         0077  8  FF FF 0F FF 7F FF FF FF 
    27)        35.4  Rx         007D  8  C0 00 F3 C0 00 1F 8F FF 
    28)        35.7  Rx         0213  8  FF FF 00 00 80 13 FF 41 
    29)        36.1  Rx         0216  8  00 00 00 00 AA 00 00 00 
    30)        36.4  Rx         0217  8  00 00 00 00 00 00 00 00 
    31)        36.6  Rx         0415  8  00 00 DC F5 0F FF 0F FF 
    32)        36.9  Rx         04B0  8  51 00 80 00 C0 00 00 F3 
    33)        38.2  Rx         0242  8  03 8A 1F 7E C3 00 03 01 
    34)        38.8  Rx         0082  8  82 00 14 40 7A 00 40 FF 
    35)        39.1  Rx         0085  8  7C FF 80 00 F7 F0 7D 01 
    36)        40.6  Rx         0726  8  03 22 41 A9 00 00 00 00 
    37)        44.9  Rx         0217  8  00 00 00 00 00 00 00 00 
    38)        48.1  Rx         0085  8  7C FF 80 00 06 00 7D 01 
    39)        48.3  Rx         0041  8  20 D1 CE D4 66 09 00 00 
    40)        48.8  Rx         072E  8  07 62 41 A9 01 08 00 00 
    41)        49.6  Rx         0326  8  01 A0 02 88 01 D0 00 00 
    42)        54.9  Rx         0076  8  3E 80 40 00 00 00 00 00 
    43)        55.2  Rx         0077  8  FF FF 0F FF 7F FF FF FF 
    44)        55.4  Rx         007D  8  C0 00 F2 D0 00 1F 9F FF 
    45)        55.7  Rx         0213  8  FF FF 00 00 80 13 FF 41 
    46)        55.9  Rx         0083  8  00 E0 80 00 00 00 00 00 
    47)        56.4  Rx         0216  8  00 00 00 00 AA 00 00 00 
    48)        56.7  Rx         0217  8  00 00 00 00 00 00 00 00 
    49)        57.1  Rx         0415  8  00 00 E0 F4 0F FF 0F FF 
    50)        57.4  Rx         04B0  8  51 00 80 00 D0 00 00 F2 
    51)        58.8  Rx         0082  8  82 00 14 40 7A 00 40 FF 
    52)        59.1  Rx         0085  8  7C FF 80 00 05 10 7D 01 
    53)        59.6  Rx         0726  8  03 22 41 A9 00 00 00 00 
    54)        64.9  Rx         0217  8  00 00 00 00 00 00 00 00 
    55)        68.1  Rx         0041  8  20 D1 CE D4 66 09 00 00 
    56)        68.3  Rx         0085  8  7C FF 80 00 04 20 7D 01 
    57)        68.5  Rx         042C  8  84 02 00 00 38 B0 00 00 
    58)        68.8  Rx         072E  8  07 62 41 A9 01 08 00 00 
    59)        70.2  Rx         0092  8  6F B7 6F 9E 73 5C 42 D2 
    60)        74.9  Rx         0076  8  3E 80 40 00 00 00 00 00 
    61)        75.2  Rx         0077  8  FF FF 0F FF 7F FF FF FF 
    62)        75.4  Rx         0430  8  02 00 82 08 FF 01 13 91 
    63)        75.6  Rx         007D  8  C0 00 F1 E0 00 1F 8F FF 
    64)        75.9  Rx         0213  8  FF FF 00 00 80 13 FF 41 
    65)        76.2  Rx         0434  8  26 5B 14 0A 0F FF 02 20 
    66)        76.4  Rx         0216  8  00 00 00 00 AA 00 00 00 
    67)        76.6  Rx         0217  8  00 00 00 00 00 00 00 00 
    68)        76.9  Rx         0415  8  00 00 E4 F3 0F FF 0F FF 
    69)        77.1  Rx         0435  8  28 20 10 91 4E 20 09 02 
    70)        77.4  Rx         04B0  8  51 00 80 00 E0 00 00 F1 
    71)        78.3  Rx         0242  8  03 8A 1F 7D C3 00 03 01 
    72)        78.8  Rx         0082  8  82 00 14 40 7A 00 40 FF 
    73)        79.1  Rx         0085  8  7C FF 80 00 03 30 7D 01 
    74)        79.6  Rx         0726  8  03 22 40 F0 00 00 00 00 
    75)        85.0  Rx         0217  8  00 00 00 00 00 00 00 00 
    76)        88.1  Rx         0085  8  7C FF 80 00 02 40 7D 01 
    77)        88.3  Rx         0041  8  20 D1 CE D4 66 09 00 00 
    78)        88.9  Rx         072E  8  04 62 40 F0 02 00 00 00 
    79)        94.9  Rx         0076  8  3E 80 40 00 00 00 00 00 
    80)        95.2  Rx         0077  8  FF FF 0F FF 7F FF FF FF 
    81)        95.4  Rx         007D  8  C0 00 F0 F0 00 1F 8F FF 
    82)        95.7  Rx         0213  8  FF FF 00 00 80 13 FF 41 
    83)        96.2  Rx         0216  8  00 00 00 00 AA 00 00 00 
    84)        96.4  Rx         0217  8  00 00 00 00 00 00 00 00 
    85)        96.6  Rx         0415  8  00 00 E8 F2 0F FF 0F FF 
    86)        96.9  Rx         0416  8  4E 40 F0 08 01 02 00 00 
    87)        97.2  Rx         04B0  8  51 00 80 00 F0 00 10 EE 
    88)        98.9  Rx         0082  8  82 00 14 40 7A 00 40 FF 
    89)        99.1  Rx         0085  8  7C FF 80 00 01 50 7D 01 
    90)       100.7  Rx         0726  8  03 22 40 F4 00 00 00 00 
    91)       101.9  Rx         0455  8  00 00 00 00 00 00 00 00 
    92)       105.0  Rx         0217  8  00 00 00 00 00 00 00 00 
    93)       108.0  Rx         0041  8  20 D1 CE D4 66 09 00 00 
    94)       108.3  Rx         0085  8  7C FF 80 00 00 60 7D 01 
    95)       108.8  Rx         072E  8  04 62 40 F4 02 00 00 00 
    96)       114.9  Rx         0076  8  3E 80 40 00 00 00 00 00 
    97)       115.2  Rx         0077  8  FF FF 0F FF 7F FF FF FF 
    98)       115.5  Rx         007D  8  C0 00 FF 00 00 1F 9F FF 
    99)       115.7  Rx         0213  8  FF FF 00 00 80 13 FF 41 
   100)       116.2  Rx         0216  8  00 00 00 00 AA 00 00 00 
   101)       116.4  Rx         0217  8  00 00 00 00 00 00 00 00 
   102)       116.7  Rx         0415  8  00 00 EC F1 0F FF 0F FF 
   103)       116.9  Rx         04B0  8  51 00 80 00 00 00 00 FF 
   104)       118.4  Rx         004A  8  02 00 00 00 00 00 00 00 
   105)       118.6  Rx         0242  8  03 8A 1F 7D C3 00 03 01 
   106)       118.8  Rx         004B  8  00 C0 D8 D8 D8 D8 C0 00 
   107)       119.1  Rx         004C  8  60 AF FF 00 00 00 00 00 
   108)       119.3  Rx         0082  8  82 00 14 40 7A 00 40 FF 
   109)       119.6  Rx         0085  8  7C FF 80 00 FF 70 7D 01 
   110)       119.8  Rx         038D  8  20 00 00 00 60 00 00 00 
   111)       120.1  Rx         03B6  8  08 00 0B 00 00 00 00 00 
   112)       120.3  Rx         03B7  8  00 00 01 00 63 B9 61 9D 
   113)       120.5  Rx         03B8  8  FF FF FF FF 00 00 00 00 
   114)       120.8  Rx         03E3  8  00 01 04 11 80 01 00 00 
   115)       121.1  Rx         03EB  8  01 04 14 00 00 10 00 00 
   116)       121.3  Rx         040A  8  C1 01 4A 5A 32 48 35 35 
   117)       121.5  Rx         042C  8  84 02 00 00 38 B0 00 00 
   118)       121.7  Rx         043C  8  31 78 44 44 2B D9 88 14 
   119)       122.0  Rx         0447  8  21 00 00 4B 02 00 00 00 
   120)       122.2  Rx         0726  8  03 22 C2 58 00 00 00 00 
   121)       125.0  Rx         0217  8  00 00 00 00 00 00 00 00 
   122)       128.1  Rx         0085  8  7C FF 80 00 FE 80 7D 01 
   123)       128.4  Rx         0041  8  20 D1 CE D4 66 09 00 00 
   124)       128.9  Rx         072E  8  07 62 C2 58 80 00 00 00 
   125)       135.0  Rx         0076  8  3E 80 40 00 00 00 00 00 
   126)       135.2  Rx         0077  8  FF FF 0F FF 7F FF FF FF 
   127)       135.5  Rx         007D  8  C0 00 FE 10 00 1F AF FF 
   128)       135.7  Rx         0213  8  FF FF 00 00 80 13 FF 41 
   129)       136.2  Rx         0216  8  00 00 00 00 AA 00 00 00 
   130)       136.5  Rx         0217  8  00 00 00 00 00 00 00 00 
   131)       136.7  Rx         0415  8  00 00 F0 F0 0F FF 0F FF 
   132)       136.9  Rx         04B0  8  51 00 80 00 10 00 00 FE 
   133)       138.8  Rx         0082  8  82 00 14 40 7A 00 40 FF 
   134)       139.1  Rx         0085  8  7C FF 80 00 FD 90 7D 01 
   135)       140.7  Rx         0726  8  03 22 C2 58 00 00 00 00 
   136)       145.0  Rx         0217  8  00 00 00 00 00 00 00 00 
   137)       148.1  Rx         0085  8  7C FF 80 00 FC A0 7D 01 
   138)       148.4  Rx         0041  8  20 D1 CE D4 66 09 00 00 
   139)       149.1  Rx         072E  8  07 62 C2 58 80 00 00 00 
   140)       149.6  Rx         0326  8  01 A0 02 87 01 D0 00 00 
   141)       155.0  Rx         0076  8  3E 80 40 00 00 00 00 00 
   142)       155.2  Rx         0077  8  FF FF 0F FF 7F FF FF FF 
   143)       155.5  Rx         007D  8  C0 00 FD 20 00 1F 7F FF 
   144)       155.7  Rx         0083  8  00 E0 80 00 00 00 00 00 
   145)       156.0  Rx         0213  8  FF FF 00 00 80 13 FF 41 
   146)       156.5  Rx         0216  8  00 00 00 00 AA 00 00 00 
   147)       156.7  Rx         0217  8  00 00 00 00 00 00 00 00 
   148)       157.2  Rx         0415  8  00 00 F4 EF 0F FF 0F FF 
   149)       157.5  Rx         04B0  8  51 00 80 00 20 00 00 FD 
   150)       158.3  Rx         0242  8  03 8A 1F 7E C3 00 03 01 
   151)       158.9  Rx         0082  8  82 00 14 40 7A 00 40 FF 
   152)       159.1  Rx         0085  8  7C FF 80 00 FB B0 7D 01 
   153)       159.7  Rx         0726  8  03 22 C2 58 00 00 00 00 
   154)       165.0  Rx         0217  8  00 00 00 00 00 00 00 00 
   155)       168.2  Rx         0085  8  7C FF 80 00 FA C0 7D 01 
   156)       168.4  Rx         0041  8  20 D1 CE D4 66 09 00 00 
   157)       168.7  Rx         03B4  8  18 11 11 FF 20 20 00 00 
   158)       168.9  Rx         042C  8  84 02 00 00 38 B0 00 00 
   159)       169.1  Rx         072E  8  07 62 C2 58 80 00 00 00 
   160)       175.0  Rx         0076  8  3E 80 40 00 00 00 00 00 
   161)       175.2  Rx         0092  8  6F B7 6F 9D 73 63 0A 04 
   162)       175.5  Rx         0077  8  FF FF 0F FF 7F FF FF FF 
   163)       175.7  Rx         007D  8  C0 00 FC 30 00 1F 8F FF 
   164)       176.0  Rx         0213  8  FF FF 00 00 80 13 FF 41 
   165)       176.2  Rx         0430  8  02 00 82 08 FF 01 13 91 
   166)       176.4  Rx         0216  8  00 00 00 00 AA 00 00 00 
   167)       176.7  Rx         0217  8  00 00 00 00 00 00 00 00 
   168)       177.0  Rx         0415  8  00 00 F8 EE 0F FF 0F FF 
   169)       177.2  Rx         0434  8  26 59 14 09 0F FF 02 20 
   170)       177.4  Rx         0435  8  28 20 18 99 4E 20 09 02 
   171)       177.7  Rx         04B0  8  51 00 80 00 30 00 00 FC 
   172)       178.6  Rx         03B5  8  FF FD FF FD FF FD FF FD 
   173)       178.9  Rx         0082  8  82 00 14 40 7A 00 40 FF 
   174)       179.1  Rx         0085  8  7C FF 80 00 F9 D0 7D 01 
   175)       179.7  Rx         0726  8  03 22 C2 58 00 00 00 00 
   176)       185.0  Rx         0217  8  00 00 00 00 00 00 00 00 
   177)       188.2  Rx         0085  8  7C FF 80 00 F8 E0 7D 01 
   178)       188.4  Rx         0041  8  20 D1 CE D4 66 09 00 00 
   179)       188.9  Rx         072E  8  07 62 C2 58 80 00 00 00 
   180)       195.0  Rx         0076  8  3E 80 40 00 00 00 00 00 
   181)       195.3  Rx         0077  8  FF FF 0F FF 7F FF FF FF 
   182)       195.5  Rx         007D  8  C0 00 FB 40 00 1F 9F FF 
   183)       195.8  Rx         0213  8  FF FF 00 00 80 13 FF 41 
   184)       196.2  Rx         0216  8  00 00 00 00 AA 00 00 00 
   185)       196.5  Rx         0217  8  00 00 00 00 00 00 00 00 
   186)       196.8  Rx         0415  8  00 00 FC ED 0F FF 0F FF 
   187)       197.0  Rx         0416  8  4F 40 EF 08 01 02 00 00 
   188)       197.2  Rx         04B0  8  51 00 80 00 40 00 00 FB 
   189)       198.3  Rx         0242  8  03 8A 1F 7E C3 00 03 01 
   190)       198.5  Rx         03C7  8  00 00 08 06 00 00 00 00 
   191)       199.1  Rx         0082  8  82 00 14 40 7A 00 40 FF 
   192)       199.4  Rx         0085  8  7C FF 80 00 F7 F0 7D 01 
   193)       199.7  Rx         0726  8  03 22 C2 58 00 00 00 00 
   194)       202.0  Rx         03E2  8  00 00 00 00 80 00 00 00 
   195)       202.3  Rx         03EA  8  00 00 00 00 00 00 60 00 
   196)       202.5  Rx         0455  8  00 00 00 00 00 00 00 00 
   197)       205.0  Rx         0217  8  00 00 00 00 00 00 00 00 
   198)       208.2  Rx         0085  8  7C FF 80 00 06 00 7D 01 
   199)       208.4  Rx         0041  8  20 D1 CE D4 66 09 00 00 
   200)       209.0  Rx         072E  8  07 62 C2 58 80 00 00 00 
   201)       215.0  Rx         0076  8  3E 80 40 00 00 00 00 00 
   202)       215.3  Rx         0077  8  FF FF 0F FF 7F FF FF FF 
   203)       215.5  Rx         007D  8  C0 00 FA 50 00 1F 8F FF 
   204)       215.8  Rx         0213  8  FF FF 00 00 80 13 FF 41 
   205)       216.3  Rx         0216  8  00 00 00 00 AA 00 00 00 
   206)       216.5  Rx         0217  8  00 00 00 00 00 00 00 00 
   207)       216.8  Rx         0415  8  00 00 C0 FC 0F FF 0F FF 
   208)       217.0  Rx         04B0  8  51 00 80 00 50 00 00 FA 
   209)       218.3  Rx         03B3  8  40 48 02 12 10 05 80 2A 
   210)       218.6  Rx         004A  8  02 00 00 00 00 00 00 00 
   211)       218.8  Rx         004B  8  00 C0 D8 D8 D8 D8 C0 00 
   212)       219.0  Rx         004C  8  60 AF FF 00 00 00 00 00 
   213)       219.3  Rx         0082  8  82 00 14 40 7A 00 40 FF 
   214)       219.5  Rx         0085  8  7C FF 80 00 05 10 7D 01 
   215)       219.8  Rx         03C3  8  40 00 10 01 00 00 81 00 
   216)       220.0  Rx         042C  8  84 02 00 00 38 B0 00 00 
   217)       220.7  Rx         0726  8  03 22 C2 58 00 00 00 00 
   218)       225.1  Rx         0217  8  00 00 00 00 00 00 00 00 
   219)       228.2  Rx         0041  8  20 D1 CE D4 66 09 00 00 
   220)       228.5  Rx         0085  8  7C FF 80 00 04 20 7D 01 
   221)       228.9  Rx         072E  8  07 62 C2 58 80 00 00 00 
   222)       235.0  Rx         0076  8  3E 80 40 00 00 00 00 00 
   223)       235.3  Rx         0077  8  FF FF 0F FF 7F FF FF FF 
   224)       235.5  Rx         007D  8  C0 00 F9 60 00 1F 9F FF 
   225)       235.8  Rx         0213  8  FF FF 00 00 80 13 FF 41 
   226)       236.3  Rx         0216  8  00 00 00 00 AA 00 00 00 
   227)       236.5  Rx         0217  8  00 00 00 00 00 00 00 00 
   228)       236.8  Rx         0415  8  00 00 C4 FB 0F FF 0F FF 
   229)       237.0  Rx         04B0  8  51 00 80 00 60 00 00 F9 
   230)       238.4  Rx         0242  8  03 8A 1F 7E C3 00 03 01 
   231)       238.9  Rx         0082  8  82 00 14 40 7A 00 40 FF 
   232)       239.1  Rx         0085  8  7C FF 80 00 03 30 7D 01 
   233)       239.8  Rx         0726  8  03 22 C2 58 00 00 00 00 
   234)       245.1  Rx         0217  8  00 00 00 00 00 00 00 00 
   235)       248.2  Rx         0085  8  7C FF 80 00 02 40 7D 01 
   236)       248.4  Rx         0041  8  20 D1 CE D4 66 09 00 00 
   237)       248.9  Rx         072E  8  07 62 C2 58 80 00 00 00 
   238)       249.6  Rx         0326  8  01 A0 02 87 01 D0 00 00 
   239)       255.0  Rx         0076  8  3E 80 40 00 00 00 00 00 
   240)       255.3  Rx         0077  8  FF FF 0F FF 7F FF FF FF 
   241)       255.6  Rx         007D  8  C0 00 F8 70 00 1F AF FF 
   242)       255.8  Rx         0083  8  00 E0 80 00 00 00 00 00 
   243)       256.1  Rx         0213  8  FF FF 00 00 80 13 FF 41 
   244)       256.5  Rx         0216  8  00 00 00 00 AA 00 00 00 
   245)       256.7  Rx         0217  8  00 00 00 00 00 00 00 00 
   246)       257.3  Rx         0415  8  00 00 C8 FA 0F FF 0F FF 
   247)       257.5  Rx         04B0  8  51 00 80 00 70 00 00 F8 
   248)       258.9  Rx         0082  8  82 00 14 40 7A 00 40 FF 
   249)       259.1  Rx         0085  8  7C FF 80 00 01 50 7D 01 
   250)       259.8  Rx         0726  8  03 22 C2 58 00 00 00 00 
   251)       264.8  Rx         059E  8  9E 00 FF FF FF FF FF FF 
   252)       265.1  Rx         0217  8  00 00 00 00 00 00 00 00 
   253)       268.2  Rx         0085  8  7C FF 80 00 00 60 7D 01 
   254)       268.4  Rx         0041  8  20 D1 CE D4 66 09 00 00 
   255)       268.7  Rx         042C  8  84 02 00 00 38 B0 00 00 
   256)       269.0  Rx         072E  8  07 62 C2 58 80 00 00 00 
   257)       275.1  Rx         0076  8  3E 80 40 00 00 00 00 00 
   258)       275.3  Rx         02F1  8  00 00 50 00 50 FE 00 C0 
   259)       275.6  Rx         0077  8  FF FF 0F FF 7F FF FF FF 
   260)       275.8  Rx         007D  8  C0 00 F7 80 00 1F 9F FF 
   261)       276.0  Rx         0213  8  FF FF 00 00 80 13 FF 41 
   262)       276.3  Rx         0386  8  00 00 00 00 00 00 00 00 
   263)       276.5  Rx         0216  8  00 00 00 00 AA 00 00 00 
   264)       276.8  Rx         0217  8  00 00 00 00 00 00 00 00 
   265)       277.0  Rx         0415  8  00 00 CC F9 0F FF 0F FF 
   266)       277.3  Rx         0430  8  02 00 82 08 FF 01 13 91 
   267)       277.5  Rx         0434  8  26 59 14 09 0F FF 02 20 
   268)       277.7  Rx         0435  8  28 20 10 91 4E 20 09 02 
   269)       278.0  Rx         0439  8  00 00 05 00 00 00 00 00 
   270)       278.3  Rx         04B0  8  51 00 80 00 80 00 00 F7 
   271)       278.6  Rx         0242  8  03 8A 1F 7D C3 00 03 01 
   272)       278.9  Rx         0082  8  82 00 14 40 7A 00 40 FF 
   273)       279.2  Rx         0085  8  7C FF 80 00 FF 70 7D 01 
   274)       280.5  Rx         0092  8  6F B5 6F 98 73 61 DC 3B 
   275)       280.8  Rx         0726  8  03 22 C2 58 00 00 00 00 
   276)       285.1  Rx         0217  8  00 00 00 00 00 00 00 00 
   277)       288.2  Rx         0085  8  7C FF 80 00 FE 80 7D 01 
   278)       288.5  Rx         0041  8  20 D1 CE D4 66 09 00 00 
   279)       288.7  Rx         0331  8  C0 2C D8 A1 02 B7 08 04 
   280)       288.9  Rx         072E  8  07 62 C2 58 80 00 00 00 
   281)       295.1  Rx         0076  8  3E 80 40 00 00 00 00 00 
   282)       295.3  Rx         0077  8  FF FF 0F FF 7F FF FF FF 
   283)       295.6  Rx         007D  8  C0 00 F6 90 00 1F 9F FF 
   284)       295.8  Rx         0213  8  FF FF 00 00 80 13 FF 41 
   285)       296.3  Rx         0216  8  00 00 00 00 AA 00 00 00 
   286)       296.6  Rx         0217  8  00 00 00 00 00 00 00 00 
   287)       297.0  Rx         0415  8  00 00 D0 F8 0F FF 0F FF 
   288)       297.3  Rx         0416  8  40 40 FE 08 01 02 00 00 
   289)       297.5  Rx         04B0  8  51 00 80 00 90 00 00 F6 
   290)       299.0  Rx         0082  8  82 00 14 40 7A 00 40 FF 
   291)       299.2  Rx         0085  8  7C FF 80 00 FD 90 7D 01 
   292)       299.6  Rx         03C8  8  00 00 00 00 00 00 50 00 
   293)       299.9  Rx         0726  8  03 22 C2 58 00 00 00 00 
   294)       300.1  Rx         03E0  8  00 00 00 00 80 00 00 00 
   295)       302.0  Rx         0455  8  00 00 00 00 00 00 00 00 
   296)       305.1  Rx         0217  8  00 00 00 00 00 00 00 00 
   297)       305.9  Rx         05C7  8  C7 00 FF FF FF FF FF FF 
   298)       308.3  Rx         0085  8  7C FF 80 00 FC A0 7D 01 
   299)       308.5  Rx         0041  8  20 D1 CE D4 66 09 00 00 
   300)       308.9  Rx         072E  8  07 62 C2 58 80 00 00 00 
   301)       315.1  Rx         0076  8  3E 80 40 00 00 00 00 00 
   302)       315.3  Rx         0077  8  FF FF 0F FF 7F FF FF FF 
   303)       315.6  Rx         007D  8  C0 00 F5 A0 00 1F 9F FF 
   304)       315.8  Rx         0213  8  FF FF 00 00 80 13 FF 41 
   305)       316.3  Rx         0216  8  00 00 00 00 AA 00 00 00 
   306)       316.5  Rx         0217  8  00 00 00 00 00 00 00 00 
   307)       316.8  Rx         0415  8  00 00 D4 F7 0F FF 0F FF 
   308)       317.0  Rx         04B0  8  51 00 80 00 A0 00 00 F5 
   309)       318.3  Rx         0242  8  03 8B 1F 7D C3 00 03 01 
   310)       318.6  Rx         004A  8  02 00 00 00 00 00 00 00 
   311)       318.8  Rx         004B  8  00 C0 D8 D8 D8 D8 C0 00 
   312)       319.0  Rx         004C  8  60 AF FF 00 00 00 00 00 
   313)       319.3  Rx         0082  8  82 00 14 40 7A 00 40 FF 
   314)       319.6  Rx         0085  8  7C FF 80 00 FB B0 7D 01 
   315)       319.8  Rx         03DA  8  01 00 00 00 00 00 00 00 
   316)       320.0  Rx         040A  8  C1 02 32 34 30 33 33 FF 
   317)       320.3  Rx         042C  8  84 02 00 00 38 B0 00 00 
   318)       320.5  Rx         0726  8  03 22 D1 34 00 00 00 00 
   319)       325.2  Rx         0217  8  00 00 00 00 00 00 00 00 
   320)       328.3  Rx         0085  8  7C FF 80 00 FA C0 7D 01 
   321)       328.5  Rx         0041  8  20 D1 CE D4 66 09 00 00 
   322)       329.1  Rx         072E  8  04 62 D1 34 00 00 00 00 
   323)       335.1  Rx         0076  8  3E 80 40 00 00 00 00 00 
   324)       335.4  Rx         0077  8  FF FF 0F FF 7F FF FF FF 
   325)       335.6  Rx         007D  8  C0 00 F4 B0 00 1F AF FF 
   326)       335.9  Rx         0213  8  FF FF 00 00 80 13 FF 41 
   327)       336.3  Rx         0216  8  00 00 00 00 AA 00 00 00 
   328)       336.5  Rx         0217  8  00 00 00 00 00 00 00 00 
   329)       336.8  Rx         0415  8  00 00 D8 F6 0F FF 0F FF 
   330)       337.1  Rx         04B0  8  51 00 80 00 B0 00 00 F4 
   331)       339.0  Rx         0082  8  82 00 14 40 7A 00 40 FF 
   332)       339.2  Rx         0085  8  7C FF 80 00 F9 D0 7D 01 
   333)       345.1  Rx         0217  8  00 00 00 00 00 00 00 00 
   334)       348.2  Rx         0041  8  20 D1 CE D4 66 09 00 00 
   335)       348.5  Rx         0085  8  7C FF 80 00 F8 E0 7D 01 
   336)       349.7  Rx         0326  8  01 A0 02 87 01 D0 00 00 
   337)       350.8  Rx         0726  8  02 3E 00 00 00 00 00 00 
   338)       355.1  Rx         0076  8  3E 80 40 00 00 00 00 00 
   339)       355.4  Rx         0077  8  FF FF 0F FF 7F FF FF FF 
   340)       355.6  Rx         007D  8  C0 00 F3 C0 00 1F 9F FF 
   341)       355.9  Rx         0083  8  00 E0 80 00 00 00 00 00 
   342)       356.1  Rx         0213  8  FF FF 00 00 80 13 FF 41 
   343)       356.6  Rx         0216  8  00 00 00 00 AA 00 00 00 
   344)       356.8  Rx         0217  8  00 00 00 00 00 00 00 00 
   345)       357.3  Rx         0415  8  00 00 DC F5 0F FF 0F FF 
   346)       357.6  Rx         04B0  8  51 00 80 00 C0 00 00 F3 
   347)       358.7  Rx         0242  8  03 8B 1F 7E C3 00 03 01 
   348)       359.0  Rx         0082  8  82 00 14 40 7A 00 40 FF 
   349)       359.2  Rx         0085  8  7C FF 80 00 F7 F0 7D 01 
   350)       359.5  Rx         072E  8  02 7E 00 00 00 00 00 00 
   351)       365.1  Rx         0217  8  00 00 00 00 00 00 00 00 
   352)       368.3  Rx         0041  8  20 D1 CE D4 66 09 00 00 
   353)       368.5  Rx         0085  8  7C FF 80 00 06 00 7D 01 
   354)       368.7  Rx         0331  8  C0 2C D8 A1 02 B7 08 04 
   355)       369.0  Rx         03B6  8  08 00 00 00 24 71 AA 30 
   356)       369.2  Rx         03B7  8  00 00 02 00 63 B9 63 C7 
   357)       369.4  Rx         042C  8  84 02 00 00 38 B0 00 00 
   358)       370.9  Rx         0726  8  03 22 C1 1D 00 00 00 00 
   359)       375.1  Rx         0076  8  3E 80 40 00 00 00 00 00 
   360)       375.4  Rx         0077  8  FF FF 0F FF 7F FF FF FF 
   361)       375.6  Rx         0430  8  02 00 82 08 FF 01 13 91 
   362)       375.8  Rx         007D  8  C0 00 F2 D0 00 1F 9F FF 
   363)       376.1  Rx         0213  8  FF FF 00 00 80 13 FF 41 
   364)       376.4  Rx         0434  8  26 5B 14 0A 0F FF 02 24 
   365)       376.6  Rx         0216  8  00 00 00 00 AA 00 00 00 
   366)       376.8  Rx         0217  8  00 00 00 00 00 00 00 00 
   367)       377.1  Rx         0415  8  00 00 E0 F4 0F FF 0F FF 
   368)       377.3  Rx         0435  8  7C 70 18 D9 4E 20 09 02 
   369)       377.6  Rx         04B0  8  51 00 80 00 D0 00 10 F0 
   370)       379.0  Rx         0082  8  82 00 14 40 7A 00 40 FF 
   371)       379.2  Rx         072E  8  07 62 C1 1D 12 12 12 12 
   372)       379.4  Rx         0085  8  7C FF 80 00 05 10 7D 01 
   373)       385.1  Rx         0217  8  00 00 00 00 00 00 00 00 
   374)       385.4  Rx         0092  8  6F B7 6F 9B 73 5F A7 6D 
   375)       388.3  Rx         0085  8  7C FF 80 00 04 20 7D 01 
   376)       388.5  Rx         0041  8  20 D1 CE D4 66 09 00 00 
   377)       390.8  Rx         0726  8  03 22 C1 1D 00 00 00 00 
   378)       395.1  Rx         0076  8  3E 80 40 00 00 00 00 00 
   379)       395.4  Rx         0077  8  FF FF 0F FF 7F FF FF FF 
   380)       395.6  Rx         007D  8  C0 00 F1 E0 00 1F 8F FF 
   381)       395.9  Rx         0213  8  FF FF 00 00 80 13 FF 41 
   382)       396.3  Rx         0216  8  00 00 00 00 AA 00 00 00 
   383)       396.6  Rx         0217  8  00 00 00 00 00 00 00 00 
   384)       396.8  Rx         0415  8  00 00 E4 F3 0F FF 0F FF 
   385)       397.1  Rx         0416  8  41 40 FD 08 01 02 00 00 
   386)       397.3  Rx         04B0  8  51 00 80 00 E0 00 00 F1 
   387)       398.5  Rx         0242  8  03 8B 1F 7E C3 00 03 01 
   388)       399.0  Rx         0082  8  82 00 14 40 7A 00 40 FF 
   389)       399.2  Rx         072E  8  07 62 C1 1D 12 12 12 12 
   390)       399.5  Rx         0085  8  7C FF 80 00 03 30 7D 01 
   391)       402.0  Rx         0455  8  00 00 00 00 00 00 00 00 
   392)       405.1  Rx         0217  8  00 00 00 00 00 00 00 00 
   393)       408.2  Rx         0041  8  20 D1 CE D4 66 09 00 00 
   394)       408.4  Rx         0085  8  7C FF 80 00 02 40 7D 01 
   395)       410.8  Rx         0726  8  03 22 C1 1D 00 00 00 00 
   396)       415.1  Rx         0076  8  3E 80 40 00 00 00 00 00 
   397)       415.4  Rx         0077  8  FF FF 0F FF 7F FF FF FF 
   398)       415.6  Rx         007D  8  C0 00 F0 F0 00 1F 9F FF 
   399)       415.9  Rx         0213  8  FF FF 00 00 80 13 FF 41 
   400)       416.3  Rx         0216  8  00 00 00 00 AA 00 00 00 
   401)       416.6  Rx         0217  8  00 00 00 00 00 00 00 00 
   402)       416.8  Rx         0415  8  00 00 E8 F2 0F FF 0F FF 
   403)       417.1  Rx         04B0  8  51 00 80 00 F0 00 00 F0 
   404)       418.4  Rx         004A  8  02 00 00 00 00 00 00 00 
   405)       418.7  Rx         042C  8  84 02 00 00 38 B0 00 00 
   406)       418.9  Rx         004B  8  00 C0 D8 D8 D8 D8 C0 00 
   407)       419.2  Rx         004C  8  60 AF FF 00 00 00 00 00 
   408)       419.4  Rx         0082  8  82 00 14 40 7A 00 40 FF 
   409)       419.7  Rx         0085  8  7C FF 80 00 01 50 7D 01 
   410)       419.9  Rx         072E  8  07 62 C1 1D 12 12 12 12 
   411)       425.1  Rx         0217  8  00 00 00 00 00 00 00 00 
   412)       428.2  Rx         0041  8  20 D1 CE D4 66 09 00 00 
   413)       428.4  Rx         0085  8  7C FF 80 00 00 60 7D 01 
   414)       430.9  Rx         0726  8  03 22 71 33 00 00 00 00 
   415)       435.2  Rx         0076  8  3E 80 40 00 00 00 00 00 
   416)       435.4  Rx         0077  8  FF FF 0F FF 7F FF FF FF 
   417)       435.6  Rx         007D  8  C0 00 FF 00 00 1F AF FF 
   418)       435.9  Rx         0213  8  FF FF 00 00 80 13 FF 41 
   419)       436.4  Rx         0216  8  00 00 00 00 AA 00 00 00 
   420)       436.6  Rx         0217  8  00 00 00 00 00 00 00 00 
   421)       436.9  Rx         0415  8  00 00 EC F1 0F FF 0F FF 
   422)       437.1  Rx         04B0  8  51 00 80 00 00 00 00 FF 
   423)       438.4  Rx         0242  8  03 8B 1F 7E C3 00 03 01 
   424)       439.1  Rx         072E  8  04 62 71 33 02 00 00 00 
   425)       439.3  Rx         0082  8  82 00 14 40 7A 00 40 FF 
   426)       439.6  Rx         0085  8  7C FF 80 00 FF 70 7D 01 
   427)       445.1  Rx         0217  8  00 00 00 00 00 00 00 00 
   428)       448.3  Rx         0085  8  7C FF 80 00 FE 80 7D 01 
   429)       448.6  Rx         0041  8  20 D1 CE D4 66 09 00 00 
   430)       449.8  Rx         0326  8  01 A0 02 87 01 D0 00 00 
   431)       450.0  Rx         0726  8  03 22 40 CA 00 00 00 00 
   432)       455.1  Rx         0076  8  3E 80 40 00 00 00 00 00 
   433)       455.4  Rx         0077  8  FF FF 0F FF 7F FF FF FF 
   434)       455.6  Rx         007D  8  C0 00 FE 10 00 1F AF FF 
   435)       455.9  Rx         0083  8  00 E0 80 00 00 00 00 00 
   436)       456.1  Rx         0213  8  FF FF 00 00 80 13 FF 41 
   437)       456.6  Rx         0216  8  00 00 00 00 AA 00 00 00 
   438)       456.8  Rx         0217  8  00 00 00 00 00 00 00 00 
   439)       457.3  Rx         0415  8  00 00 F0 F0 0F FF 0F FF 
   440)       457.6  Rx         04B0  8  51 00 80 00 10 00 00 FE 
   441)       459.0  Rx         0082  8  82 00 14 40 7A 00 40 FF 
   442)       459.2  Rx         0085  8  7C FF 80 00 FD 90 7D 01 
   443)       459.5  Rx         072E  8  04 62 40 CA 00 00 00 00 
   444)       465.2  Rx         0217  8  00 00 00 00 00 00 00 00 
   445)       468.3  Rx         0041  8  20 D1 CE D4 66 09 00 00 
   446)       468.5  Rx         0085  8  7C FF 80 00 FC A0 7D 01 
   447)       468.7  Rx         042C  8  84 02 00 00 38 B0 00 00 
   448)       469.9  Rx         0726  8  03 22 5B 1D 00 00 00 00 
   449)       475.1  Rx         0076  8  3E 80 40 00 00 00 00 00 
   450)       475.4  Rx         0077  8  FF FF 0F FF 7F FF FF FF 
   451)       475.7  Rx         0430  8  02 00 82 08 FF 01 13 91 
   452)       475.9  Rx         007D  8  C0 00 FD 20 00 1F 8F FF 
   453)       476.1  Rx         0213  8  FF FF 00 00 80 13 FF 41 
   454)       476.4  Rx         0434  8  26 5B 14 09 0F FF 02 20 
   455)       476.6  Rx         0216  8  00 00 00 00 AA 00 00 00 
   456)       476.9  Rx         0217  8  00 00 00 00 00 00 00 00 
   457)       477.1  Rx         0415  8  00 00 F4 EF 0F FF 0F FF 
   458)       477.3  Rx         0435  8  28 20 10 91 4E 20 09 02 
   459)       477.6  Rx         04B0  8  51 00 80 00 20 00 00 FD 
   460)       478.7  Rx         0242  8  03 8B 1F 7D C3 00 03 01 
   461)       479.1  Rx         0082  8  82 00 14 40 7A 00 40 FF 
   462)       479.3  Rx         0085  8  7C FF 80 00 FB B0 7D 01 
   463)       479.5  Rx         072E  8  07 62 5B 1D 21 00 00 00 
   464)       485.2  Rx         0217  8  00 00 00 00 00 00 00 00 
   465)       488.3  Rx         0041  8  20 D1 CE D4 66 09 00 00 
   466)       488.5  Rx         0085  8  7C FF 80 00 FA C0 7D 01 
   467)       490.3  Rx         0092  8  6F B9 6F 9B 73 5E 6F A4 
   468)       490.9  Rx         0726  8  03 22 D1 00 00 00 00 00 
   469)       495.2  Rx         0076  8  3E 80 40 00 00 00 00 00 
   470)       495.4  Rx         0077  8  FF FF 0F FF 7F FF FF FF 
   471)       495.7  Rx         007D  8  C0 00 FC 30 00 1F 8F FF 
   472)       495.9  Rx         0213  8  FF FF 00 00 80 13 FF 41 
   473)       496.4  Rx         0216  8  00 00 00 00 AA 00 00 00 
   474)       496.7  Rx         0217  8  00 00 00 00 00 00 00 00 
   475)       496.9  Rx         0415  8  00 00 F8 EE 0F FF 0F FF 
   476)       497.2  Rx         0416  8  42 40 FC 08 01 02 00 00 
   477)       497.5  Rx         04B0  8  51 00 80 00 30 00 00 FC 
   478)       499.0  Rx         0082  8  82 00 14 40 7A 00 40 FF 
   479)       499.3  Rx         072E  8  04 62 D1 00 03 00 00 00 
   480)       499.5  Rx         0085  8  7C FF 80 00 F9 D0 7D 01 
   481)       502.2  Rx         0455  8  00 00 00 00 00 00 00 00 
   482)       505.2  Rx         0217  8  00 00 00 00 00 00 00 00 
   483)       508.4  Rx         0085  8  7C FF 80 00 F8 E0 7D 01 
   484)       508.6  Rx         0041  8  20 D1 CE D4 66 09 00 00 
   485)       510.9  Rx         0726  8  03 22 40 A8 00 00 00 00 
   486)       515.2  Rx         0076  8  3E 80 40 00 00 00 00 00 
   487)       515.4  Rx         0077  8  FF FF 0F FF 7F FF FF FF 
   488)       515.7  Rx         007D  8  C0 00 FB 40 00 1F 8F FF 
   489)       515.9  Rx         0213  8  FF FF 00 00 80 13 FF 41 
   490)       516.4  Rx         0216  8  00 00 00 00 AA 00 00 00 
   491)       516.6  Rx         0217  8  00 00 00 00 00 00 00 00 
   492)       516.9  Rx         0415  8  00 00 FC ED 0F FF 0F FF 
   493)       517.1  Rx         04B0  8  51 00 80 00 40 00 10 F9 
   494)       518.4  Rx         0242  8  03 8B 1F 7D C3 00 03 01 
   495)       518.7  Rx         004A  8  02 00 00 00 00 00 00 00 
   496)       518.9  Rx         004B  8  00 C0 D8 D8 D8 D8 C0 00 
   497)       519.1  Rx         004C  8  60 AF FF 00 00 00 00 00 
   498)       519.4  Rx         0082  8  82 00 14 40 7A 00 40 FF 
   499)       519.7  Rx         0085  8  7C FF 80 00 F7 F0 7D 01 
   500)       519.9  Rx         040A  8  C1 04 01 75 07 F9 55 C2 
   501)       520.1  Rx         042C  8  84 02 00 00 38 B0 00 00 
   502)       520.4  Rx         072E  8  07 62 40 A8 00 00 00 00 
   503)       525.2  Rx         0217  8  00 00 00 00 00 00 00 00 
   504)       528.3  Rx         0041  8  20 D1 CE D4 66 09 00 00 
   505)       528.6  Rx         0085  8  7C FF 80 00 06 00 7D 01 
   506)       531.9  Rx         0726  8  03 22 40 A8 00 00 00 00 
   507)       535.2  Rx         0076  8  3E 80 40 00 00 00 00 00 
   508)       535.4  Rx         0077  8  FF FF 0F FF 7F FF FF FF 
   509)       535.7  Rx         007D  8  C0 00 FA 50 00 1F 8F FF 
   510)       536.0  Rx         0213  8  FF FF 00 00 80 13 FF 41 
   511)       536.4  Rx         0216  8  00 00 00 00 AA 00 00 00 
   512)       536.7  Rx         0217  8  00 00 00 00 00 00 00 00 
   513)       536.9  Rx         0415  8  00 00 C0 FC 0F FF 0F FF 
   514)       537.1  Rx         04B0  8  51 00 80 00 50 00 00 FA 
   515)       538.6  Rx         0084  8  18 00 01 46 2F 11 0F 00 
   516)       539.1  Rx         0082  8  82 00 14 40 7A 00 40 FF 
   517)       539.3  Rx         0085  8  7C FF 80 00 05 10 7D 01 
   518)       539.6  Rx         072E  8  07 62 40 A8 00 00 00 00 
   519)       545.2  Rx         0217  8  00 00 00 00 00 00 00 00 
   520)       548.3  Rx         0041  8  20 D1 CE D4 66 09 00 00 
   521)       548.6  Rx         0085  8  7C FF 80 00 04 20 7D 01 
   522)       549.7  Rx         0326  8  01 A0 02 87 01 D0 00 00 
   523)       551.0  Rx         0726  8  03 22 5B 1D 00 00 00 00 
   524)       555.2  Rx         0076  8  3E 80 40 00 00 00 00 00 
   525)       555.5  Rx         0077  8  FF FF 0F FF 7F FF FF FF 
   526)       555.7  Rx         007D  8  C0 00 F9 60 00 1F 9F FF 
   527)       556.0  Rx         0083  8  00 E0 80 00 00 00 00 00 
   528)       556.2  Rx         0213  8  FF FF 00 00 80 13 FF 41 
   529)       556.6  Rx         0216  8  00 00 00 00 AA 00 00 00 
   530)       556.9  Rx         0217  8  00 00 00 00 00 00 00 00 
   531)       557.4  Rx         0415  8  00 00 C4 FB 0F FF 0F FF 
   532)       557.6  Rx         04B0  8  51 00 80 00 60 00 00 F9 
   533)       558.5  Rx         0242  8  03 8B 1F 7D C3 00 03 01 
   534)       559.1  Rx         0082  8  82 00 14 40 7A 00 40 FF 
   535)       559.3  Rx         072E  8  07 62 5B 1D 21 00 00 00 
   536)       559.5  Rx         0085  8  7C FF 80 00 03 30 7D 01 
   537)       565.2  Rx         0217  8  00 00 00 00 00 00 00 00 
   538)       568.4  Rx         0085  8  7C FF 80 00 02 40 7D 01 
   539)       568.6  Rx         0041  8  20 D1 CE D4 66 09 00 00 
   540)       568.9  Rx         042C  8  84 02 00 00 38 B0 00 00 
   541)       571.1  Rx         0726  8  03 22 41 D3 00 00 00 00 
   542)       575.2  Rx         0076  8  3E 80 40 00 00 00 00 00 
   543)       575.5  Rx         0077  8  FF FF 0F FF 7F FF FF FF 
   544)       575.7  Rx         0430  8  02 00 82 08 FF 01 13 91 
   545)       576.0  Rx         007D  8  C0 00 F8 70 00 1F 9F FF 
   546)       576.2  Rx         0213  8  FF FF 00 00 80 13 FF 41 
   547)       576.4  Rx         0434  8  26 5B 14 0A 0F FF 02 20 
   548)       576.7  Rx         0216  8  00 00 00 00 AA 00 00 00 
   549)       577.0  Rx         0217  8  00 00 00 00 00 00 00 00 
   550)       577.2  Rx         0415  8  00 00 C8 FA 0F FF 0F FF 
   551)       577.4  Rx         0435  8  28 20 18 99 4E 20 09 02 
   552)       577.6  Rx         04B0  8  51 00 80 00 70 00 00 F8 
   553)       579.1  Rx         0082  8  82 00 14 40 7A 00 40 FF 
   554)       579.3  Rx         0085  8  7C FF 80 00 01 50 7D 01 
   555)       579.6  Rx         072E  8  04 62 41 D3 00 00 00 00 
   556)       585.2  Rx         0217  8  00 00 00 00 00 00 00 00 
   557)       588.4  Rx         0041  8  20 D1 CE D4 66 09 00 00 
   558)       588.6  Rx         0085  8  7C FF 80 00 00 60 7D 01 
   559)       590.0  Rx         0726  8  03 22 41 D2 00 00 00 00 
   560)       595.2  Rx         0076  8  3E 80 40 00 00 00 00 00 
   561)       595.5  Rx         0077  8  FF FF 0F FF 7F FF FF FF 
   562)       595.7  Rx         007D  8  C0 00 F7 80 00 1F 9F FF 
   563)       595.9  Rx         0213  8  FF FF 00 00 80 13 FF 41 
   564)       596.3  Rx         0092  8  6F B6 6F 9D 73 63 39 D6 
   565)       596.6  Rx         0216  8  00 00 00 00 AA 00 00 00 
   566)       596.8  Rx         0217  8  00 00 00 00 00 00 00 00 
   567)       597.1  Rx         0415  8  00 00 CC F9 0F FF 0F FF 
   568)       597.3  Rx         0416  8  43 40 FB 08 01 02 00 00 
   569)       597.6  Rx         04B0  8  51 00 80 00 80 00 00 F7 
   570)       598.7  Rx         0242  8  03 8B 1F 7D C3 00 03 01 
   571)       599.1  Rx         0082  8  82 00 14 40 7A 00 40 FF 
   572)       599.3  Rx         0085  8  7C FF 80 00 FF 70 7D 01 
   573)       599.6  Rx         072E  8  04 62 41 D2 00 00 00 00 
   574)       602.2  Rx         0455  8  00 00 00 00 00 00 00 00 
   575)       605.3  Rx         0217  8  00 00 00 00 00 00 00 00 
   576)       608.4  Rx         0041  8  20 D1 CE D4 66 09 00 00 
   577)       608.6  Rx         0085  8  7C FF 80 00 FE 80 7D 01 
   578)       611.0  Rx         0726  8  03 22 40 B5 00 00 00 00 
   579)       615.2  Rx         0076  8  3E 80 40 00 00 00 00 00 
   580)       615.5  Rx         0077  8  FF FF 0F FF 7F FF FF FF 
   581)       615.7  Rx         007D  8  C0 00 F6 90 00 1F 9F FF 
   582)       616.0  Rx         0213  8  FF FF 00 00 80 13 FF 41 
   583)       616.4  Rx         0216  8  00 00 00 00 AA 00 00 00 
   584)       616.7  Rx         0217  8  00 00 00 00 00 00 00 00 
   585)       616.9  Rx         0415  8  00 00 D0 F8 0F FF 0F FF 
   586)       617.2  Rx         04B0  8  51 00 80 00 90 00 00 F6 
   587)       618.4  Rx         004A  8  02 00 00 00 00 00 00 00 
   588)       618.7  Rx         03B6  8  08 00 01 00 24 70 E7 B3 
   589)       618.9  Rx         004B  8  00 C0 D8 D8 D8 D8 C0 00 
   590)       619.2  Rx         004C  8  60 AF FF 00 00 00 00 00 
   591)       619.4  Rx         0082  8  82 00 14 40 7A 00 40 FF 
   592)       619.6  Rx         0085  8  7C FF 80 00 FD 90 7D 01 
   593)       619.9  Rx         03B7  8  00 00 03 00 63 B9 58 92 
   594)       620.1  Rx         03B8  8  FF FF FF FF 00 00 00 00 
   595)       620.4  Rx         042C  8  84 02 00 00 38 B0 00 00 
   596)       620.6  Rx         072E  8  04 62 40 B5 03 00 00 00 
   597)       625.2  Rx         0217  8  00 00 00 00 00 00 00 00 
   598)       628.4  Rx         0085  8  7C FF 80 00 FC A0 7D 01 
   599)       628.6  Rx         0041  8  20 D1 CE D4 66 09 00 00 
   600)       632.0  Rx         0726  8  03 22 41 7D 00 00 00 00 
   601)       635.2  Rx         0076  8  3E 80 40 00 00 00 00 00 
   602)       635.5  Rx         0077  8  FF FF 0F FF 7F FF FF FF 
   603)       635.7  Rx         007D  8  C0 00 F5 A0 00 1F 9F FF 
   604)       636.0  Rx         0213  8  FF FF 00 00 80 13 FF 41 
   605)       636.4  Rx         0216  8  00 00 00 00 AA 00 00 00 
   606)       636.7  Rx         0217  8  00 00 00 00 00 00 00 00 
   607)       636.9  Rx         0415  8  00 00 D4 F7 0F FF 0F FF 
   608)       637.2  Rx         04B0  8  51 00 80 00 A0 00 00 F5 
   609)       638.5  Rx         0242  8  03 8B 1F 7D C3 00 03 01 
   610)       639.2  Rx         072E  8  04 62 41 7D 01 00 00 00 
   611)       639.4  Rx         0082  8  82 00 14 40 7A 00 40 FF 
   612)       639.7  Rx         0085  8  7C FF 80 00 FB B0 7D 01 
   613)       645.2  Rx         0217  8  00 00 00 00 00 00 00 00 
   614)       648.3  Rx         0041  8  20 D1 CE D4 66 09 00 00 
   615)       648.6  Rx         0085  8  7C FF 80 00 FA C0 7D 01 
   616)       649.7  Rx         0326  8  01 A0 02 87 01 D0 00 00 
   617)       651.0  Rx         0726  8  03 22 40 A8 00 00 00 00 
   618)       655.2  Rx         0076  8  3E 80 40 00 00 00 00 00 
   619)       655.5  Rx         0077  8  FF FF 0F FF 7F FF FF FF 
   620)       655.7  Rx         007D  8  C0 00 F4 B0 00 1F 9F FF 
   621)       656.2  Rx         0213  8  FF FF 00 00 80 13 FF 41 
   622)       656.5  Rx         0083  8  00 E0 80 00 00 00 00 00 
   623)       656.9  Rx         0216  8  00 00 00 00 AA 00 00 00 
   624)       657.2  Rx         0217  8  00 00 00 00 00 00 00 00 
   625)       657.7  Rx         0415  8  00 00 D8 F6 0F FF 0F FF 
   626)       658.2  Rx         04B0  8  51 00 80 00 B0 00 00 F4 
   627)       659.1  Rx         0082  8  82 00 14 40 7B 00 40 FF 
   628)       659.4  Rx         0085  8  7C FF 80 00 F9 D0 7D 01 
   629)       659.6  Rx         072E  8  07 62 40 A8 00 00 00 00 
   630)       665.2  Rx         0217  8  00 00 00 00 00 00 00 00 
   631)       668.4  Rx         0041  8  20 D1 CE D4 66 09 00 00 
   632)       668.7  Rx         042C  8  84 02 00 00 38 B0 00 00 
   633)       668.9  Rx         0085  8  7C FF 80 00 F8 E0 7D 01 
   634)       671.0  Rx         0726  8  03 22 42 51 00 00 00 00 
   635)       675.2  Rx         0076  8  3E 80 40 00 00 00 00 00 
   636)       675.5  Rx         0077  8  FF FF 0F FF 7F FF FF FF 
   637)       675.7  Rx         0430  8  02 00 82 08 FF 01 13 91 
   638)       676.0  Rx         007D  8  C0 00 F3 C0 00 1F 9F FF 
   639)       676.2  Rx         0213  8  FF FF 00 00 80 13 FF 41 
   640)       676.5  Rx         0434  8  26 5B 14 0A 0F FF 02 20 
   641)       676.7  Rx         0216  8  00 00 00 00 AA 00 00 00 
   642)       676.9  Rx         0217  8  00 00 00 00 00 00 00 00 
   643)       677.2  Rx         0415  8  00 00 DC F5 0F FF 0F FF 
   644)       677.4  Rx         0435  8  28 20 10 91 4E 20 09 02 
   645)       677.7  Rx         04B0  8  51 00 80 00 C0 00 00 F3 
   646)       677.9  Rx         0581  8  81 00 FF FF FF FF FF FF 
   647)       678.7  Rx         0242  8  03 8B 1F 7D C3 00 03 01 
   648)       678.9  Rx         03B5  8  FF FD FF FD FF FD FF FD 
   649)       679.2  Rx         0082  8  82 00 14 40 7A 00 40 FF 
   650)       679.4  Rx         0085  8  7C FF 80 00 F7 F0 7D 01 
   651)       679.6  Rx         072E  8  04 62 42 51 01 00 00 00 
   652)       685.3  Rx         0217  8  00 00 00 00 00 00 00 00 
   653)       688.4  Rx         0085  8  7C FF 80 00 06 00 7D 01 
   654)       688.7  Rx         0041  8  20 D1 CE D4 66 09 00 00 
   655)       691.0  Rx         0726  8  03 22 C2 57 00 00 00 00 
   656)       695.2  Rx         0076  8  3E 80 40 00 00 00 00 00 
   657)       695.5  Rx         0077  8  FF FF 0F FF 7F FF FF FF 
   658)       695.8  Rx         007D  8  C0 00 F2 D0 00 1F 9F FF 
   659)       696.0  Rx         0213  8  FF FF 00 00 80 13 FF 41 
   660)       696.4  Rx         0216  8  00 00 00 00 AA 00 00 00 
   661)       696.7  Rx         0217  8  00 00 00 00 00 00 00 00 
   662)       697.0  Rx         0415  8  00 00 E0 F4 0F FF 0F FF 
   663)       697.2  Rx         0416  8  44 40 FA 08 01 02 00 00 
   664)       697.5  Rx         04B0  8  51 00 80 00 D0 00 00 F2 
   665)       699.1  Rx         0082  8  82 00 14 40 7A 00 40 FF 
   666)       699.3  Rx         072E  8  04 62 C2 57 10 00 00 00 
   667)       699.6  Rx         0085  8  7C FF 80 00 05 10 7D 01 
   668)       700.4  Rx         0092  8  6F B8 6F 9B 73 67 FE 0D 
   669)       702.2  Rx         0455  8  00 00 00 00 00 00 00 00 
   670)       705.2  Rx         0217  8  00 00 00 00 00 00 00 00 
   671)       708.4  Rx         0041  8  20 D1 CE D4 66 09 00 00 
   672)       708.6  Rx         0085  8  7C FF 80 00 04 20 7D 01 
   673)       711.1  Rx         0726  8  03 22 C2 11 00 00 00 00 
   674)       715.2  Rx         0076  8  3E 80 40 00 00 00 00 00 
   675)       715.5  Rx         0077  8  FF FF 0F FF 7F FF FF FF 
   676)       715.7  Rx         007D  8  C0 00 F1 E0 00 1F AF FF 
   677)       715.9  Rx         0213  8  FF FF 00 00 80 13 FF 41 
   678)       716.5  Rx         0216  8  00 00 00 00 AA 00 00 00 
   679)       716.7  Rx         0217  8  00 00 00 00 00 00 00 00 
   680)       716.9  Rx         0415  8  00 00 E4 F3 0F FF 0F FF 
   681)       717.2  Rx         04B0  8  51 00 80 00 E0 00 00 F1 
   682)       718.4  Rx         004A  8  02 00 00 00 00 00 00 00 
   683)       718.7  Rx         0242  8  03 8B 1F 7D C3 00 03 01 
   684)       718.9  Rx         004B  8  00 C0 D8 D8 D8 D8 C0 00 
   685)       719.1  Rx         004C  8  60 AF FF 00 00 00 00 00 
   686)       719.4  Rx         0082  8  82 00 14 40 7A 00 40 FF 
   687)       719.7  Rx         0085  8  7C FF 80 00 03 30 7D 01 
   688)       719.9  Rx         03B3  8  40 48 02 12 10 05 80 2A 
   689)       720.1  Rx         040A  8  C1 10 40 88 20 24 80 00 
   690)       720.3  Rx         042C  8  84 02 00 00 38 B0 00 00 
   691)       720.6  Rx         072E  8  07 62 C2 11 24 71 AA 30 
   692)       725.3  Rx         0217  8  00 00 00 00 00 00 00 00 
   693)       728.3  Rx         0041  8  20 D1 CE D4 66 09 00 00 
   694)       728.7  Rx         0085  8  7C FF 80 00 02 40 7D 01 
   695)       731.0  Rx         0726  8  03 22 40 EF 00 00 00 00 
   696)       735.2  Rx         0076  8  3E 80 40 00 00 00 00 00 
   697)       735.5  Rx         0077  8  FF FF 0F FF 7F FF FF FF 
   698)       735.7  Rx         007D  8  C0 00 F0 F0 00 1F AF FF 
   699)       736.0  Rx         0213  8  FF FF 00 00 80 13 FF 41 
   700)       736.5  Rx         0216  8  00 00 00 00 AA 00 00 00 
   701)       736.7  Rx         0217  8  00 00 00 00 00 00 00 00 
   702)       737.0  Rx         0415  8  00 00 E8 F2 0F FF 0F FF 
   703)       737.2  Rx         04B0  8  51 00 80 00 F0 00 00 F0 
   704)       739.1  Rx         0082  8  82 00 14 40 7A 00 40 FF 
   705)       739.3  Rx         072E  8  04 62 40 EF 02 00 00 00 
   706)       739.5  Rx         0085  8  7C FF 80 00 01 50 7D 01 
   707)       745.3  Rx         0217  8  00 00 00 00 00 00 00 00 
   708)       748.4  Rx         0085  8  7C FF 80 00 00 60 7D 01 
   709)       748.6  Rx         0041  8  20 D1 CE D4 66 09 00 00 
   710)       750.0  Rx         0726  8  03 22 C1 9F 00 00 00 00 
   711)       751.7  Rx         0326  8  01 A0 02 87 01 D0 00 00 
   712)       754.6  Rx         035E  8  00 00 00 00 00 00 00 00 
   713)       755.2  Rx         0076  8  3E 80 40 00 00 00 00 00 
   714)       755.5  Rx         0077  8  FF FF 0F FF 7F FF FF FF 
   715)       755.8  Rx         007D  8  C0 00 FF 00 00 1F AF FF 
   716)       756.0  Rx         0083  8  00 E0 80 00 00 00 00 00 
   717)       756.2  Rx         0213  8  FF FF 00 00 80 13 FF 41 
   718)       756.7  Rx         0216  8  00 00 00 00 AA 00 00 00 
   719)       757.0  Rx         0217  8  00 00 00 00 00 00 00 00 
   720)       757.4  Rx         0415  8  00 00 EC F1 0F FF 0F FF 
   721)       757.7  Rx         04B0  8  51 00 80 00 00 00 00 FF 
   722)       758.5  Rx         0242  8  03 8B 1F 7D C3 00 03 01 
   723)       759.3  Rx         0082  8  82 00 14 40 7A 00 40 FF 
   724)       759.6  Rx         072E  8  04 62 C1 9F 02 00 00 00 
   725)       759.8  Rx         0085  8  7C FF 80 00 FF 70 7D 01 
   726)       765.3  Rx         0217  8  00 00 00 00 00 00 00 00 
   727)       768.4  Rx         0041  8  20 D1 CE D4 66 09 00 00 
   728)       768.6  Rx         042C  8  84 02 00 00 38 B0 00 00 
   729)       768.9  Rx         0085  8  7C FF 80 00 FE 80 7D 01 
   730)       771.0  Rx         0726  8  03 22 C1 1D 00 00 00 00 
   731)       775.3  Rx         0076  8  3E 80 40 00 00 00 00 00 
   732)       775.5  Rx         0077  8  FF FF 0F FF 7F FF FF FF 
   733)       775.8  Rx         0430  8  06 00 82 08 FF 01 17 91 
   734)       776.0  Rx         007D  8  C0 00 FE 10 00 1F 9F FF 
   735)       776.2  Rx         0213  8  FF FF 00 00 80 13 FF 41 
   736)       776.5  Rx         0434  8  26 59 14 09 0F FF 02 20 
   737)       776.7  Rx         0216  8  00 00 00 00 AA 00 00 00 
   738)       777.0  Rx         0217  8  00 00 00 00 00 00 00 00 
   739)       777.2  Rx         0415  8  00 00 F0 F0 0F FF 0F FF 
   740)       777.4  Rx         0435  8  28 20 18 99 4E 20 09 02 
   741)       777.7  Rx         04B0  8  51 00 80 00 10 00 00 FE 
   742)       779.1  Rx         0082  8  82 00 14 40 7A 00 40 FF 
   743)       779.4  Rx         0085  8  7C FF 80 00 FD 90 7D 01 
   744)       779.6  Rx         072E  8  07 62 C1 1D 12 12 12 12 
   745)       785.3  Rx         0217  8  00 00 00 00 00 00 00 00 
   746)       788.4  Rx         0041  8  20 D1 CE D4 66 09 00 00 
   747)       788.6  Rx         0085  8  7C FF 80 00 FC A0 7D 01 
   748)       791.0  Rx         0726  8  03 22 C2 58 00 00 00 00 
   749)       795.3  Rx         0076  8  3E 80 40 00 00 00 00 00 
   750)       795.5  Rx         0077  8  FF FF 0F FF 7F FF FF FF 
   751)       795.8  Rx         007D  8  C0 00 FD 20 00 1F 9F FF 
   752)       796.0  Rx         0213  8  FF FF 00 00 80 13 FF 41 
   753)       796.5  Rx         0216  8  00 00 00 00 AA 00 00 00 
   754)       796.8  Rx         0217  8  00 00 00 00 00 00 00 00 
   755)       797.0  Rx         0415  8  00 00 F4 EF 0F FF 0F FF 
   756)       797.2  Rx         0416  8  45 40 F9 08 01 02 00 00 
   757)       797.5  Rx         04B0  8  51 00 80 00 20 00 00 FD 
   758)       798.6  Rx         0242  8  03 8B 1F 7D C3 00 03 01 
   759)       799.3  Rx         072E  8  07 62 C2 58 80 00 00 00 
   760)       799.5  Rx         0082  8  82 00 14 40 7A 00 40 FF 
   761)       799.8  Rx         0085  8  7C FF 80 00 FB B0 7D 01 
   762)       802.3  Rx         0455  8  00 00 00 00 00 00 00 00 
   763)       805.3  Rx         0217  8  00 00 00 00 00 00 00 00 
   764)       805.5  Rx         0092  8  6F B5 6F 9D 73 62 D2 3F 
   765)       808.6  Rx         0041  8  20 D1 CE D4 66 09 00 00 
   766)       808.8  Rx         0085  8  7C FF 80 00 FA C0 7D 01 
   767)       811.1  Rx         0726  8  03 22 D1 37 00 00 00 00 
   768)       815.3  Rx         0076  8  3E 80 40 00 00 00 00 00 
   769)       815.5  Rx         0077  8  FF FF 0F FF 7F FF FF FF 
   770)       815.8  Rx         007D  8  C0 00 FC 30 00 1F 9F FF 
   771)       816.0  Rx         0213  8  FF FF 00 00 80 13 FF 41 
   772)       816.5  Rx         0216  8  00 00 00 00 AA 00 00 00 
   773)       816.7  Rx         0217  8  00 00 00 00 00 00 00 00 
   774)       817.0  Rx         0415  8  00 00 F8 EE 0F FF 0F FF 
   775)       817.2  Rx         04B0  8  51 00 80 00 30 00 00 FC 
   776)       818.4  Rx         004A  8  02 00 00 00 00 00 00 00 
   777)       818.7  Rx         004B  8  00 C0 D8 D8 D8 D8 C0 00 
   778)       819.0  Rx         042C  8  84 02 00 00 38 B0 00 00 
   779)       819.2  Rx         004C  8  60 AF FF 00 00 00 00 00 
   780)       819.4  Rx         0082  8  82 00 14 40 7A 00 40 FF 
   781)       819.7  Rx         0085  8  7C FF 80 00 F9 D0 7D 01 
   782)       819.9  Rx         072E  8  04 62 D1 37 07 00 00 00 
   783)       825.3  Rx         0217  8  00 00 00 00 00 00 00 00 
   784)       828.4  Rx         0041  8  20 D1 CE D4 66 09 00 00 
   785)       828.7  Rx         0085  8  7C FF 80 00 F8 E0 7D 01 
   786)       831.1  Rx         0726  8  03 22 C2 5B 00 00 00 00 
   787)       835.3  Rx         0076  8  3E 80 40 00 00 00 00 00 
   788)       835.6  Rx         0077  8  FF FF 0F FF 7F FF FF FF 
   789)       835.8  Rx         007D  8  C0 00 FB 40 00 1F 9F FF 
   790)       836.0  Rx         0213  8  FF FF 00 00 80 13 FF 41 
   791)       836.5  Rx         0216  8  00 00 00 00 AA 00 00 00 
   792)       836.7  Rx         0217  8  00 00 00 00 00 00 00 00 
   793)       837.0  Rx         0415  8  00 00 FC ED 0F FF 0F FF 
   794)       837.3  Rx         04B0  8  51 00 80 00 40 00 00 FB 
   795)       838.7  Rx         0242  8  03 8B 1F 7D C3 00 03 01 
   796)       839.2  Rx         0082  8  82 00 14 40 7A 00 40 FF 
   797)       839.4  Rx         0085  8  7C FF 80 00 F7 F0 7D 01 
   798)       839.7  Rx         072E  8  04 62 C2 5B 02 00 00 00 
   799)       845.3  Rx         0217  8  00 00 00 00 00 00 00 00 
   800)       848.4  Rx         0041  8  20 D1 CE D4 66 09 00 00 
   801)       848.7  Rx         0085  8  7C FF 80 00 06 00 7D 01 
   802)       849.8  Rx         0326  8  01 A0 02 88 01 D0 00 00 
   803)       851.1  Rx         0726  8  03 22 02 02 00 00 00 00 
   804)       855.3  Rx         0076  8  3E 80 40 00 00 00 00 00 
   805)       855.6  Rx         0077  8  FF FF 0F FF 7F FF FF FF 
   806)       855.8  Rx         007D  8  C0 00 FA 50 00 1F AF FF 
   807)       856.1  Rx         0083  8  00 E0 80 00 00 00 00 00 
   808)       856.3  Rx         0213  8  FF FF 00 00 80 13 FF 41 
   809)       856.8  Rx         0216  8  00 00 00 00 AA 00 00 00 
   810)       857.0  Rx         0217  8  00 00 00 00 00 00 00 00 
   811)       857.5  Rx         0415  8  00 00 C0 FC 0F FF 0F FF 
   812)       857.8  Rx         04B0  8  51 00 80 00 50 00 00 FA 
   813)       859.2  Rx         0082  8  82 00 14 40 7A 00 40 FF 
   814)       859.4  Rx         0085  8  7C FF 80 00 05 10 7D 01 
   815)       859.7  Rx         072E  8  04 62 02 02 00 00 00 00 
   816)       865.3  Rx         0217  8  00 00 00 00 00 00 00 00 
   817)       868.6  Rx         0041  8  20 D1 CE D4 66 09 00 00 
   818)       868.8  Rx         0085  8  7C FF 80 00 04 20 7D 01 
   819)       869.1  Rx         03B6  8  08 00 02 00 00 00 00 00 
   820)       869.3  Rx         03B7  8  00 00 00 00 63 B9 59 49 
   821)       869.6  Rx         042C  8  84 02 00 00 38 B0 00 00 
   822)       870.1  Rx         0726  8  03 22 5B 1D 00 00 00 00 
   823)       875.3  Rx         0076  8  3E 80 40 00 00 00 00 00 
   824)       875.6  Rx         0077  8  FF FF 0F FF 7F FF FF FF 
   825)       875.8  Rx         0430  8  02 00 82 08 FF 01 13 91 
   826)       876.0  Rx         007D  8  C0 00 F9 60 00 1F AF FF 
   827)       876.3  Rx         0213  8  FF FF 00 00 80 13 FF 41 
   828)       876.5  Rx         0434  8  26 5B 14 0A 0F FF 02 20 
   829)       876.8  Rx         0216  8  00 00 00 00 AA 00 00 00 
   830)       877.0  Rx         0217  8  00 00 00 00 00 00 00 00 
   831)       877.3  Rx         0415  8  00 00 C4 FB 0F FF 0F FF 
   832)       877.5  Rx         0435  8  28 20 10 91 4E 20 09 02 
   833)       877.8  Rx         04B0  8  51 00 80 00 60 00 00 F9 
   834)       878.7  Rx         0242  8  03 8B 1F 7D C3 00 03 01 
   835)       879.2  Rx         0082  8  82 00 14 40 7A 00 40 FF 
   836)       879.5  Rx         0085  8  7C FF 80 00 03 30 7D 01 
   837)       879.7  Rx         072E  8  07 62 5B 1D 21 00 00 00 
   838)       885.4  Rx         0217  8  00 00 00 00 00 00 00 00 
   839)       888.6  Rx         0041  8  20 D1 CE D4 66 09 00 00 
   840)       888.8  Rx         0085  8  7C FF 80 00 02 40 7D 01 
   841)       890.1  Rx         0726  8  03 22 C1 04 00 00 00 00 
   842)       895.3  Rx         0076  8  3E 80 40 00 00 00 00 00 
   843)       895.5  Rx         0077  8  FF FF 0F FF 7F FF FF FF 
   844)       895.8  Rx         007D  8  C0 00 F8 70 00 1F 9F FF 
   845)       896.1  Rx         0213  8  FF FF 00 00 80 13 FF 41 
   846)       896.5  Rx         0216  8  00 00 00 00 AA 00 00 00 
   847)       896.8  Rx         0217  8  00 00 00 00 00 00 00 00 
   848)       897.0  Rx         0415  8  00 00 C8 FA 0F FF 0F FF 
   849)       897.3  Rx         0416  8  46 40 F8 08 01 02 00 00 
   850)       897.5  Rx         04B0  8  51 00 80 00 70 00 00 F8 
   851)       899.2  Rx         0082  8  82 00 14 40 7A 00 40 FF 
   852)       899.4  Rx         072E  8  04 62 C1 04 02 00 00 00 
   853)       899.6  Rx         0085  8  7C FF 80 00 01 50 7D 01 
   854)       902.2  Rx         0455  8  00 00 00 00 00 00 00 00 
   855)       905.3  Rx         0217  8  00 00 00 00 00 00 00 00 
   856)       908.5  Rx         0041  8  20 D1 CE D4 66 09 00 00 
   857)       908.7  Rx         0085  8  7C FF 80 00 00 60 7D 01 
   858)       910.4  Rx         0092  8  6F B5 6F 9A 73 61 9F 76 
   859)       911.3  Rx         0726  8  03 22 40 F2 00 00 00 00 
   860)       915.3  Rx         0076  8  3E 80 40 00 00 00 00 00 
   861)       915.6  Rx         0077  8  FF FF 0F FF 7F FF FF FF 
   862)       915.8  Rx         007D  8  C0 00 F7 80 00 1F 9F FF 
   863)       916.1  Rx         0213  8  FF FF 00 00 80 13 FF 41 
   864)       916.5  Rx         0216  8  00 00 00 00 AA 00 00 00 
   865)       916.8  Rx         0217  8  00 00 00 00 00 00 00 00 
   866)       917.0  Rx         0415  8  00 00 CC F9 0F FF 0F FF 
   867)       917.3  Rx         04B0  8  51 00 80 00 80 00 00 F7 
   868)       918.5  Rx         004A  8  02 00 00 00 00 00 00 00 
   869)       918.7  Rx         0242  8  03 8B 1F 7D C3 00 03 01 
   870)       918.9  Rx         004B  8  00 C0 D8 D8 D8 D8 C0 00 
   871)       919.2  Rx         004C  8  60 AF FF 00 00 00 00 00 
   872)       919.4  Rx         0082  8  82 00 14 40 7A 00 40 FF 
   873)       919.7  Rx         0085  8  7C FF 80 00 FF 70 7D 01 
   874)       919.9  Rx         040A  8  C0 00 00 8A DE A1 4B 00 
   875)       920.2  Rx         042C  8  84 02 00 00 38 B0 00 00 
   876)       920.4  Rx         072E  8  04 62 40 F2 01 00 00 00 
   877)       925.3  Rx         0217  8  00 00 00 00 00 00 00 00 
   878)       928.6  Rx         0041  8  20 D1 CE D4 66 09 00 00 
   879)       928.8  Rx         0085  8  7C FF 80 00 FE 80 7D 01 
   880)       932.1  Rx         0726  8  03 22 C2 43 00 00 00 00 
   881)       935.3  Rx         0076  8  3E 80 40 00 00 00 00 00 
   882)       935.6  Rx         0077  8  FF FF 0F FF 7F FF FF FF 
   883)       935.8  Rx         007D  8  C0 00 F6 90 00 1F 8F FF 
   884)       936.0  Rx         0213  8  FF FF 00 00 80 13 FF 41 
   885)       936.5  Rx         0216  8  00 00 00 00 AA 00 00 00 
   886)       936.8  Rx         0217  8  00 00 00 00 00 00 00 00 
   887)       937.0  Rx         0415  8  00 00 D0 F8 0F FF 0F FF 
   888)       937.3  Rx         04B0  8  51 00 80 00 90 00 00 F6 
   889)       939.2  Rx         0082  8  82 00 14 40 7A 00 40 FF 
   890)       939.4  Rx         072E  8  07 62 C2 43 24 71 AA 30 
   891)       939.6  Rx         0085  8  7C FF 80 00 FD 90 7D 01 
   892)       945.3  Rx         0217  8  00 00 00 00 00 00 00 00 
   893)       948.5  Rx         0041  8  20 D1 CE D4 66 09 00 00 
   894)       948.7  Rx         0085  8  7C FF 80 00 FC A0 7D 01 
   895)       950.7  Rx         0326  8  01 A0 02 88 01 D0 00 00 
   896)       951.1  Rx         0726  8  03 22 C2 56 00 00 00 00 
   897)       955.3  Rx         0076  8  3E 80 40 00 00 00 00 00 
   898)       955.5  Rx         0077  8  FF FF 0F FF 7F FF FF FF 
   899)       955.8  Rx         007D  8  C0 00 F5 A0 00 1F 7F FF 
   900)       956.1  Rx         0083  8  00 E0 80 00 00 00 00 00 
   901)       956.3  Rx         0213  8  FF FF 00 00 80 13 FF 41 
   902)       956.8  Rx         0216  8  00 00 00 00 AA 00 00 00 
   903)       957.0  Rx         0217  8  00 00 00 00 00 00 00 00 
   904)       957.5  Rx         0415  8  00 00 D4 F7 0F FF 0F FF 
   905)       957.7  Rx         04B0  8  51 00 80 00 A0 00 00 F5 
   906)       958.8  Rx         0242  8  03 8B 1F 7D C3 00 03 01 
   907)       959.2  Rx         0082  8  82 00 14 40 7A 00 40 FF 
   908)       959.4  Rx         0085  8  7C FF 80 00 FB B0 7D 01 
   909)       959.6  Rx         072E  8  07 62 C2 56 00 00 00 00 
   910)       965.3  Rx         0217  8  00 00 00 00 00 00 00 00 
   911)       968.5  Rx         0041  8  20 D1 CE D4 66 09 00 00 
   912)       968.7  Rx         0085  8  7C FF 80 00 FA C0 7D 01 
   913)       969.0  Rx         042C  8  84 02 00 00 38 B0 00 00 
   914)       971.1  Rx         0726  8  03 22 C2 44 00 00 00 00 
   915)       975.3  Rx         0076  8  3E 80 40 00 00 00 00 00 
   916)       975.6  Rx         0077  8  FF FF 0F FF 7F FF FF FF 
   917)       975.8  Rx         0430  8  02 00 82 08 FF 01 13 91 
   918)       976.1  Rx         007D  8  C0 00 F4 B0 00 1F 5F FF 
   919)       976.3  Rx         0213  8  FF FF 00 00 80 13 FF 41 
   920)       976.5  Rx         0434  8  26 59 14 09 0F FF 02 20 
   921)       976.8  Rx         0216  8  00 00 00 00 AA 00 00 00 
   922)       977.1  Rx         0217  8  00 00 00 00 00 00 00 00 
   923)       977.3  Rx         0415  8  00 00 D8 F6 0F FF 0F FF 
   924)       977.5  Rx         0435  8  28 20 18 99 4E 20 09 02 
   925)       977.7  Rx         04B0  8  51 00 80 00 B0 00 00 F4 
   926)       979.2  Rx         0082  8  82 00 14 40 7A 00 40 FF 
   927)       979.5  Rx         072E  8  07 62 C2 44 24 70 E7 B3 
   928)       979.7  Rx         0085  8  7C FF 80 00 F9 D0 7D 01 
   929)       985.3  Rx         0217  8  00 00 00 00 00 00 00 00 
   930)       988.7  Rx         0085  8  7C FF 80 00 F8 E0 7D 01 
   931)       988.9  Rx         0041  8  20 D1 CE D4 66 09 00 00 
   932)       991.1  Rx         0726  8  03 22 C2 45 00 00 00 00 
   933)       995.3  Rx         0076  8  3E 80 40 00 00 00 00 00 
   934)       995.6  Rx         0077  8  FF FF 0F FF 7F FF FF FF 
   935)       995.8  Rx         007D  8  C0 00 F3 C0 00 1F AF FF 
   936)       996.0  Rx         0213  8  FF FF 00 00 80 13 FF 41 
   937)       996.6  Rx         0216  8  00 00 00 00 AA 00 00 00 
   938)       996.8  Rx         0217  8  00 00 00 00 00 00 00 00 
   939)       997.1  Rx         0415  8  00 00 DC F5 0F FF 0F FF 
   940)       997.3  Rx         0416  8  47 40 F7 08 01 02 00 00 
   941)       997.5  Rx         04B0  8  51 00 80 00 C0 00 00 F3 
   942)       998.6  Rx         0242  8  03 8B 1F 7D C3 00 03 01 
   943)       999.4  Rx         0082  8  82 00 14 40 7A 00 40 FF 
   944)       999.6  Rx         0085  8  7C FF 80 00 F7 F0 7D 01 
   945)       999.9  Rx         072E  8  07 62 C2 45 00 00 00 00 
   946)      1002.3  Rx         0455  8  00 00 00 00 00 00 00 00 
   947)      1005.3  Rx         0217  8  00 00 00 00 00 00 00 00 
   948)      1008.5  Rx         0041  8  20 D1 CE D4 66 09 00 00 
   949)      1008.7  Rx         0085  8  7C FF 80 00 06 00 7D 01 
   950)      1011.1  Rx         0726  8  03 22 C2 46 00 00 00 00 
   951)      1015.3  Rx         0076  8  3E 80 40 00 00 00 00 00 
   952)      1015.5  Rx         0092  8  6F B7 6F 9D 73 66 63 A8 
   953)      1015.8  Rx         0077  8  FF FF 0F FF 7F FF FF FF 
   954)      1016.0  Rx         007D  8  C0 00 F2 D0 00 1F 8F FF 
   955)      1016.3  Rx         0213  8  FF FF 00 00 80 13 FF 41 
   956)      1016.5  Rx         0216  8  00 00 00 00 AA 00 00 00 
   957)      1016.8  Rx         0217  8  00 00 00 00 00 00 00 00 
   958)      1017.0  Rx         0415  8  00 00 E0 F4 0F FF 0F FF 
   959)      1017.3  Rx         04B0  8  51 00 80 00 D0 00 00 F2 
   960)      1018.4  Rx         004A  8  02 00 00 00 00 00 00 00 
   961)      1018.7  Rx         004B  8  00 C0 D8 D8 D8 D8 C0 00 
   962)      1018.9  Rx         042C  8  84 02 00 00 38 B0 00 00 
   963)      1019.1  Rx         004C  8  60 AF FF 00 00 00 00 00 
   964)      1019.4  Rx         0082  8  82 00 14 40 7A 00 40 FF 
   965)      1019.6  Rx         072E  8  07 62 C2 46 00 00 00 00 
   966)      1019.9  Rx         0085  8  7C FF 80 00 05 10 7D 01 
   967)      1025.3  Rx         0217  8  00 00 00 00 00 00 00 00 
   968)      1028.4  Rx         0041  8  20 D1 CE D4 66 09 00 00 
   969)      1028.7  Rx         0085  8  7C FF 80 00 04 20 7D 01 
   970)      1031.1  Rx         0726  8  03 22 C2 53 00 00 00 00 
   971)      1035.3  Rx         0076  8  3E 80 40 00 00 00 00 00 
   972)      1035.6  Rx         0077  8  FF FF 0F FF 7F FF FF FF 
   973)      1035.8  Rx         007D  8  C0 00 F1 E0 00 1F AF FF 
   974)      1036.1  Rx         0213  8  FF FF 00 00 80 13 FF 41 
   975)      1036.5  Rx         0216  8  00 00 00 00 AA 00 00 00 
   976)      1036.8  Rx         0217  8  00 00 00 00 00 00 00 00 
   977)      1037.0  Rx         0415  8  00 00 E4 F3 0F FF 0F FF 
   978)      1037.3  Rx         04B0  8  51 00 80 00 E0 00 00 F1 
   979)      1038.6  Rx         0242  8  03 8B 1F 7D C3 00 03 01 
   980)      1039.3  Rx         072E  8  07 62 C2 53 00 00 00 00 
   981)      1039.5  Rx         0082  8  82 00 14 40 7A 00 40 FF 
   982)      1039.7  Rx         0085  8  7C FF 80 00 03 30 7D 01 
   983)      1045.3  Rx         0217  8  00 00 00 00 00 00 00 00 
   984)      1048.6  Rx         0041  8  20 D1 CE D4 66 09 00 00 
   985)      1048.8  Rx         0085  8  7C FF 80 00 02 40 7D 01 
   986)      1049.7  Rx         0326  8  01 A0 02 88 01 D0 00 00 
   987)      1050.1  Rx         0726  8  03 22 C2 54 00 00 00 00 
   988)      1055.3  Rx         0076  8  3E 80 40 00 00 00 00 00 
   989)      1055.5  Rx         0077  8  FF FF 0F FF 7F FF FF FF 
   990)      1055.8  Rx         007D  8  C0 00 F0 F0 00 1F 9F FF 
   991)      1056.0  Rx         0083  8  00 E0 80 00 00 00 00 00 
   992)      1056.3  Rx         0213  8  FF FF 00 00 80 13 FF 41 
   993)      1056.8  Rx         0216  8  00 00 00 00 AA 00 00 00 
   994)      1057.0  Rx         0217  8  00 00 00 00 00 00 00 00 
   995)      1057.5  Rx         0415  8  00 00 E8 F2 0F FF 0F FF 
   996)      1057.7  Rx         04B0  8  51 00 80 00 F0 00 00 F0 
   997)      1059.2  Rx         0082  8  82 00 14 40 7A 00 40 FF 
   998)      1059.5  Rx         072E  8  07 62 C2 54 00 00 00 00 
   999)      1059.7  Rx         0085  8  7C FF 80 00 01 50 7D 01 
  1000)      1065.3  Rx         0217  8  00 00 00 00 00 00 00 00 
  1001)      1068.4  Rx         0041  8  20 D1 CE D4 66 09 00 00 
  1002)      1068.6  Rx         042C  8  84 02 00 00 38 B0 00 00 
  1003)      1068.9  Rx         0085  8  7C FF 80 00 00 60 7D 01 
  1004)      1070.1  Rx         0726  8  03 22 C2 55 00 00 00 00 
  1005)      1075.3  Rx         0076  8  3E 80 40 00 00 00 00 00 
  1006)      1075.5  Rx         0077  8  FF FF 0F FF 7F FF FF FF 
  1007)      1075.8  Rx         0430  8  02 00 82 08 FF 01 13 91 
  1008)      1076.0  Rx         007D  8  C0 00 FF 00 00 1F 8F FF 
  1009)      1076.3  Rx         0213  8  FF FF 00 00 80 13 FF 41 
  1010)      1076.5  Rx         0434  8  26 5B 14 0A 0F FF 02 20 
  1011)      1076.7  Rx         0216  8  00 00 00 00 AA 00 00 00 
  1012)      1077.0  Rx         0217  8  00 00 00 00 00 00 00 00 
  1013)      1077.2  Rx         0415  8  00 00 EC F1 0F FF 0F FF 
  1014)      1077.5  Rx         0435  8  28 20 10 91 4E 20 09 02 
  1015)      1077.7  Rx         04B0  8  51 00 80 00 00 00 00 FF 
  1016)      1078.8  Rx         0242  8  03 8B 1F 7D C3 00 03 01 
  1017)      1079.2  Rx         0082  8  82 00 14 40 7A 00 40 FF 
  1018)      1079.4  Rx         0085  8  7C FF 80 00 FF 70 7D 01 
  1019)      1079.6  Rx         072E  8  07 62 C2 55 00 00 00 00 
  1020)      1085.3  Rx         0217  8  00 00 00 00 00 00 00 00 
  1021)      1088.5  Rx         0041  8  20 D1 CE D4 66 09 00 00 
  1022)      1088.7  Rx         0085  8  7C FF 80 00 FE 80 7D 01 
  1023)      1091.1  Rx         0726  8  03 22 C2 58 00 00 00 00 
  1024)      1095.3  Rx         0076  8  3E 80 40 00 00 00 00 00 
  1025)      1095.5  Rx         0077  8  FF FF 0F FF 7F FF FF FF 
  1026)      1095.8  Rx         007D  8  C0 00 FE 10 00 1F AF FF 
  1027)      1096.0  Rx         0213  8  FF FF 00 00 80 13 FF 41 
  1028)      1096.5  Rx         0216  8  00 00 00 00 AA 00 00 00 
  1029)      1096.7  Rx         0217  8  00 00 00 00 00 00 00 00 
  1030)      1097.0  Rx         0415  8  00 00 F0 F0 0F FF 0F FF 
  1031)      1097.2  Rx         0416  8  48 40 F6 08 01 02 00 00 
  1032)      1097.5  Rx         04B0  8  51 00 80 00 10 00 00 FE 
  1033)      1099.2  Rx         0082  8  82 00 14 40 7A 00 40 FF 
  1034)      1099.4  Rx         072E  8  07 62 C2 58 80 00 00 00 
  1035)      1099.7  Rx         0085  8  7C FF 80 00 FD 90 7D 01 
  1036)      1102.4  Rx         0455  8  00 00 00 00 00 00 00 00 
  1037)      1105.3  Rx         0217  8  00 00 00 00 00 00 00 00 
  1038)      1108.5  Rx         0041  8  20 D1 CE D4 66 09 00 00 
  1039)      1108.8  Rx         0085  8  7C FF 80 00 FC A0 7D 01 
  1040)      1111.1  Rx         0726  8  03 22 40 B6 00 00 00 00 
  1041)      1115.3  Rx         0076  8  3E 80 40 00 00 00 00 00 
  1042)      1115.5  Rx         0077  8  FF FF 0F FF 7F FF FF FF 
  1043)      1115.8  Rx         007D  8  C0 00 FD 20 00 1F 8F FF 
  1044)      1116.0  Rx         0213  8  FF FF 00 00 80 13 FF 41 
  1045)      1116.5  Rx         0216  8  00 00 00 00 AA 00 00 00 
  1046)      1116.8  Rx         0217  8  00 00 00 00 00 00 00 00 
  1047)      1117.0  Rx         0415  8  00 00 F4 EF 0F FF 0F FF 
  1048)      1117.2  Rx         04B0  8  51 00 80 00 20 00 00 FD 
  1049)      1118.3  Rx         004A  8  02 00 00 00 00 00 00 00 
  1050)      1118.6  Rx         0242  8  03 8B 1F 7D C3 00 03 01 
  1051)      1118.9  Rx         004B  8  00 C0 D8 D8 D8 D8 C0 00 
  1052)      1119.1  Rx         004C  8  60 AF FF 00 00 00 00 00 
  1053)      1119.3  Rx         038D  8  20 00 00 00 60 00 00 00 
  1054)      1119.6  Rx         0082  8  82 00 14 40 7A 00 40 FF 
  1055)      1119.8  Rx         0085  8  7C FF 80 00 FB B0 7D 01 
  1056)      1120.0  Rx         03B6  8  08 00 03 00 00 00 00 00 
  1057)      1120.3  Rx         03B7  8  00 00 01 00 63 B9 61 9D 
  1058)      1120.5  Rx         03B8  8  FF FF FF FF 00 00 00 00 
  1059)      1120.8  Rx         03E3  8  00 01 04 11 80 01 00 00 
  1060)      1121.0  Rx         0092  8  6F B6 6F 9D 73 5E 35 DF 
  1061)      1121.2  Rx         03EB  8  01 04 14 00 00 10 00 00 
  1062)      1121.5  Rx         040A  8  C1 00 31 46 41 54 50 38 
  1063)      1121.8  Rx         042C  8  84 02 00 00 38 B0 00 00 
  1064)      1122.0  Rx         043C  8  31 78 44 44 2B D9 88 14 
  1065)      1122.2  Rx         0447  8  21 00 00 4B 02 00 00 00 
  1066)      1122.4  Rx         072E  8  04 62 40 B6 01 00 00 00 
  1067)      1125.3  Rx         0217  8  00 00 00 00 00 00 00 00 
  1068)      1128.4  Rx         0041  8  20 D1 CE D4 66 09 00 00 
  1069)      1128.7  Rx         0085  8  7C FF 80 00 FA C0 7D 01 
  1070)      1134.1  Rx         0726  8  03 22 40 B7 00 00 00 00 
  1071)      1135.3  Rx         0076  8  3E 80 40 00 00 00 00 00 
  1072)      1135.5  Rx         0077  8  FF FF 0F FF 7F FF FF FF 
  1073)      1135.7  Rx         007D  8  C0 00 FC 30 00 1F 8F FF 
  1074)      1136.0  Rx         0213  8  FF FF 00 00 80 13 FF 41 
  1075)      1136.5  Rx         0216  8  00 00 00 00 AA 00 00 00 
  1076)      1136.7  Rx         0217  8  00 00 00 00 00 00 00 00 
  1077)      1137.0  Rx         0415  8  00 00 F8 EE 0F FF 0F FF 
  1078)      1137.2  Rx         04B0  8  51 00 80 00 30 00 00 FC 
  1079)      1139.2  Rx         0082  8  82 00 14 40 7A 00 40 FF 
  1080)      1139.4  Rx         0085  8  7C FF 80 00 F9 D0 7D 01 
  1081)      1139.6  Rx         072E  8  04 62 40 B7 01 00 00 00 
  1082)      1145.3  Rx         0217  8  00 00 00 00 00 00 00 00 
  1083)      1148.4  Rx         0041  8  20 D1 CE D4 66 09 00 00 
  1084)      1148.6  Rx         0085  8  7C FF 80 00 F8 E0 7D 01 
  1085)      1149.6  Rx         0326  8  01 A0 02 87 01 D0 00 00 
  1086)      1151.1  Rx         0726  8  03 22 C1 9E 00 00 00 00 
  1087)      1155.3  Rx         0076  8  3E 80 40 00 00 00 00 00 
  1088)      1155.5  Rx         0077  8  FF FF 0F FF 7F FF FF FF 
  1089)      1155.8  Rx         007D  8  C0 00 FB 40 00 1F 7F FF 
  1090)      1156.0  Rx         0083  8  00 E0 80 00 00 00 00 00 
  1091)      1156.3  Rx         0213  8  FF FF 00 00 80 13 FF 41 
  1092)      1156.7  Rx         0216  8  00 00 00 00 AA 00 00 00 
  1093)      1157.0  Rx         0217  8  00 00 00 00 00 00 00 00 
  1094)      1157.4  Rx         0415  8  00 00 FC ED 0F FF 0F FF 
  1095)      1157.7  Rx         04B0  8  51 00 80 00 40 00 00 FB 
  1096)      1158.6  Rx         0242  8  03 8B 1F 7D C3 00 03 01 
  1097)      1159.3  Rx         072E  8  04 62 C1 9E 00 00 00 00 
  1098)      1159.5  Rx         0082  8  82 00 14 40 7A 00 40 FF 
  1099)      1159.8  Rx         0085  8  7C FF 80 00 F7 F0 7D 01 
  1100)      1165.3  Rx         0217  8  00 00 00 00 00 00 00 00 
  1101)      1168.5  Rx         0085  8  7C FF 80 00 06 00 7D 01 
  1102)      1168.8  Rx         0041  8  20 D1 CE D4 66 09 00 00 
  1103)      1169.0  Rx         03B4  8  18 11 11 FF 20 20 00 00 
  1104)      1169.2  Rx         042C  8  84 02 00 00 38 B0 00 00 
  1105)      1170.1  Rx         0726  8  03 22 C0 03 00 00 00 00 
  1106)      1175.3  Rx         0076  8  3E 80 40 00 00 00 00 00 
  1107)      1175.5  Rx         0077  8  FF FF 0F FF 7F FF FF FF 
  1108)      1175.7  Rx         0430  8  02 00 82 08 FF 01 13 91 
  1109)      1176.0  Rx         007D  8  C0 00 FA 50 00 1F 9F FF 
  1110)      1176.2  Rx         0213  8  FF FF 00 00 80 13 FF 41 
  1111)      1176.5  Rx         0434  8  26 59 14 09 0F FF 02 20 
  1112)      1176.7  Rx         0216  8  00 00 00 00 AA 00 00 00 
  1113)      1177.0  Rx         0217  8  00 00 00 00 00 00 00 00 
  1114)      1177.2  Rx         0415  8  00 00 C0 FC 0F FF 0F FF 
  1115)      1177.4  Rx         0435  8  28 20 18 99 4E 20 09 02 
  1116)      1177.7  Rx         04B0  8  51 00 80 00 50 00 00 FA 
  1117)      1178.6  Rx         03B5  8  FF FD FF FD FF FD FF FD 
  1118)      1179.1  Rx         0082  8  82 00 14 40 7A 00 40 FF 
  1119)      1179.4  Rx         0085  8  7C FF 80 00 05 10 7D 01 
  1120)      1179.6  Rx         072E  8  04 62 C0 03 00 00 00 00 
  1121)      1185.2  Rx         0217  8  00 00 00 00 00 00 00 00 
  1122)      1188.4  Rx         0041  8  20 D1 CE D4 66 09 00 00 
  1123)      1188.7  Rx         0085  8  7C FF 80 00 04 20 7D 01 
  1124)      1191.1  Rx         0726  8  03 22 41 A9 00 00 00 00 
  1125)      1195.2  Rx         0076  8  3E 80 40 00 00 00 00 00 
  1126)      1195.5  Rx         0077  8  FF FF 0F FF 7F FF FF FF 
  1127)      1195.7  Rx         007D  8  C0 00 F9 60 00 1F AF FF 
  1128)      1196.0  Rx         0213  8  FF FF 00 00 80 13 FF 41 
  1129)      1196.5  Rx         0216  8  00 00 00 00 AA 00 00 00 
  1130)      1196.7  Rx         0217  8  00 00 00 00 00 00 00 00 
  1131)      1197.0  Rx         0415  8  00 00 C4 FB 0F FF 0F FF 
  1132)      1197.2  Rx         0416  8  49 40 F5 08 01 02 00 00 
  1133)      1197.5  Rx         04B0  8  51 00 80 00 60 00 00 F9 
  1134)      1198.8  Rx         0242  8  03 8B 1F 7D C3 00 03 01 
  1135)      1199.0  Rx         03C7  8  00 00 08 06 00 00 00 00 
  1136)      1199.2  Rx         0082  8  82 00 14 40 7A 00 40 FF 
  1137)      1199.5  Rx         0085  8  7C FF 80 00 03 30 7D 01 
  1138)      1199.8  Rx         072E  8  07 62 41 A9 01 08 00 00 
  1139)      1202.2  Rx         03E2  8  00 00 00 00 80 00 00 00 
  1140)      1202.4  Rx         03EA  8  00 00 00 00 00 00 60 00 
  1141)      1202.7  Rx         0455  8  00 00 00 00 00 00 00 00 
  1142)      1205.3  Rx         0217  8  00 00 00 00 00 00 00 00 
  1143)      1208.4  Rx         0041  8  20 D1 CE D4 66 09 00 00 
  1144)      1208.7  Rx         0085  8  7C FF 80 00 02 40 7D 01 
  1145)      1211.1  Rx         0726  8  03 22 41 A9 00 00 00 00 
  1146)      1215.2  Rx         0076  8  3E 80 40 00 00 00 00 00 
  1147)      1215.5  Rx         0077  8  FF FF 0F FF 7F FF FF FF 
  1148)      1215.8  Rx         007D  8  C0 00 F8 70 00 1F AF FF 
  1149)      1216.0  Rx         0213  8  FF FF 00 00 80 13 FF 41 
  1150)      1216.4  Rx         0216  8  00 00 00 00 AA 00 00 00 
  1151)      1216.7  Rx         0217  8  00 00 00 00 00 00 00 00 
  1152)      1217.0  Rx         0415  8  00 00 C8 FA 0F FF 0F FF 
  1153)      1217.2  Rx         04B0  8  51 00 80 00 70 00 00 F8 
  1154)      1218.3  Rx         004A  8  02 00 00 00 00 00 00 00 
  1155)      1218.5  Rx         03B3  8  40 48 02 12 10 05 80 2A 
  1156)      1218.8  Rx         004B  8  00 C0 D8 D8 D8 D8 C0 00 
  1157)      1219.0  Rx         004C  8  60 AF FF 00 00 00 00 00 
  1158)      1219.3  Rx         03C3  8  40 00 10 01 00 00 81 00 
  1159)      1219.5  Rx         0082  8  82 00 14 40 7A 00 40 FF 
  1160)      1219.7  Rx         0085  8  7C FF 80 00 01 50 7D 01 
  1161)      1220.0  Rx         042C  8  84 02 00 00 38 B0 00 00 
  1162)      1220.2  Rx         072E  8  07 62 41 A9 01 08 00 00 
  1163)      1225.3  Rx         0217  8  00 00 00 00 00 00 00 00 
  1164)      1225.5  Rx         0092  8  6F B5 6F 99 73 5F 07 11 
  1165)      1228.5  Rx         0085  8  7C FF 80 00 00 60 7D 01 
  1166)      1228.7  Rx         0041  8  20 D1 CE D4 66 09 00 00 
  1167)      1231.1  Rx         0726  8  03 22 41 A9 00 00 00 00 
  1168)      1235.3  Rx         0076  8  3E 80 40 00 00 00 00 00 
  1169)      1235.5  Rx         0077  8  FF FF 0F FF 7F FF FF FF 
  1170)      1235.8  Rx         007D  8  C0 00 F7 80 00 1F 8F FF 
  1171)      1236.0  Rx         0213  8  FF FF 00 00 80 13 FF 41 
  1172)      1236.5  Rx         0216  8  00 00 00 00 AA 00 00 00 
  1173)      1236.8  Rx         0217  8  00 00 00 00 00 00 00 00 
  1174)      1237.0  Rx         0415  8  00 00 CC F9 0F FF 0F FF 
  1175)      1237.2  Rx         04B0  8  51 00 80 00 80 00 00 F7 
  1176)      1238.5  Rx         0242  8  03 8B 1F 7D C3 00 03 01 
  1177)      1239.2  Rx         072E  8  07 62 41 A9 01 08 00 00 
  1178)      1239.5  Rx         0082  8  82 00 14 40 7A 00 40 FF 
  1179)      1239.7  Rx         0085  8  7C FF 80 00 FF 70 7D 01 
  1180)      1245.3  Rx         0217  8  00 00 00 00 00 00 00 00 
  1181)      1248.4  Rx         0041  8  20 D1 CE D4 66 09 00 00 
  1182)      1248.7  Rx         0085  8  7C FF 80 00 FE 80 7D 01 
  1183)      1249.6  Rx         0326  8  01 A0 02 87 01 D0 00 00 
  1184)      1250.1  Rx         0726  8  03 22 41 A9 00 00 00 00 
  1185)      1255.3  Rx         0076  8  3E 80 40 00 00 00 00 00 
  1186)      1255.5  Rx         0077  8  FF FF 0F FF 7F FF FF FF 
  1187)      1255.7  Rx         007D  8  C0 00 F6 90 00 1F 9F FF 
  1188)      1256.0  Rx         0083  8  00 E0 80 00 00 00 00 00 
  1189)      1256.3  Rx         0213  8  FF FF 00 00 80 13 FF 41 
  1190)      1256.7  Rx         0216  8  00 00 00 00 AA 00 00 00 
  1191)      1257.0  Rx         0217  8  00 00 00 00 00 00 00 00 
  1192)      1257.4  Rx         0415  8  00 00 D0 F8 0F FF 0F FF 
  1193)      1257.7  Rx         04B0  8  51 00 80 00 90 00 00 F6 
  1194)      1259.2  Rx         0082  8  82 00 14 40 7A 00 40 FF 
  1195)      1259.5  Rx         072E  8  07 62 41 A9 01 08 00 00 
  1196)      1259.7  Rx         0085  8  7C FF 80 00 FD 90 7D 01 
  1197)      1265.0  Rx         059E  8  9E 00 FF FF FF FF FF FF 
  1198)      1265.3  Rx         0217  8  00 00 00 00 00 00 00 00 
  1199)      1268.4  Rx         0041  8  20 D1 CE D4 66 09 00 00 
  1200)      1268.6  Rx         042C  8  84 02 00 00 38 B0 00 00 
  1201)      1268.8  Rx         0085  8  7C FF 80 00 FC A0 7D 01 
  1202)      1271.1  Rx         0726  8  03 22 41 A9 00 00 00 00 
  1203)      1275.2  Rx         0076  8  3E 80 40 00 00 00 00 00 
  1204)      1275.5  Rx         0077  8  FF FF 0F FF 7F FF FF FF 
  1205)      1275.8  Rx         02F1  8  00 00 50 00 50 FE 00 C0 
  1206)      1276.0  Rx         007D  8  C0 00 F5 A0 00 1F 8F FF 
  1207)      1276.2  Rx         0213  8  FF FF 00 00 80 13 FF 41 
  1208)      1276.5  Rx         0386  8  00 00 00 00 00 00 00 00 
  1209)      1276.7  Rx         0216  8  00 00 00 00 AA 00 00 00 
  1210)      1277.0  Rx         0217  8  00 00 00 00 00 00 00 00 
  1211)      1277.2  Rx         0415  8  00 00 D4 F7 0F FF 0F FF 
  1212)      1277.5  Rx         0430  8  02 00 82 08 FF 01 13 91 
  1213)      1277.7  Rx         0434  8  26 59 14 09 0F FF 02 20 
  1214)      1277.9  Rx         0435  8  28 20 10 91 4E 20 09 02 
  1215)      1278.2  Rx         0439  8  00 00 05 00 00 00 00 00 
  1216)      1278.4  Rx         04B0  8  51 00 80 00 A0 00 00 F5 
  1217)      1278.8  Rx         0242  8  03 8B 1F 7D C3 00 03 01 
  1218)      1279.1  Rx         0082  8  82 00 14 40 7A 00 40 FF 
  1219)      1279.4  Rx         0085  8  7C FF 80 00 FB B0 7D 01 
  1220)      1279.6  Rx         072E  8  07 62 41 A9 01 08 00 00 
  1221)      1285.3  Rx         0217  8  00 00 00 00 00 00 00 00 
  1222)      1288.6  Rx         0041  8  20 D1 CE D4 66 09 00 00 
  1223)      1288.8  Rx         0085  8  7C FF 80 00 FA C0 7D 01 
  1224)      1289.0  Rx         0331  8  C0 2C D8 A2 02 B7 08 04 
  1225)      1291.0  Rx         0726  8  03 22 41 A9 00 00 00 00 
  1226)      1295.3  Rx         0076  8  3E 80 40 00 00 00 00 00 
  1227)      1295.5  Rx         0077  8  FF FF 0F FF 7F FF FF FF 
  1228)      1295.7  Rx         007D  8  C0 00 F4 B0 00 1F 9F FF 
  1229)      1296.0  Rx         0213  8  FF FF 00 00 80 13 FF 41 
  1230)      1296.5  Rx         0216  8  00 00 00 00 AA 00 00 00 
  1231)      1296.7  Rx         0217  8  00 00 00 00 00 00 00 00 
  1232)      1297.2  Rx         0415  8  00 00 D8 F6 0F FF 0F FF 
  1233)      1297.4  Rx         0416  8  4A 40 F4 08 01 02 00 00 
  1234)      1297.7  Rx         04B0  8  51 00 80 00 B0 00 00 F4 
  1235)      1299.1  Rx         0082  8  82 00 14 40 7A 00 40 FF 
  1236)      1299.4  Rx         072E  8  07 62 41 A9 01 08 00 00 
  1237)      1299.7  Rx         0085  8  7C FF 80 00 F9 D0 7D 01 
  1238)      1299.9  Rx         03C8  8  00 00 00 00 00 00 50 00 
  1239)      1300.3  Rx         03E0  8  00 00 00 00 80 00 00 00 
  1240)      1302.2  Rx         0455  8  00 00 00 00 00 00 00 00 
  1241)      1305.2  Rx         0217  8  00 00 00 00 00 00 00 00 
  1242)      1305.7  Rx         05C7  8  C7 00 FF FF FF FF FF FF 
  1243)      1308.4  Rx         0041  8  20 D1 CE D4 66 09 00 00 
  1244)      1308.7  Rx         0085  8  7C FF 80 00 F8 E0 7D 01 
  1245)      1311.0  Rx         0726  8  03 22 41 A9 00 00 00 00 
  1246)      1315.5  Rx         0076  8  3E 80 40 00 00 00 00 00 
  1247)      1315.7  Rx         0077  8  FF FF 0F FF 7F FF FF FF 
  1248)      1316.0  Rx         007D  8  C0 00 F3 C0 00 1F 9F FF 
  1249)      1316.3  Rx         0213  8  FF FF 00 00 80 13 FF 41 
  1250)      1316.7  Rx         0216  8  00 00 00 00 AA 00 00 00 
  1251)      1316.9  Rx         0217  8  00 00 00 00 00 00 00 00 
  1252)      1317.2  Rx         0415  8  00 00 DC F5 0F FF 0F FF 
  1253)      1317.4  Rx         04B0  8  51 00 80 00 C0 00 00 F3 
  1254)      1318.3  Rx         004A  8  02 00 00 00 00 00 00 00 
  1255)      1318.5  Rx         004B  8  00 C0 D8 D8 D8 D8 C0 00 
  1256)      1318.8  Rx         0242  8  03 8B 1F 7D C3 00 03 01 
  1257)      1319.0  Rx         004C  8  60 AF FF 00 00 00 00 00 
  1258)      1319.2  Rx         03DA  8  01 00 00 00 00 00 00 00 
  1259)      1319.5  Rx         0082  8  82 00 14 40 7A 00 40 FF 
  1260)      1319.8  Rx         0085  8  7C FF 80 00 F7 F0 7D 01 
  1261)      1320.0  Rx         040A  8  C1 01 4A 5A 32 48 35 35 
  1262)      1320.2  Rx         042C  8  84 02 00 00 38 B0 00 00 
  1263)      1320.4  Rx         072E  8  07 62 41 A9 01 08 00 00 
  1264)      1325.3  Rx         0217  8  00 00 00 00 00 00 00 00 
  1265)      1328.4  Rx         0041  8  20 D1 CE D4 66 09 00 00 
  1266)      1328.6  Rx         0085  8  7C FF 80 00 06 00 7D 01 
  1267)      1330.4  Rx         0092  8  6F B7 6F 9A 73 5C D0 48 
  1268)      1332.1  Rx         0726  8  03 22 41 A9 00 00 00 00 
  1269)      1335.3  Rx         0076  8  3E 80 40 00 00 00 00 00 
  1270)      1335.5  Rx         0077  8  FF FF 0F FF 7F FF FF FF 
  1271)      1335.8  Rx         007D  8  C0 00 F2 D0 00 1F AF FF 
  1272)      1336.0  Rx         0213  8  FF FF 00 00 80 13 FF 41 
  1273)      1336.5  Rx         0216  8  00 00 00 00 AA 00 00 00 
  1274)      1336.7  Rx         0217  8  00 00 00 00 00 00 00 00 
  1275)      1337.0  Rx         0415  8  00 00 E0 F4 0F FF 0F FF 
  1276)      1337.2  Rx         04B0  8  51 00 80 00 D0 00 00 F2 
  1277)      1339.1  Rx         0082  8  82 00 14 40 7A 00 40 FF 
  1278)      1339.4  Rx         072E  8  07 62 41 A9 01 08 00 00 
  1279)      1339.6  Rx         0085  8  7C FF 80 00 05 10 7D 01 
  1280)      1345.3  Rx         0217  8  00 00 00 00 00 00 00 00 
  1281)      1348.5  Rx         0085  8  7C FF 80 00 04 20 7D 01 
  1282)      1348.7  Rx         0041  8  20 D1 CE D4 66 09 00 00 
  1283)      1349.6  Rx         0326  8  01 A0 02 87 01 D0 00 00 
  1284)      1351.1  Rx         0726  8  03 22 41 A9 00 00 00 00 
  1285)      1355.3  Rx         0083  8  00 E0 80 00 00 00 00 00 
  1286)      1355.5  Rx         0076  8  3E 80 40 00 00 00 00 00 
  1287)      1355.8  Rx         0077  8  FF FF 0F FF 7F FF FF FF 
  1288)      1356.0  Rx         007D  8  C0 00 F1 E0 00 1F AF FF 
  1289)      1356.3  Rx         0213  8  FF FF 00 00 80 13 FF 41 
  1290)      1356.7  Rx         0216  8  00 00 00 00 AA 00 00 00 
  1291)      1357.0  Rx         0217  8  00 00 00 00 00 00 00 00 
  1292)      1357.4  Rx         0415  8  00 00 E4 F3 0F FF 0F FF 
  1293)      1357.7  Rx         04B0  8  51 00 80 00 E0 00 00 F1 
  1294)      1358.6  Rx         0242  8  03 8B 1F 7D C3 00 03 01 
  1295)      1359.3  Rx         072E  8  07 62 41 A9 01 08 00 00 
  1296)      1359.6  Rx         0082  8  82 00 14 40 7A 00 40 FF 
  1297)      1359.8  Rx         0085  8  7C FF 80 00 03 30 7D 01 
  1298)      1365.3  Rx         0217  8  00 00 00 00 00 00 00 00 
  1299)      1368.4  Rx         0041  8  20 D1 CE D4 66 09 00 00 
  1300)      1368.7  Rx         0331  8  C0 2C D8 A2 02 B7 08 04 
  1301)      1368.9  Rx         0085  8  7C FF 80 00 02 40 7D 01 
  1302)      1369.2  Rx         03B6  8  08 00 04 00 00 00 00 00 
  1303)      1369.4  Rx         03B7  8  00 00 02 00 63 B9 63 C7 
  1304)      1369.6  Rx         042C  8  84 02 00 00 38 B0 00 00 
  1305)      1370.1  Rx         0726  8  03 22 41 A9 00 00 00 00 
  1306)      1375.3  Rx         0076  8  3E 80 40 00 00 00 00 00 
  1307)      1375.6  Rx         0077  8  FF FF 0F FF 7F FF FF FF 
  1308)      1375.8  Rx         0430  8  02 00 82 08 FF 01 13 91 
  1309)      1376.0  Rx         007D  8  C0 00 F0 F0 00 1F AF FF 
  1310)      1376.3  Rx         0213  8  FF FF 00 00 80 13 FF 41 
  1311)      1376.5  Rx         0434  8  26 5B 14 09 0F FF 02 24 
  1312)      1376.8  Rx         0216  8  00 00 00 00 AA 00 00 00 
  1313)      1377.0  Rx         0217  8  00 00 00 00 00 00 00 00 
  1314)      1377.3  Rx         0415  8  00 00 E8 F2 0F FF 0F FF 
  1315)      1377.5  Rx         0435  8  7C 70 18 D9 4E 20 09 02 
  1316)      1377.7  Rx         04B0  8  51 00 80 00 F0 00 00 F0 
  1317)      1379.2  Rx         0082  8  82 00 14 40 7A 00 40 FF 
  1318)      1379.4  Rx         0085  8  7C FF 80 00 01 50 7D 01 
  1319)      1379.7  Rx         072E  8  07 62 41 A9 01 08 00 00 
  1320)      1385.3  Rx         0217  8  00 00 00 00 00 00 00 00 
  1321)      1388.4  Rx         0041  8  20 D1 CE D4 66 09 00 00 
  1322)      1388.7  Rx         0085  8  7C FF 80 00 00 60 7D 01 
  1323)      1391.1  Rx         0726  8  03 22 41 A9 00 00 00 00 
  1324)      1395.3  Rx         0076  8  3E 80 40 00 00 00 00 00 
  1325)      1395.5  Rx         0077  8  FF FF 0F FF 7F FF FF FF 
  1326)      1395.8  Rx         007D  8  C0 00 FF 00 00 1F 8F FF 
  1327)      1396.0  Rx         0213  8  FF FF 00 00 80 13 FF 41 
  1328)      1396.5  Rx         0216  8  00 00 00 00 AA 00 00 00 
  1329)      1396.8  Rx         0217  8  00 00 00 00 00 00 00 00 
  1330)      1397.1  Rx         0415  8  00 00 EC F1 0F FF 0F FF 
  1331)      1397.3  Rx         0416  8  4B 40 F3 08 01 02 00 00 
  1332)      1397.6  Rx         04B0  8  51 00 80 00 00 00 00 FF 
  1333)      1398.6  Rx         0242  8  03 8B 1F 7D C3 00 03 01 
  1334)      1399.2  Rx         0082  8  82 00 14 40 7A 00 40 FF 
  1335)      1399.4  Rx         072E  8  07 62 41 A9 01 08 00 00 
  1336)      1399.6  Rx         0085  8  7C FF 80 00 FF 70 7D 01 
  1337)      1402.3  Rx         0455  8  00 00 00 00 00 00 00 00 
  1338)      1405.3  Rx         0217  8  00 00 00 00 00 00 00 00 
  1339)      1408.6  Rx         0041  8  20 D1 CE D4 66 09 00 00 
  1340)      1408.8  Rx         0085  8  7C FF 80 00 FE 80 7D 01 
  1341)      1410.1  Rx         0726  8  03 22 41 A9 00 00 00 00 
  1342)      1415.3  Rx         0076  8  3E 80 40 00 00 00 00 00 
  1343)      1415.5  Rx         0077  8  FF FF 0F FF 7F FF FF FF 
  1344)      1415.8  Rx         007D  8  C0 00 FE 10 00 1F 7F FF 
  1345)      1416.1  Rx         0213  8  FF FF 00 00 80 13 FF 41 
  1346)      1416.5  Rx         0216  8  00 00 00 00 AA 00 00 00 
  1347)      1416.8  Rx         0217  8  00 00 00 00 00 00 00 00 
  1348)      1417.0  Rx         0415  8  00 00 F0 F0 0F FF 0F FF 
  1349)      1417.3  Rx         04B0  8  51 00 80 00 10 00 00 FE 
  1350)      1418.3  Rx         004A  8  02 00 00 00 00 00 00 00 
  1351)      1418.5  Rx         004B  8  00 C0 D8 D8 D8 D8 C0 00 
  1352)      1418.8  Rx         042C  8  84 02 00 00 38 B0 00 00 
  1353)      1419.0  Rx         004C  8  60 AF FF 00 00 00 00 00 
  1354)      1419.3  Rx         0082  8  82 00 14 40 7A 00 40 FF 
  1355)      1419.5  Rx         072E  8  07 62 41 A9 01 08 00 00 
  1356)      1419.7  Rx         0085  8  7C FF 80 00 FD 90 7D 01 
  1357)      1425.3  Rx         0217  8  00 00 00 00 00 00 00 00 
  1358)      1428.4  Rx         0041  8  20 D1 CE D4 66 09 00 00 
  1359)      1428.7  Rx         0085  8  7C FF 80 00 FC A0 7D 01 
  1360)      1431.1  Rx         0726  8  03 22 41 A9 00 00 00 00 
  1361)      1435.3  Rx         0076  8  3E 80 40 00 00 00 00 00 
  1362)      1435.6  Rx         0077  8  FF FF 0F FF 7F FF FF FF 
  1363)      1435.8  Rx         0092  8  6F B5 6F 99 73 61 9C 7A 
  1364)      1436.0  Rx         007D  8  C0 00 FD 20 00 1F 9F FF 
  1365)      1436.3  Rx         0213  8  FF FF 00 00 80 13 FF 41 
  1366)      1436.5  Rx         0216  8  00 00 00 00 AA 00 00 00 
  1367)      1436.8  Rx         0217  8  00 00 00 00 00 00 00 00 
  1368)      1437.1  Rx         0415  8  00 00 F4 EF 0F FF 0F FF 
  1369)      1437.3  Rx         04B0  8  51 00 80 00 20 00 00 FD 
  1370)      1438.7  Rx         0242  8  03 8B 1F 7D C3 00 03 01 
  1371)      1439.2  Rx         0082  8  82 00 14 40 7A 00 40 FF 
  1372)      1439.5  Rx         072E  8  07 62 41 A9 01 08 00 00 
  1373)      1439.7  Rx         0085  8  7C FF 80 00 FB B0 7D 01 
  1374)      1445.3  Rx         0217  8  00 00 00 00 00 00 00 00 
  1375)      1448.4  Rx         0041  8  20 D1 CE D4 66 09 00 00 
  1376)      1448.7  Rx         0085  8  7C FF 80 00 FA C0 7D 01 
  1377)      1449.6  Rx         0326  8  01 A0 02 87 01 D0 00 00 
  1378)      1451.1  Rx         0726  8  03 22 40 F0 00 00 00 00 
  1379)      1455.2  Rx         0083  8  00 E0 80 00 00 00 00 00 
  1380)      1455.5  Rx         0076  8  3E 80 40 00 00 00 00 00 
  1381)      1455.7  Rx         0077  8  FF FF 0F FF 7F FF FF FF 
  1382)      1456.0  Rx         007D  8  C0 00 FC 30 00 1F AF FF 
  1383)      1456.3  Rx         0213  8  FF FF 00 00 80 13 FF 41 
  1384)      1456.7  Rx         0216  8  00 00 00 00 AA 00 00 00 
  1385)      1457.0  Rx         0217  8  00 00 00 00 00 00 00 00 
  1386)      1457.5  Rx         0415  8  00 00 F8 EE 0F FF 0F FF 
  1387)      1457.7  Rx         04B0  8  51 00 80 00 30 00 00 FC 
  1388)      1459.3  Rx         072E  8  04 62 40 F0 02 00 00 00 
  1389)      1459.5  Rx         0082  8  82 00 14 40 7A 00 40 FF 
  1390)      1459.8  Rx         0085  8  7C FF 80 00 F9 D0 7D 01 
  1391)      1465.3  Rx         0217  8  00 00 00 00 00 00 00 00 
  1392)      1468.5  Rx         0085  8  7C FF 80 00 F8 E0 7D 01 
  1393)      1468.8  Rx         0041  8  20 D1 CE D4 66 09 00 00 
  1394)      1469.0  Rx         042C  8  84 02 00 00 38 B0 00 00 
  1395)      1470.2  Rx         0726  8  03 22 40 F4 00 00 00 00 
  1396)      1475.3  Rx         0076  8  3E 80 40 00 00 00 00 00 
  1397)      1475.6  Rx         0077  8  FF FF 0F FF 7F FF FF FF 
  1398)      1475.8  Rx         0430  8  02 00 82 08 FF 01 13 91 
  1399)      1476.1  Rx         007D  8  C0 00 FB 40 00 1F BF FF 
  1400)      1476.3  Rx         0213  8  FF FF 00 00 80 13 FF 41 
  1401)      1476.6  Rx         0434  8  26 5B 14 09 0F FF 02 20 
  1402)      1476.8  Rx         0216  8  00 00 00 00 AA 00 00 00 
  1403)      1477.0  Rx         0217  8  00 00 00 00 00 00 00 00 
  1404)      1477.3  Rx         0415  8  00 00 FC ED 0F FF 0F FF 
  1405)      1477.5  Rx         0435  8  28 20 10 91 4E 20 09 02 
  1406)      1477.8  Rx         04B0  8  51 00 80 00 40 00 00 FB 
  1407)      1478.7  Rx         0242  8  03 8B 1F 7D C3 00 03 01 
  1408)      1479.3  Rx         0082  8  82 00 14 40 7A 00 40 FF 
  1409)      1479.5  Rx         0085  8  7C FF 80 00 F7 F0 7D 01 
  1410)      1479.7  Rx         072E  8  04 62 40 F4 02 00 00 00 
  1411)      1485.4  Rx         0217  8  00 00 00 00 00 00 00 00 
  1412)      1488.5  Rx         0041  8  20 D1 CE D4 66 09 00 00 
  1413)      1488.8  Rx         0085  8  7C FF 80 00 06 00 7D 01 
  1414)      1491.2  Rx         0726  8  03 22 C2 58 00 00 00 00 
  1415)      1495.3  Rx         0076  8  3E 80 40 00 00 00 00 00 
  1416)      1495.6  Rx         0077  8  FF FF 0F FF 7F FF FF FF 
  1417)      1495.8  Rx         007D  8  C0 00 FA 50 00 1F 7F FF 
  1418)      1496.1  Rx         0213  8  FF FF 00 00 80 13 FF 41 
  1419)      1496.5  Rx         0216  8  00 00 00 00 AA 00 00 00 
  1420)      1496.8  Rx         0217  8  00 00 00 00 00 00 00 00 
  1421)      1497.1  Rx         0415  8  00 00 C0 FC 0F FF 0F FF 
  1422)      1497.3  Rx         0416  8  4C 40 F2 08 01 02 00 00 
  1423)      1497.6  Rx         04B0  8  51 00 80 00 50 00 00 FA 
  1424)      1499.2  Rx         0082  8  82 00 14 40 7A 00 40 FF 
  1425)      1499.5  Rx         0085  8  7C FF 80 00 05 10 7D 01 
  1426)      1499.7  Rx         072E  8  07 62 C2 58 80 00 00 00 
  1427)      1502.3  Rx         0455  8  00 00 00 00 00 00 00 00 
  1428)      1505.3  Rx         0217  8  00 00 00 00 00 00 00 00 
  1429)      1508.5  Rx         0041  8  20 D1 CE D4 66 09 00 00 
  1430)      1508.8  Rx         0085  8  7C FF 80 00 04 20 7D 01 
  1431)      1511.2  Rx         0726  8  03 22 C2 58 00 00 00 00 
  1432)      1515.3  Rx         0076  8  3E 80 40 00 00 00 00 00 
  1433)      1515.6  Rx         0077  8  FF FF 0F FF 7F FF FF FF 
  1434)      1515.8  Rx         007D  8  C0 00 F9 60 00 1F 8F FF 
  1435)      1516.1  Rx         0213  8  FF FF 00 00 80 13 FF 41 
  1436)      1516.6  Rx         0216  8  00 00 00 00 AA 00 00 00 
  1437)      1516.8  Rx         0217  8  00 00 00 00 00 00 00 00 
  1438)      1517.0  Rx         0415  8  00 00 C4 FB 0F FF 0F FF 
  1439)      1517.3  Rx         04B0  8  51 00 80 00 60 00 00 F9 
  1440)      1518.3  Rx         004A  8  02 00 00 00 00 00 00 00 
  1441)      1518.5  Rx         004B  8  00 C0 D8 D8 D8 D8 C0 00 
  1442)      1518.8  Rx         0242  8  03 8B 1F 7D C3 00 03 01 
  1443)      1519.0  Rx         004C  8  60 AF FF 00 00 00 00 00 
  1444)      1519.3  Rx         040A  8  C1 02 32 34 30 33 33 FF 
  1445)      1519.5  Rx         0082  8  82 00 14 40 7A 00 40 FF 
  1446)      1519.8  Rx         0085  8  7C FF 80 00 03 30 7D 01 
  1447)      1520.0  Rx         042C  8  84 02 00 00 38 B0 00 00 
  1448)      1520.2  Rx         072E  8  07 62 C2 58 80 00 00 00 
  1449)      1525.4  Rx         0217  8  00 00 00 00 00 00 00 00 
  1450)      1528.6  Rx         0041  8  20 D1 CE D4 66 09 00 00 
  1451)      1528.9  Rx         0085  8  7C FF 80 00 02 40 7D 01 
  1452)      1531.2  Rx         0726  8  03 22 C2 58 00 00 00 00 
  1453)      1535.3  Rx         0076  8  3E 80 40 00 00 00 00 00 
  1454)      1535.6  Rx         0077  8  FF FF 0F FF 7F FF FF FF 
  1455)      1535.8  Rx         007D  8  C0 00 F8 70 00 1F 8F FF 
  1456)      1536.1  Rx         0213  8  FF FF 00 00 80 13 FF 41 
  1457)      1536.6  Rx         0216  8  00 00 00 00 AA 00 00 00 
  1458)      1536.8  Rx         0217  8  00 00 00 00 00 00 00 00 
  1459)      1537.1  Rx         0415  8  00 00 C8 FA 0F FF 0F FF 
  1460)      1537.3  Rx         04B0  8  51 00 80 00 70 00 00 F8 
  1461)      1538.7  Rx         0084  8  18 00 01 46 2F 12 0F 00 
  1462)      1539.3  Rx         0082  8  82 00 14 40 7A 00 40 FF 
  1463)      1539.5  Rx         072E  8  07 62 C2 58 80 00 00 00 
  1464)      1539.7  Rx         0085  8  7C FF 80 00 01 50 7D 01 
  1465)      1540.7  Rx         0092  8  6F B5 6F 9A 73 61 64 B1 
  1466)      1545.4  Rx         0217  8  00 00 00 00 00 00 00 00 
  1467)      1548.5  Rx         0041  8  20 D1 CE D4 66 09 00 00 
  1468)      1548.7  Rx         0085  8  7C FF 80 00 00 60 7D 01 
  1469)      1549.7  Rx         0326  8  01 A0 02 88 01 D0 00 00 
  1470)      1551.2  Rx         0726  8  03 22 C2 58 00 00 00 00 
  1471)      1555.2  Rx         0083  8  00 E0 80 00 00 00 00 00 
  1472)      1555.4  Rx         0076  8  3E 80 40 00 00 00 00 00 
  1473)      1555.7  Rx         0077  8  FF FF 0F FF 7F FF FF FF 
  1474)      1555.9  Rx         007D  8  C0 00 F7 80 00 1F 9F FF 
  1475)      1556.2  Rx         0213  8  FF FF 00 00 80 13 FF 41 
  1476)      1556.7  Rx         0216  8  00 00 00 00 AA 00 00 00 
  1477)      1556.9  Rx         0217  8  00 00 00 00 00 00 00 00 
  1478)      1557.4  Rx         0415  8  00 00 CC F9 0F FF 0F FF 
  1479)      1557.6  Rx         04B0  8  51 00 80 00 80 00 00 F7 
  1480)      1558.8  Rx         0242  8  03 8B 1F 7D C3 00 03 01 
  1481)      1559.3  Rx         0082  8  82 00 14 40 7A 00 40 FF 
  1482)      1559.5  Rx         0085  8  7C FF 80 00 FF 70 7D 01 
  1483)      1559.8  Rx         072E  8  07 62 C2 58 80 00 00 00 
  1484)      1565.4  Rx         0217  8  00 00 00 00 00 00 00 00 
  1485)      1568.5  Rx         0041  8  20 D1 CE D4 66 09 00 00 
  1486)      1568.7  Rx         042C  8  84 02 00 00 38 B0 00 00 
  1487)      1569.0  Rx         0085  8  7C FF 80 00 FE 80 7D 01 
  1488)      1571.2  Rx         0726  8  03 22 C2 58 00 00 00 00 
  1489)      1575.3  Rx         0076  8  3E 80 40 00 00 00 00 00 
  1490)      1575.6  Rx         0077  8  FF FF 0F FF 7F FF FF FF 
  1491)      1575.8  Rx         0430  8  02 00 82 08 FF 01 13 91 
  1492)      1576.0  Rx         007D  8  C0 00 F6 90 00 1F BF FF 
  1493)      1576.3  Rx         0213  8  FF FF 00 00 80 13 FF 41 
  1494)      1576.6  Rx         0434  8  26 5B 14 0A 0F FF 02 20 
  1495)      1576.8  Rx         0216  8  00 00 00 00 AA 00 00 00 
  1496)      1577.0  Rx         0217  8  00 00 00 00 00 00 00 00 
  1497)      1577.3  Rx         0415  8  00 00 D0 F8 0F FF 0F FF 
  1498)      1577.5  Rx         0435  8  28 20 18 99 4E 20 09 02 
  1499)      1577.7  Rx         04B0  8  51 00 80 00 90 00 00 F6 
  1500)      1579.2  Rx         0082  8  82 00 14 40 7A 00 40 FF 
  1501)      1579.5  Rx         072E  8  07 62 C2 58 80 00 00 00 
  1502)      1579.7  Rx         0085  8  7C FF 80 00 FD 90 7D 01 
  1503)      1585.3  Rx         0217  8  00 00 00 00 00 00 00 00 
  1504)      1588.6  Rx         0041  8  20 D1 CE D4 66 09 00 00 
  1505)      1588.9  Rx         0085  8  7C FF 80 00 FC A0 7D 01 
  1506)      1591.4  Rx         0726  8  03 22 C2 58 00 00 00 00 
  1507)      1595.3  Rx         0076  8  3E 80 40 00 00 00 00 00 
  1508)      1595.6  Rx         0077  8  FF FF 0F FF 7F FF FF FF 
