;$FILEVERSION=1.1
;$STARTTIME=45860.7961622454
;
;   Start time: 7/22/2025 19:06:28.418.0
;   Generated by PCAN-View v4.3.4.615
;
;   Message Number
;   |         Time Offset (ms)
;   |         |        Type
;   |         |        |        ID (hex)
;   |         |        |        |     Data Length
;   |         |        |        |     |   Data Bytes (hex) ...
;   |         |        |        |     |   |
;---+--   ----+----  --+--  ----+---  +  -+ -- -- -- -- -- -- --
     1)         1.9  Rx         0076  8  3E 80 40 00 00 00 00 00 
     2)         2.1  Rx         0077  8  00 00 08 00 7F F8 01 F5 
     3)         2.4  Rx         007D  8  00 00 FF 00 00 1F A8 06 
     4)         2.6  Rx         0213  8  FF FF 00 00 80 11 FF 41 
     5)         3.1  Rx         0216  8  00 00 00 01 AA 00 00 00 
     6)         3.3  Rx         0167  8  72 80 00 00 00 1A 5B 00 
     7)         3.6  Rx         0204  8  C0 00 7D 01 CF 00 00 00 
     8)         3.8  Rx         0217  8  00 00 00 00 00 00 00 00 
     9)         4.1  Rx         0415  8  00 00 D4 F7 0F FE 0F FE 
    10)         4.3  Rx         043D  8  00 6B B5 88 00 00 00 00 
    11)         4.5  Rx         043E  8  00 96 10 8C 60 2F B2 B9 
    12)         4.8  Rx         04B0  8  9B 00 80 00 00 00 00 FF 
    13)         6.5  Rx         0085  8  7D 03 80 00 74 E0 FF FE 
    14)        11.8  Rx         0217  8  00 00 00 00 00 00 00 00 
    15)        13.2  Rx         0047  8  20 00 00 00 00 00 00 00 
    16)        13.5  Rx         0165  8  10 40 00 00 00 00 00 00 
    17)        13.7  Rx         0167  8  72 80 00 00 00 1A 5B 00 
    18)        13.9  Rx         0171  8  F0 E0 00 00 00 00 00 00 
    19)        14.2  Rx         0200  8  00 00 81 2B 81 2B 00 00 
    20)        14.4  Rx         0202  8  00 F7 28 00 60 00 00 00 
    21)        14.7  Rx         0204  8  C0 00 7D 01 D4 00 00 00 
    22)        14.9  Rx         0230  8  F0 1C 00 00 59 00 00 00 
    23)        15.1  Rx         042F  8  7D 0F E8 4E 26 A8 00 00 
    24)        16.9  Rx         0082  8  84 00 14 38 A4 00 40 FF 
    25)        17.1  Rx         0085  8  7D 03 80 00 73 F0 FF FE 
    26)        17.6  Rx         0041  8  00 00 00 00 00 00 00 00 
    27)        17.9  Rx         0042  8  00 00 00 00 00 00 00 00 
    28)        21.2  Rx         0326  8  01 A0 02 68 01 D0 00 00 
    29)        21.9  Rx         0076  8  3E 80 40 00 00 00 00 00 
    30)        22.1  Rx         0077  8  00 00 08 03 7F F8 09 F7 
    31)        22.4  Rx         007D  8  00 00 FE 10 00 1F A8 00 
    32)        22.6  Rx         0213  8  FF FF 00 00 80 11 FF 41 
    33)        23.1  Rx         0216  8  00 00 00 01 AA 00 00 00 
    34)        23.3  Rx         0167  8  72 80 00 00 00 1A 5A 00 
    35)        23.6  Rx         0204  8  C0 00 7D 01 D7 00 00 00 
    36)        23.8  Rx         0217  8  00 00 00 00 00 00 00 00 
    37)        24.1  Rx         0415  8  00 00 D8 F6 0F FE 0F FE 
    38)        24.3  Rx         0416  8  51 00 FD 08 01 00 00 00 
    39)        24.6  Rx         04B0  8  9B 00 80 00 10 00 00 FE 
    40)        26.5  Rx         0085  8  7D 03 80 00 82 00 FF FE 
    41)        28.0  Rx         0083  8  00 E0 80 00 00 00 00 00 
    42)        31.8  Rx         0217  8  00 00 00 00 00 00 00 00 
    43)        33.2  Rx         0047  8  20 00 00 00 00 00 00 00 
    44)        33.5  Rx         0165  8  10 40 00 00 00 00 00 00 
    45)        33.7  Rx         0167  8  72 80 00 00 00 1A 5A 00 
    46)        34.0  Rx         0200  8  00 00 81 2B 81 2B 00 00 
    47)        34.2  Rx         0202  8  00 F5 38 00 60 00 00 00 
    48)        34.4  Rx         0204  8  C0 00 7D 01 D7 00 00 00 
    49)        34.7  Rx         0230  8  F0 1C 00 00 59 00 00 00 
    50)        36.1  Rx         0430  8  02 00 E3 99 8A 01 13 91 
    51)        36.3  Rx         0434  8  27 E8 15 55 0F FF 00 20 
    52)        36.6  Rx         0435  8  28 20 18 9A C7 20 09 02 
    53)        36.9  Rx         0082  8  83 00 14 38 A4 00 40 FF 
    54)        37.2  Rx         0085  8  7D 03 80 00 81 10 FF FE 
    55)        37.6  Rx         0041  8  00 00 00 00 00 00 00 00 
    56)        37.9  Rx         0042  8  00 00 00 00 00 00 00 00 
    57)        38.1  Rx         0242  8  03 AC 24 72 E4 00 00 01 
    58)        38.4  Rx         040A  8  C0 00 00 B4 5E 08 76 00 
    59)        38.6  Rx         042C  8  8C 00 00 00 DA E0 00 00 
    60)        41.9  Rx         0076  8  3E 80 40 00 00 00 00 00 
    61)        42.2  Rx         0077  8  00 00 08 00 7F F7 FD F5 
    62)        42.4  Rx         007D  8  00 00 FD 20 00 1F 28 01 
    63)        42.7  Rx         0213  8  FF FF 00 00 80 11 FF 41 
    64)        43.1  Rx         0216  8  00 00 00 01 AA 00 00 00 
    65)        43.3  Rx         0167  8  72 80 00 00 00 1A 58 00 
    66)        43.6  Rx         0171  8  F0 E0 00 00 00 00 00 00 
    67)        43.9  Rx         0204  8  C0 00 7D 01 D3 00 00 00 
    68)        44.1  Rx         0217  8  00 00 00 00 00 00 00 00 
    69)        44.3  Rx         0415  8  00 00 DC F5 0F FE 0F FE 
    70)        44.6  Rx         042F  8  7D 0F E8 4E 26 A4 00 00 
    71)        44.8  Rx         04B0  8  9B 00 80 00 20 00 00 FD 
    72)        46.5  Rx         0085  8  7D 03 80 00 80 20 FF FE 
    73)        49.4  Rx         004A  8  02 00 00 00 00 00 00 00 
    74)        49.7  Rx         004B  8  00 C0 D8 D8 D8 D8 C0 00 
    75)        50.0  Rx         004C  8  20 AF FF 00 00 00 00 00 
    76)        51.8  Rx         0217  8  00 00 00 00 00 00 00 00 
    77)        53.5  Rx         0047  8  20 00 00 00 00 00 00 00 
    78)        53.7  Rx         0156  8  5E 5F 00 00 03 00 00 00 
    79)        54.0  Rx         0165  8  10 40 00 00 00 00 00 00 
    80)        54.2  Rx         0166  8  00 00 00 00 8A 75 00 00 
    81)        54.4  Rx         0167  8  72 80 00 00 00 1A 57 00 
    82)        54.7  Rx         0178  8  00 00 01 FD 0E 74 DE 74 
    83)        55.0  Rx         0179  8  00 00 00 00 84 00 02 7C 
    84)        55.2  Rx         0200  8  00 00 81 2E 81 2E 00 00 
    85)        55.4  Rx         0202  8  00 F3 48 00 60 00 00 00 
    86)        55.7  Rx         0204  8  C0 00 7D 01 D2 00 00 00 
    87)        55.9  Rx         0230  8  F0 1C 00 00 59 00 00 00 
    88)        56.1  Rx         0421  8  00 00 10 00 00 00 3A 00 
    89)        56.4  Rx         0424  8  00 FF C0 00 00 00 00 00 
    90)        56.7  Rx         042D  8  00 02 80 00 00 00 F0 00 
    91)        56.9  Rx         043D  8  00 6A B7 87 00 00 00 00 
    92)        57.1  Rx         0082  8  83 00 14 38 A5 00 40 FF 
    93)        57.4  Rx         0085  8  7D 03 80 00 7F 30 FF FE 
    94)        57.6  Rx         043E  8  00 96 10 8C 60 2F B2 BA 
    95)        57.9  Rx         0455  8  A0 00 00 00 00 00 00 00 
    96)        58.4  Rx         0041  8  00 00 00 00 00 00 00 00 
    97)        58.6  Rx         0042  8  00 00 00 00 00 00 00 00 
    98)        61.9  Rx         0076  8  3E 80 40 00 00 00 00 00 
    99)        62.2  Rx         0077  8  00 00 08 00 7F F8 01 F5 
   100)        62.4  Rx         007D  8  00 00 FC 30 00 1F F7 F9 
   101)        62.6  Rx         0213  8  FF FF 00 00 80 11 FF 41 
   102)        63.1  Rx         0216  8  00 00 00 01 AA 00 00 00 
   103)        63.4  Rx         0167  8  72 80 00 00 00 1A 57 00 
   104)        63.6  Rx         0204  8  C0 00 7D 01 D2 00 00 00 
   105)        63.9  Rx         0217  8  00 00 00 00 00 00 00 00 
   106)        64.1  Rx         0415  8  00 00 E0 F4 0F FE 0F FE 
   107)        64.3  Rx         04B0  8  9B 00 80 00 30 00 00 FC 
   108)        66.5  Rx         0085  8  7D 03 80 00 7E 40 FF FE 
   109)        71.8  Rx         0217  8  00 00 00 00 00 00 00 00 
   110)        73.2  Rx         0047  8  20 00 00 00 00 00 00 00 
   111)        73.5  Rx         0165  8  10 40 00 00 00 00 00 00 
   112)        73.7  Rx         0167  8  72 80 00 00 00 1A 56 00 
   113)        73.9  Rx         0171  8  F0 E0 00 00 00 00 00 00 
   114)        74.2  Rx         0200  8  00 00 81 30 81 30 00 00 
   115)        74.4  Rx         0202  8  00 F1 58 00 60 00 00 00 
   116)        74.7  Rx         0204  8  C0 00 7D 01 D3 00 00 00 
   117)        74.9  Rx         0230  8  F0 1C 00 00 59 00 00 00 
   118)        75.2  Rx         042F  8  7D 0F E8 4E 26 A0 00 00 
   119)        76.9  Rx         0082  8  84 00 14 38 A4 00 40 FF 
   120)        77.1  Rx         0085  8  7D 03 80 00 7D 50 FF FE 
   121)        77.6  Rx         0041  8  00 00 00 00 00 00 00 00 
   122)        77.8  Rx         0042  8  00 00 00 00 00 00 00 00 
   123)        78.0  Rx         0242  8  03 AC 24 71 E4 00 00 01 
   124)        80.9  Rx         0092  8  6F B4 6F 68 73 63 CA 7C 
   125)        81.9  Rx         0076  8  3E 80 40 00 00 00 00 00 
   126)        82.2  Rx         0077  8  00 00 08 02 7F F8 11 F6 
   127)        82.4  Rx         007D  8  00 00 FB 40 00 20 07 FB 
   128)        82.6  Rx         0213  8  FF FF 00 00 80 11 FF 41 
   129)        83.1  Rx         0216  8  00 00 00 01 AA 00 00 00 
   130)        83.4  Rx         0167  8  72 80 00 00 00 1A 56 00 
   131)        83.6  Rx         0204  8  C0 00 7D 01 D3 00 00 00 
   132)        83.9  Rx         0217  8  00 00 00 00 00 00 00 00 
   133)        84.1  Rx         0415  8  00 00 E4 F3 0F FE 0F FE 
   134)        84.3  Rx         04B0  8  9B 00 80 00 40 00 00 FB 
   135)        86.5  Rx         0085  8  7D 03 80 00 7C 60 FF FE 
   136)        87.5  Rx         042C  8  8C 00 00 00 DA E0 00 00 
   137)        91.7  Rx         0217  8  00 00 00 00 00 00 00 00 
   138)        93.1  Rx         0047  8  20 00 00 00 00 00 00 00 
   139)        93.4  Rx         0165  8  10 40 00 00 00 00 00 00 
   140)        93.6  Rx         0167  8  72 80 00 00 00 1A 56 00 
   141)        93.8  Rx         0200  8  00 00 81 2E 81 2E 00 00 
   142)        94.1  Rx         0202  8  00 EF 68 00 60 00 00 00 
   143)        94.4  Rx         0204  8  C0 00 7D 01 D3 00 00 00 
   144)        94.6  Rx         0230  8  F0 1C 00 00 59 00 00 00 
   145)        96.8  Rx         0082  8  83 00 14 38 A3 00 40 FF 
   146)        97.0  Rx         0085  8  7D 03 80 00 7B 70 FF FE 
   147)        97.5  Rx         0041  8  00 00 00 00 00 00 00 00 
   148)        97.7  Rx         0042  8  00 00 00 00 00 00 00 00 
   149)       101.8  Rx         0076  8  3E 80 40 00 00 00 00 00 
   150)       102.0  Rx         0077  8  00 00 08 01 7F F7 FD F6 
   151)       102.3  Rx         007D  8  00 00 FA 50 00 1F 78 08 
   152)       102.6  Rx         0213  8  FF FF 00 00 80 11 FF 41 
   153)       103.0  Rx         0216  8  00 00 00 01 AA 00 00 00 
   154)       103.2  Rx         0167  8  72 80 00 00 00 1A 56 00 
   155)       103.5  Rx         0171  8  F0 E0 00 00 00 00 00 00 
   156)       103.7  Rx         0204  8  C0 00 7D 01 CF 00 00 00 
   157)       104.0  Rx         0217  8  00 00 00 00 00 00 00 00 
   158)       104.2  Rx         0415  8  00 00 E8 F2 0F FE 0F FE 
   159)       104.5  Rx         042F  8  7D 0F E8 4E 26 A0 00 00 
   160)       104.7  Rx         043D  8  00 6A B7 86 00 00 00 00 
   161)       104.9  Rx         043E  8  00 96 10 8C 60 2F C2 BC 
   162)       105.2  Rx         04B0  8  9B 00 80 00 50 00 00 FA 
   163)       106.5  Rx         0085  8  7D 03 80 00 7A 80 FF FE 
   164)       111.7  Rx         0217  8  00 00 00 00 00 00 00 00 
   165)       113.1  Rx         0047  8  20 00 00 00 00 00 00 00 
   166)       113.4  Rx         0165  8  10 40 00 00 00 00 00 00 
   167)       113.6  Rx         0167  8  72 80 00 00 00 1A 56 00 
   168)       113.9  Rx         0200  8  00 00 81 36 81 36 00 00 
   169)       114.1  Rx         0202  8  00 ED 78 00 60 00 00 00 
   170)       114.4  Rx         0204  8  C0 00 7D 01 CF 00 00 00 
   171)       114.6  Rx         0230  8  F0 1C 00 00 59 00 00 00 
   172)       116.8  Rx         0082  8  84 00 14 38 A5 00 40 FF 
   173)       117.1  Rx         0085  8  7D 03 80 00 79 90 FF FE 
   174)       117.5  Rx         0041  8  00 00 00 00 00 00 00 00 
   175)       117.8  Rx         0042  8  00 00 00 00 00 00 00 00 
   176)       118.0  Rx         0242  8  03 AC 24 6D E4 00 00 01 
   177)       121.8  Rx         0076  8  3E 80 40 00 00 00 00 00 
   178)       122.0  Rx         0077  8  00 00 07 FF 7F F8 01 F7 
   179)       122.3  Rx         007D  8  00 00 F9 60 00 1F A8 00 
   180)       122.5  Rx         0213  8  FF FF 00 00 80 11 FF 41 
   181)       122.8  Rx         0326  8  01 A0 02 68 01 D0 00 00 
   182)       123.0  Rx         0216  8  00 00 00 01 AA 00 00 00 
   183)       123.2  Rx         0167  8  72 80 00 00 00 1A 56 00 
   184)       123.5  Rx         0204  8  C0 00 7D 01 CE 00 00 00 
   185)       123.8  Rx         0217  8  00 00 00 00 00 00 00 00 
   186)       124.0  Rx         0415  8  00 00 EC F1 0F FE 0F FE 
   187)       124.2  Rx         0416  8  52 00 FC 08 01 00 00 00 
   188)       124.5  Rx         04B0  8  9B 00 80 00 60 00 00 F9 
   189)       126.4  Rx         0085  8  7D 03 80 00 78 A0 FF FE 
   190)       127.9  Rx         0083  8  00 E0 80 00 00 00 00 00 
   191)       131.7  Rx         0217  8  00 00 00 00 00 00 00 00 
   192)       133.1  Rx         0047  8  20 00 00 00 00 00 00 00 
   193)       133.4  Rx         0165  8  10 40 00 00 00 00 00 00 
   194)       133.7  Rx         0167  8  72 80 00 00 00 1A 57 00 
   195)       133.9  Rx         0171  8  F0 E0 00 00 00 00 00 00 
   196)       134.1  Rx         0200  8  00 00 81 37 81 37 00 00 
   197)       134.4  Rx         0202  8  00 FB 08 00 60 00 00 00 
   198)       134.6  Rx         0204  8  C0 00 7D 01 CE 00 00 00 
   199)       134.8  Rx         0230  8  F0 1C 00 00 59 00 00 00 
   200)       135.1  Rx         042F  8  7D 0F E8 4E 26 A1 00 00 
   201)       136.1  Rx         0430  8  02 00 E3 99 8A 01 13 91 
   202)       136.3  Rx         0434  8  27 E8 15 55 0F FF 00 20 
   203)       136.6  Rx         0435  8  28 20 10 92 C7 20 09 02 
   204)       136.9  Rx         0082  8  84 00 14 38 A4 00 40 FF 
   205)       137.1  Rx         0085  8  7D 03 80 00 77 B0 FF FE 
   206)       137.6  Rx         0041  8  00 00 00 00 00 00 00 00 
   207)       137.8  Rx         0042  8  00 00 00 00 00 00 00 00 
   208)       138.1  Rx         042C  8  8C 00 00 00 DA E0 00 00 
   209)       141.8  Rx         0076  8  3E 80 40 00 00 00 00 00 
   210)       142.1  Rx         0077  8  00 00 07 FF 7F F8 05 F6 
   211)       142.3  Rx         007D  8  00 00 F8 70 00 1F E8 01 
   212)       142.5  Rx         0213  8  FF FF 00 00 80 11 FF 41 
   213)       143.0  Rx         0216  8  00 00 00 01 AA 00 00 00 
   214)       143.3  Rx         0167  8  72 80 00 00 00 1A 56 00 
   215)       143.5  Rx         0204  8  C0 00 7D 01 CD 00 00 00 
   216)       143.7  Rx         0217  8  00 00 00 00 00 00 00 00 
   217)       144.0  Rx         0415  8  00 00 F0 F0 0F FE 0F FE 
   218)       144.2  Rx         04B0  8  9B 00 80 00 70 00 00 F8 
   219)       146.7  Rx         0085  8  7D 03 80 00 76 C0 FF FE 
   220)       149.3  Rx         004A  8  02 00 00 00 00 00 00 00 
   221)       149.6  Rx         004B  8  00 C0 D8 D8 D8 D8 C0 00 
   222)       149.8  Rx         004C  8  20 AF FF 00 00 00 00 00 
   223)       151.7  Rx         0217  8  00 00 00 00 00 00 00 00 
   224)       153.2  Rx         0047  8  20 00 00 00 00 00 00 00 
   225)       153.4  Rx         0156  8  5E 5F 00 00 03 00 00 00 
   226)       153.6  Rx         0165  8  10 40 00 00 00 00 00 00 
   227)       153.9  Rx         0166  8  00 00 00 00 8A 75 00 00 
   228)       154.1  Rx         0167  8  72 80 00 00 00 1A 56 00 
   229)       154.3  Rx         0178  8  00 00 02 06 0E 74 DE 74 
   230)       154.6  Rx         0179  8  00 00 00 00 84 00 02 85 
   231)       154.9  Rx         0200  8  00 00 81 39 81 39 00 00 
   232)       155.1  Rx         0202  8  00 F9 18 00 60 00 00 00 
   233)       155.3  Rx         0204  8  C0 00 7D 01 D4 00 00 00 
   234)       155.6  Rx         0230  8  F0 1C 00 00 59 00 00 00 
   235)       155.8  Rx         0421  8  00 00 10 00 00 00 3A 00 
   236)       156.1  Rx         0424  8  00 FF C0 00 00 00 00 00 
   237)       156.3  Rx         042D  8  00 02 7F 00 00 00 F0 00 
   238)       156.6  Rx         043D  8  00 6A B6 86 00 00 00 00 
   239)       156.8  Rx         043E  8  00 96 10 8C 60 2F A2 B8 
   240)       157.0  Rx         0082  8  83 00 14 38 A3 00 40 FF 
   241)       157.2  Rx         0085  8  7D 03 80 00 75 D0 FF FE 
   242)       157.7  Rx         0455  8  A0 00 00 00 00 00 00 00 
   243)       157.9  Rx         0041  8  00 00 00 00 00 00 00 00 
   244)       158.2  Rx         0042  8  00 00 00 00 00 00 00 00 
   245)       158.4  Rx         0242  8  03 AC 24 72 E4 00 00 01 
   246)       161.8  Rx         0076  8  3E 80 40 00 00 00 00 00 
   247)       162.1  Rx         0077  8  00 00 08 01 7F F7 FD F5 
   248)       162.3  Rx         007D  8  00 00 F7 80 00 1F 98 02 
   249)       162.5  Rx         0213  8  FF FF 00 00 80 11 FF 41 
   250)       163.0  Rx         0216  8  00 00 00 01 AA 00 00 00 
   251)       163.3  Rx         0167  8  72 80 00 00 00 1A 56 00 
   252)       163.5  Rx         0171  8  F0 E0 00 00 00 00 00 00 
   253)       163.7  Rx         0204  8  C0 00 7D 01 D4 00 00 00 
   254)       164.0  Rx         0217  8  00 00 00 00 00 00 00 00 
   255)       164.2  Rx         0415  8  00 00 F4 EF 0F FE 0F FE 
   256)       164.5  Rx         042F  8  7D 0F E8 4E 26 A1 00 00 
   257)       164.7  Rx         04B0  8  9B 00 80 00 80 00 00 F7 
   258)       166.4  Rx         0085  8  7D 03 80 00 74 E0 FF FE 
   259)       171.7  Rx         0217  8  00 00 00 00 00 00 00 00 
   260)       173.2  Rx         0047  8  20 00 00 00 00 00 00 00 
   261)       173.5  Rx         0165  8  10 40 00 00 00 00 00 00 
   262)       173.7  Rx         0167  8  72 80 00 00 00 1A 55 00 
   263)       174.0  Rx         0200  8  00 00 81 25 81 25 00 00 
   264)       174.2  Rx         0202  8  00 F7 28 00 60 00 00 00 
   265)       174.5  Rx         0204  8  C0 00 7D 01 D9 00 00 00 
   266)       174.7  Rx         0230  8  F0 1C 00 00 59 00 00 00 
   267)       176.8  Rx         0082  8  84 00 14 38 A5 00 40 FF 
   268)       177.0  Rx         0085  8  7D 03 80 00 73 F0 FF FE 
   269)       177.5  Rx         0041  8  00 00 00 00 00 00 00 00 
   270)       177.8  Rx         0042  8  00 00 00 00 00 00 00 00 
   271)       181.8  Rx         0076  8  3E 80 40 00 00 00 00 00 
   272)       182.0  Rx         0077  8  00 00 08 00 7F F8 09 F6 
   273)       182.3  Rx         007D  8  00 00 F6 90 00 1F D7 FB 
   274)       182.6  Rx         0213  8  FF FF 00 00 80 11 FF 41 
   275)       183.0  Rx         0216  8  00 00 00 01 AA 00 00 00 
   276)       183.3  Rx         0167  8  72 80 00 00 00 1A 55 00 
   277)       183.5  Rx         0204  8  C0 00 7D 01 D9 00 00 00 
   278)       183.7  Rx         0217  8  00 00 00 00 00 00 00 00 
   279)       184.0  Rx         0415  8  00 00 F8 EE 0F FE 0F FE 
   280)       184.3  Rx         04B0  8  9B 00 80 00 90 00 00 F6 
   281)       186.4  Rx         0085  8  7D 03 80 00 82 00 FF FE 
   282)       186.6  Rx         0092  8  6F A9 6F 63 73 70 9B AE 
   283)       187.5  Rx         042C  8  8C 00 00 00 DA E0 00 00 
   284)       191.7  Rx         0217  8  00 00 00 00 00 00 00 00 
   285)       193.1  Rx         0047  8  20 00 00 00 00 00 00 00 
   286)       193.4  Rx         0165  8  10 40 00 00 00 00 00 00 
   287)       193.6  Rx         0167  8  72 80 00 00 00 1A 53 00 
   288)       193.9  Rx         0171  8  F0 E0 00 00 00 00 00 00 
   289)       194.1  Rx         0200  8  00 00 81 26 81 26 00 00 
   290)       194.4  Rx         0202  8  00 F5 38 00 60 00 00 00 
   291)       194.6  Rx         0204  8  C0 00 7D 01 D9 00 00 00 
   292)       194.9  Rx         0230  8  F0 1C 00 00 59 00 00 00 
   293)       195.1  Rx         042F  8  7D 0F E8 4E 26 9D 00 00 
   294)       196.8  Rx         0082  8  83 00 14 38 A3 00 40 FF 
   295)       197.1  Rx         0085  8  7D 03 80 00 81 10 FF FE 
   296)       197.5  Rx         0041  8  00 00 00 00 00 00 00 00 
   297)       197.7  Rx         0042  8  00 00 00 00 00 00 00 00 
   298)       198.0  Rx         0242  8  03 AC 24 6F E4 00 00 01 
   299)       201.8  Rx         0076  8  3E 80 40 00 00 00 00 00 
   300)       202.1  Rx         0077  8  00 00 08 00 7F F7 FD F6 
   301)       202.3  Rx         007D  8  00 00 F5 A0 00 1F 98 05 
   302)       202.6  Rx         0213  8  FF FF 00 00 80 11 FF 41 
   303)       203.0  Rx         0216  8  00 00 00 01 AA 00 00 00 
   304)       203.3  Rx         0167  8  72 80 00 00 00 1A 51 00 
   305)       203.5  Rx         0204  8  C0 00 7D 01 D5 00 00 00 
   306)       203.8  Rx         0217  8  00 00 00 00 00 00 00 00 
   307)       204.0  Rx         0415  8  00 00 FC ED 0F FE 0F FE 
   308)       204.3  Rx         043D  8  00 6A B6 87 00 00 00 00 
   309)       204.5  Rx         043E  8  00 96 10 8C 60 2F 72 B9 
   310)       204.7  Rx         04B0  8  9B 00 80 00 A0 00 00 F5 
   311)       206.4  Rx         0085  8  7D 03 80 00 80 20 FF FE 
   312)       211.7  Rx         0217  8  00 00 00 00 00 00 00 00 
   313)       213.1  Rx         0047  8  20 00 00 00 00 00 00 00 
   314)       213.4  Rx         0165  8  10 40 00 00 00 00 00 00 
   315)       213.7  Rx         0167  8  72 80 00 00 00 1A 51 00 
   316)       213.9  Rx         0200  8  00 00 81 2D 81 2D 00 00 
   317)       214.1  Rx         0202  8  00 F3 48 00 60 00 00 00 
   318)       214.4  Rx         0204  8  C0 00 7D 01 D5 00 00 00 
   319)       214.6  Rx         0230  8  F0 1C 00 00 59 00 00 00 
   320)       216.8  Rx         0082  8  83 00 14 38 A4 00 40 FF 
   321)       217.1  Rx         0085  8  7D 03 80 00 7F 30 FF FE 
   322)       217.6  Rx         0041  8  00 00 00 00 00 00 00 00 
   323)       217.8  Rx         0042  8  00 00 00 00 00 00 00 00 
   324)       221.7  Rx         0326  8  01 A0 02 68 01 D0 00 00 
   325)       221.9  Rx         0076  8  3E 80 40 00 00 00 00 00 
   326)       222.2  Rx         0077  8  00 00 07 FF 7F F8 01 F6 
   327)       222.4  Rx         007D  8  00 00 F4 B0 00 1F C7 FE 
   328)       222.7  Rx         0213  8  FF FF 00 00 80 11 FF 41 
   329)       223.0  Rx         0216  8  00 00 00 01 AA 00 00 00 
   330)       223.3  Rx         0167  8  72 80 00 00 00 1A 51 00 
   331)       223.5  Rx         0171  8  F0 E0 00 00 00 00 00 00 
   332)       223.8  Rx         0204  8  C0 00 7D 01 D7 00 00 00 
   333)       224.0  Rx         0217  8  00 00 00 00 00 00 00 00 
   334)       224.2  Rx         0415  8  00 00 C0 FC 0F FE 0F FE 
   335)       224.5  Rx         0416  8  53 00 FB 08 01 00 00 00 
   336)       224.7  Rx         042F  8  7D 0F E8 4E 26 98 00 00 
   337)       225.0  Rx         04B0  8  9B 00 80 00 B0 00 00 F4 
   338)       226.5  Rx         0085  8  7D 03 80 00 7E 40 FF FE 
   339)       227.2  Rx         0581  8  81 00 FF FF FF FF FF FF 
   340)       228.4  Rx         0083  8  00 E0 80 00 00 00 00 00 
   341)       231.7  Rx         0217  8  00 00 00 00 00 00 00 00 
   342)       233.2  Rx         0047  8  20 00 00 00 00 00 00 00 
   343)       233.4  Rx         0165  8  10 40 00 00 00 00 00 00 
   344)       233.6  Rx         0167  8  72 80 00 00 00 1A 4F 00 
   345)       233.9  Rx         0200  8  00 00 81 19 81 19 00 00 
   346)       234.1  Rx         0202  8  00 F1 58 00 60 00 00 00 
   347)       234.4  Rx         0204  8  C0 00 7D 01 E0 00 00 00 
   348)       234.6  Rx         0230  8  F0 1C 00 00 59 00 00 00 
   349)       235.3  Rx         059E  8  9E 00 FF FF FF FF FF FF 
   350)       236.0  Rx         02F1  8  00 00 10 00 50 FE 00 C0 
   351)       236.2  Rx         0386  8  00 00 00 00 00 00 00 00 
   352)       236.5  Rx         0430  8  02 00 E3 99 8A 01 13 91 
   353)       236.7  Rx         0434  8  27 E8 15 55 0F FF 00 20 
   354)       236.9  Rx         0435  8  28 20 18 9A C7 20 09 02 
   355)       237.2  Rx         0082  8  83 00 14 38 A5 00 40 FF 
   356)       237.4  Rx         0085  8  7D 03 80 00 7D 50 FF FE 
   357)       237.7  Rx         0041  8  00 00 00 00 00 00 00 00 
   358)       237.9  Rx         0042  8  00 00 00 00 00 00 00 00 
   359)       238.1  Rx         0242  8  03 AC 24 6E E4 00 00 01 
   360)       238.4  Rx         038D  8  20 00 00 00 00 00 00 00 
   361)       238.7  Rx         03B6  8  08 00 09 00 00 00 00 00 
   362)       238.9  Rx         03B7  8  00 00 01 00 60 50 62 3D 
   363)       239.1  Rx         03B8  8  FF FF FF FF 00 00 00 00 
   364)       239.4  Rx         03E3  8  00 01 04 11 80 00 00 00 
   365)       239.6  Rx         03EB  8  00 04 14 00 00 20 00 00 
   366)       239.9  Rx         040A  8  C1 00 31 46 41 36 50 38 
   367)       240.1  Rx         042C  8  8C 00 00 00 DA E0 00 00 
   368)       240.4  Rx         0439  8  00 00 05 00 00 00 00 00 
   369)       240.6  Rx         043C  8  32 10 39 48 2B E5 94 14 
   370)       240.8  Rx         0447  8  22 00 00 4B 00 00 00 00 
   371)       241.8  Rx         0076  8  3E 80 40 00 00 00 00 00 
   372)       242.1  Rx         0077  8  00 00 08 00 7F F8 0D F6 
   373)       242.3  Rx         007D  8  00 00 F3 C0 00 1F A8 01 
   374)       242.6  Rx         0213  8  FF FF 00 00 80 11 FF 41 
   375)       243.0  Rx         0216  8  00 00 00 01 AA 00 00 00 
   376)       243.3  Rx         0167  8  72 80 00 00 00 1A 4F 00 
   377)       243.5  Rx         0204  8  C0 00 7D 01 E0 00 00 00 
   378)       243.8  Rx         0217  8  00 00 00 00 00 00 00 00 
   379)       244.0  Rx         0415  8  00 00 C4 FB 0F FE 0F FE 
   380)       244.2  Rx         04B0  8  9B 00 80 00 C0 00 00 F3 
   381)       246.5  Rx         0085  8  7D 03 80 00 7C 60 FF FE 
   382)       249.3  Rx         004A  8  02 00 00 00 00 00 00 00 
   383)       249.5  Rx         004B  8  00 C0 D8 D8 D8 D8 C0 00 
   384)       249.8  Rx         004C  8  20 AF FF 00 00 00 00 00 
   385)       251.8  Rx         0217  8  00 00 00 00 00 00 00 00 
   386)       253.2  Rx         0047  8  20 00 00 00 00 00 00 00 
   387)       253.4  Rx         0156  8  5E 5F 00 00 03 00 00 00 
   388)       253.7  Rx         0165  8  10 40 00 00 00 00 00 00 
   389)       253.9  Rx         0166  8  00 00 00 00 8A 75 00 00 
   390)       254.1  Rx         0167  8  72 80 00 00 00 1A 4E 00 
   391)       254.4  Rx         0171  8  F0 E0 00 00 00 00 00 00 
   392)       254.6  Rx         0178  8  00 00 02 09 0E 74 DE 74 
   393)       254.9  Rx         0179  8  00 00 00 00 84 00 02 8B 
   394)       255.1  Rx         0200  8  00 00 81 16 81 16 00 00 
   395)       255.4  Rx         0202  8  00 EF 68 00 60 00 00 00 
   396)       255.6  Rx         0204  8  C0 00 7D 01 E2 00 00 00 
   397)       255.9  Rx         0230  8  F0 1C 00 00 59 00 00 00 
   398)       256.1  Rx         0421  8  00 00 10 00 00 00 3A 00 
   399)       256.4  Rx         0424  8  00 FF C0 00 00 00 00 00 
   400)       256.6  Rx         042D  8  00 02 7F 00 00 00 F0 00 
   401)       256.8  Rx         042F  8  7D 0F E8 4E 26 95 00 00 
   402)       257.1  Rx         0082  8  82 00 14 38 A4 00 40 FF 
   403)       257.3  Rx         0085  8  7D 03 80 00 7B 70 FF FE 
   404)       257.6  Rx         043D  8  00 69 B5 86 00 00 00 00 
   405)       257.8  Rx         0041  8  00 00 00 00 00 00 00 00 
   406)       258.1  Rx         0042  8  00 00 00 00 00 00 00 00 
   407)       258.3  Rx         043E  8  00 96 10 8C 60 2F 3A B8 
   408)       258.5  Rx         0455  8  A0 00 00 00 00 00 00 00 
   409)       261.9  Rx         0076  8  3E 80 40 00 00 00 00 00 
   410)       262.1  Rx         0077  8  00 00 08 03 7F F7 F9 F5 
   411)       262.3  Rx         007D  8  00 00 F2 D0 00 1F 68 05 
   412)       262.6  Rx         0213  8  FF FF 00 00 80 11 FF 41 
   413)       263.1  Rx         0216  8  00 00 00 01 AA 00 00 00 
   414)       263.3  Rx         0167  8  72 80 00 00 00 1A 4D 00 
   415)       263.5  Rx         0204  8  C0 00 7D 01 DE 00 00 00 
   416)       263.8  Rx         0217  8  00 00 00 00 00 00 00 00 
   417)       264.0  Rx         0415  8  00 00 C8 FA 0F FE 0F FE 
   418)       264.3  Rx         04B0  8  9B 00 80 00 D0 00 00 F2 
   419)       266.4  Rx         0085  8  7D 03 80 00 7A 80 FF FE 
   420)       271.7  Rx         0217  8  00 00 00 00 00 00 00 00 
   421)       273.2  Rx         0047  8  20 00 00 00 00 00 00 00 
   422)       273.4  Rx         0165  8  10 40 00 00 00 00 00 00 
   423)       273.6  Rx         0167  8  72 80 00 00 00 1A 4D 00 
   424)       273.9  Rx         0200  8  00 00 81 1D 81 1D 00 00 
   425)       274.2  Rx         0202  8  00 ED 78 00 60 00 00 00 
   426)       274.4  Rx         0204  8  C0 00 7D 01 DE 00 00 00 
   427)       274.6  Rx         0230  8  F0 1C 00 00 59 00 00 00 
   428)       276.8  Rx         0082  8  82 00 14 38 A7 00 40 FF 
   429)       277.1  Rx         0085  8  7D 03 80 00 79 90 FF FE 
   430)       277.5  Rx         0041  8  00 00 00 00 00 00 00 00 
   431)       277.8  Rx         0042  8  00 00 00 00 00 00 00 00 
   432)       278.0  Rx         0242  8  03 AC 24 6C E4 00 00 01 
   433)       278.3  Rx         05C7  8  C7 00 FF FF FF FF FF FF 
   434)       281.8  Rx         0076  8  3E 80 40 00 00 00 00 00 
   435)       282.0  Rx         0077  8  00 00 07 FE 7F F7 FD F5 
   436)       282.3  Rx         007D  8  00 00 F1 E0 00 1F B7 FB 
   437)       282.6  Rx         0213  8  FF FF 00 00 80 11 FF 41 
   438)       283.0  Rx         0216  8  00 00 00 01 AA 00 00 00 
   439)       283.3  Rx         0167  8  72 80 00 00 00 1A 4C 00 
   440)       283.5  Rx         0171  8  F0 E0 00 00 00 00 00 00 
   441)       283.8  Rx         0204  8  C0 00 7D 01 E1 00 00 00 
   442)       284.0  Rx         0217  8  00 00 00 00 00 00 00 00 
   443)       284.2  Rx         0415  8  00 00 CC F9 0F FE 0F FE 
   444)       284.5  Rx         042F  8  7D 0F E8 4E 26 91 00 00 
   445)       284.7  Rx         04B0  8  9B 00 80 00 E0 00 00 F1 
   446)       286.4  Rx         0085  8  7D 03 80 00 78 A0 FF FE 
   447)       287.5  Rx         03B4  8  40 11 11 FF 20 20 00 00 
   448)       287.7  Rx         042C  8  8C 00 00 00 DA E0 00 00 
   449)       290.8  Rx         0092  8  6F BD 6F 68 73 56 65 E5 
   450)       291.7  Rx         0217  8  00 00 00 00 00 00 00 00 
   451)       293.2  Rx         0047  8  20 00 00 00 00 00 00 00 
   452)       293.4  Rx         0165  8  10 40 00 00 00 00 00 00 
   453)       293.7  Rx         0167  8  72 80 00 00 00 1A 4B 00 
   454)       293.9  Rx         0200  8  00 00 81 18 81 18 00 00 
   455)       294.2  Rx         0202  8  00 FB 08 00 60 00 00 00 
   456)       294.4  Rx         0204  8  C0 00 7D 01 E1 00 00 00 
   457)       294.6  Rx         0230  8  F0 1C 00 00 59 00 00 00 
   458)       296.8  Rx         0082  8  82 00 14 38 A3 00 40 FF 
   459)       297.1  Rx         0085  8  7D 03 80 00 77 B0 FF FE 
   460)       297.5  Rx         0041  8  00 00 00 00 00 00 00 00 
   461)       297.7  Rx         0042  8  00 00 00 00 00 00 00 00 
   462)       298.0  Rx         03B5  8  00 C8 00 B1 00 C6 00 C8 
   463)       301.8  Rx         0076  8  3E 80 40 00 00 00 00 00 
   464)       302.1  Rx         0077  8  00 00 08 00 7F F8 11 F6 
   465)       302.3  Rx         007D  8  00 00 F0 F0 00 1F A7 FF 
   466)       302.6  Rx         0213  8  FF FF 00 00 80 11 FF 41 
   467)       303.0  Rx         0216  8  00 00 00 01 AA 00 00 00 
   468)       303.3  Rx         0167  8  72 80 00 00 00 1A 4B 00 
   469)       303.5  Rx         0204  8  C0 00 7D 01 E1 00 00 00 
   470)       303.8  Rx         0217  8  00 00 00 00 00 00 00 00 
   471)       304.0  Rx         0415  8  00 00 D0 F8 0F FE 0F FE 
   472)       304.2  Rx         043D  8  00 69 B5 85 00 00 00 00 
   473)       304.5  Rx         043E  8  00 96 10 8C 60 2E EA B9 
   474)       304.7  Rx         04B0  8  9B 00 80 00 F0 00 00 F0 
   475)       306.5  Rx         0085  8  7D 03 80 00 76 C0 FF FE 
   476)       307.5  Rx         0331  8  C0 00 75 A7 62 00 00 02 
   477)       311.7  Rx         0217  8  00 00 00 00 00 00 00 00 
   478)       313.2  Rx         0047  8  20 00 00 00 00 00 00 00 
   479)       313.4  Rx         0165  8  10 40 00 00 00 00 00 00 
   480)       313.7  Rx         0167  8  72 80 00 00 00 1A 4C 00 
   481)       313.9  Rx         0171  8  F0 E0 00 00 00 00 00 00 
   482)       314.1  Rx         0200  8  00 00 81 19 81 19 00 00 
   483)       314.4  Rx         0202  8  00 F9 18 00 60 00 00 00 
   484)       314.6  Rx         0204  8  C0 00 7D 01 E0 00 00 00 
   485)       314.9  Rx         0230  8  F0 1C 00 00 59 00 00 00 
   486)       315.1  Rx         042F  8  7D 0F E8 4E 26 90 00 00 
   487)       316.8  Rx         0082  8  81 00 14 38 A4 00 40 FF 
   488)       317.1  Rx         0085  8  7D 02 80 00 76 D0 FF FE 
   489)       317.5  Rx         0041  8  00 00 00 00 00 00 00 00 
   490)       317.8  Rx         0042  8  00 00 00 00 00 00 00 00 
   491)       318.0  Rx         0242  8  03 AC 24 6E E4 00 00 01 
   492)       318.3  Rx         03C7  8  00 00 08 06 00 00 00 00 
   493)       321.1  Rx         0326  8  01 A0 02 68 01 D0 00 00 
   494)       321.9  Rx         0076  8  3E 80 40 00 00 00 00 00 
   495)       322.1  Rx         0077  8  00 00 08 00 7F F8 05 F5 
   496)       322.4  Rx         007D  8  00 00 FF 00 00 20 28 02 
   497)       322.6  Rx         0213  8  FF FF 00 00 80 11 FF 41 
   498)       323.0  Rx         0216  8  00 00 00 01 AA 00 00 00 
   499)       323.3  Rx         0167  8  72 80 00 00 00 1A 4C 00 
   500)       323.5  Rx         0204  8  C0 00 7D 01 E3 00 00 00 
   501)       323.8  Rx         0217  8  00 00 00 00 00 00 00 00 
   502)       324.0  Rx         0415  8  00 00 D4 F7 0F FE 0F FE 
   503)       324.2  Rx         0416  8  54 00 FA 08 01 00 00 00 
   504)       324.5  Rx         04B0  8  9B 00 80 00 00 00 00 FF 
   505)       326.4  Rx         0085  8  7D 02 80 00 75 E0 FF FE 
   506)       327.8  Rx         0083  8  00 E0 80 00 00 00 00 00 
   507)       331.8  Rx         0217  8  00 00 00 00 00 00 00 00 
   508)       333.2  Rx         0047  8  20 00 00 00 00 00 00 00 
   509)       333.4  Rx         0165  8  10 40 00 00 00 00 00 00 
   510)       333.7  Rx         0167  8  72 80 00 00 00 1A 4C 00 
   511)       333.9  Rx         0200  8  00 00 81 1A 81 1A 00 00 
   512)       334.1  Rx         0202  8  00 F7 28 00 60 00 00 00 
   513)       334.4  Rx         0204  8  C0 00 7D 01 E3 00 00 00 
   514)       334.7  Rx         0230  8  F0 1C 00 00 59 00 00 00 
   515)       336.1  Rx         0430  8  02 00 E3 99 8A 01 13 91 
   516)       336.3  Rx         0434  8  27 E8 15 55 0F FF 00 20 
   517)       336.5  Rx         0435  8  28 20 10 92 C7 20 09 02 
   518)       336.9  Rx         0082  8  83 00 14 38 A5 00 40 FF 
   519)       337.1  Rx         0085  8  7D 02 80 00 74 F0 FF FE 
   520)       337.6  Rx         0041  8  00 00 00 00 00 00 00 00 
   521)       337.8  Rx         0042  8  00 00 00 00 00 00 00 00 
   522)       338.0  Rx         03B3  8  44 88 C0 0C 10 00 00 3A 
   523)       338.3  Rx         03C3  8  5C C8 00 01 00 00 01 00 
   524)       338.5  Rx         042C  8  8C 00 00 00 DA E0 00 00 
   525)       341.9  Rx         0076  8  3E 80 40 00 00 00 00 00 
   526)       342.1  Rx         0077  8  00 00 08 02 7F F8 05 F7 
   527)       342.3  Rx         007D  8  00 00 FE 10 00 1F F8 03 
   528)       342.6  Rx         0213  8  FF FF 00 00 80 11 FF 41 
   529)       343.1  Rx         0216  8  00 00 00 01 AA 00 00 00 
   530)       343.3  Rx         0167  8  72 80 00 00 00 1A 4A 00 
   531)       343.6  Rx         0171  8  F0 E0 00 00 00 00 00 00 
   532)       343.8  Rx         0204  8  C0 00 7D 01 E5 00 00 00 
   533)       344.0  Rx         0217  8  00 00 00 00 00 00 00 00 
   534)       344.3  Rx         0415  8  00 00 D8 F6 0F FE 0F FE 
   535)       344.5  Rx         042F  8  7D 0F E8 4E 26 8F 00 00 
   536)       344.8  Rx         04B0  8  9B 00 80 00 10 00 00 FE 
   537)       346.5  Rx         0085  8  7D 02 80 00 83 00 FF FE 
   538)       349.2  Rx         004A  8  02 00 00 00 00 00 00 00 
   539)       349.5  Rx         004B  8  00 C0 D8 D8 D8 D8 C0 00 
   540)       349.8  Rx         004C  8  20 AF FF 00 00 00 00 00 
   541)       351.8  Rx         0217  8  00 00 00 00 00 00 00 00 
   542)       353.2  Rx         0047  8  20 00 00 00 00 00 00 00 
   543)       353.4  Rx         0156  8  5E 5F 00 00 03 00 00 00 
   544)       353.7  Rx         0165  8  10 40 00 00 00 00 00 00 
   545)       353.9  Rx         0166  8  00 00 00 00 8A 75 00 00 
   546)       354.2  Rx         0167  8  72 80 00 00 00 1A 4A 00 
   547)       354.4  Rx         0178  8  00 00 02 04 0E 74 DE 74 
   548)       354.6  Rx         0179  8  00 00 00 00 84 00 02 92 
   549)       354.9  Rx         0200  8  00 00 81 11 81 11 00 00 
   550)       355.1  Rx         0202  8  00 F5 38 00 60 00 00 00 
   551)       355.4  Rx         0204  8  C0 00 7D 01 E5 00 00 00 
   552)       355.6  Rx         0230  8  F0 1C 00 00 59 00 00 00 
   553)       355.9  Rx         0421  8  00 00 10 00 00 00 3A 00 
   554)       356.1  Rx         0424  8  00 FF C0 00 00 00 00 00 
   555)       356.4  Rx         042D  8  00 02 7F 00 00 00 F0 00 
   556)       356.6  Rx         043D  8  00 69 B8 83 00 00 00 00 
   557)       356.8  Rx         043E  8  00 96 10 8C 60 2E BA BA 
   558)       357.1  Rx         0082  8  81 00 14 38 A4 00 40 FF 
   559)       357.3  Rx         0085  8  7D 02 80 00 82 10 FF FE 
   560)       357.6  Rx         03E2  8  00 00 00 00 80 00 00 00 
   561)       357.8  Rx         0041  8  00 00 00 00 00 00 00 00 
   562)       358.1  Rx         0042  8  00 00 00 00 00 00 00 00 
   563)       358.3  Rx         0242  8  03 AC 24 72 E4 00 00 01 
   564)       358.5  Rx         03EA  8  00 00 00 00 00 00 60 00 
   565)       358.8  Rx         0455  8  A0 00 00 00 00 00 00 00 
   566)       361.9  Rx         0076  8  3E 80 40 00 00 00 00 00 
   567)       362.1  Rx         0077  8  00 00 08 00 7F F7 F9 F7 
   568)       362.3  Rx         007D  8  00 00 FD 20 00 1F 98 03 
   569)       362.6  Rx         0213  8  FF FF 00 00 80 11 FF 41 
   570)       363.1  Rx         0216  8  00 00 00 01 AA 00 00 00 
   571)       363.3  Rx         0167  8  72 80 00 00 00 1A 4A 00 
   572)       363.5  Rx         0204  8  C0 00 7D 01 E5 00 00 00 
   573)       363.8  Rx         0217  8  00 00 00 00 00 00 00 00 
   574)       364.0  Rx         0415  8  00 00 DC F5 0F FE 0F FE 
   575)       364.3  Rx         04B0  8  9B 00 80 00 20 00 00 FD 
   576)       366.5  Rx         0085  8  7D 02 80 00 81 20 FF FE 
   577)       367.5  Rx         0084  8  19 00 00 CB 06 1D 13 00 
   578)       371.8  Rx         0217  8  00 00 00 00 00 00 00 00 
   579)       373.1  Rx         03DA  8  00 00 00 00 00 00 00 00 
   580)       373.3  Rx         0047  8  20 00 00 00 00 00 00 00 
   581)       373.6  Rx         0165  8  10 40 00 00 00 00 00 00 
   582)       373.8  Rx         0167  8  72 80 00 00 00 1A 4B 00 
   583)       374.0  Rx         0171  8  F0 E0 00 00 00 00 00 00 
   584)       374.3  Rx         0200  8  00 00 81 12 81 12 00 00 
   585)       374.5  Rx         0202  8  00 F3 48 00 60 00 00 00 
   586)       374.8  Rx         0204  8  C0 00 7D 01 EA 00 00 00 
   587)       375.0  Rx         0230  8  F0 1C 00 00 59 00 00 00 
   588)       375.3  Rx         042F  8  7D 0F E8 4E 26 8F 00 00 
   589)       376.9  Rx         0082  8  82 00 14 38 A4 00 40 FF 
   590)       377.1  Rx         0085  8  7D 02 80 00 80 30 FF FE 
   591)       377.5  Rx         0041  8  00 00 00 00 00 00 00 00 
   592)       377.8  Rx         0042  8  00 00 00 00 00 00 00 00 
   593)       381.8  Rx         0076  8  3E 80 40 00 00 00 00 00 
   594)       382.1  Rx         0077  8  00 00 08 00 7F F8 05 F6 
   595)       382.4  Rx         007D  8  00 00 FC 30 00 1F F8 02 
   596)       382.6  Rx         0213  8  FF FF 00 00 80 11 FF 41 
   597)       383.2  Rx         0167  8  72 80 00 00 00 1A 49 00 
   598)       383.4  Rx         0204  8  C0 00 7D 01 EA 00 00 00 
   599)       383.7  Rx         0216  8  00 00 00 01 AA 00 00 00 
   600)       383.9  Rx         0217  8  00 00 00 00 00 00 00 00 
   601)       384.3  Rx         0415  8  00 00 E0 F4 0F FE 0F FE 
   602)       384.5  Rx         04B0  8  9B 00 80 00 30 00 00 FC 
   603)       386.5  Rx         0085  8  7D 02 80 00 7F 40 FF FE 
   604)       387.5  Rx         042C  8  8C 00 00 00 DA E0 00 00 
   605)       389.4  Rx         03C8  8  00 00 00 00 00 00 50 00 
   606)       389.7  Rx         03E0  8  00 00 00 00 80 00 00 00 
   607)       391.7  Rx         0217  8  00 00 00 00 00 00 00 00 
   608)       393.2  Rx         0047  8  20 00 00 00 00 00 00 00 
   609)       393.4  Rx         0165  8  10 40 00 00 00 00 00 00 
   610)       393.7  Rx         0167  8  72 80 00 00 00 1A 49 00 
   611)       393.9  Rx         0200  8  00 00 81 0A 81 0A 00 00 
   612)       394.2  Rx         0202  8  00 F1 58 00 60 00 00 00 
   613)       394.4  Rx         0204  8  C0 00 7D 01 F2 00 00 00 
   614)       394.6  Rx         0230  8  F0 1C 00 00 59 00 00 00 
   615)       395.9  Rx         0092  8  6F B5 6F 68 73 72 1F 17 
   616)       396.9  Rx         0082  8  83 00 14 38 A4 00 40 FF 
   617)       397.1  Rx         0085  8  7D 02 80 00 7E 50 FF FE 
   618)       397.5  Rx         0041  8  00 00 00 00 00 00 00 00 
   619)       397.8  Rx         0042  8  00 00 00 00 00 00 00 00 
   620)       398.0  Rx         0242  8  03 AC 24 65 E4 00 00 01 
   621)       401.9  Rx         0076  8  3E 80 40 00 00 00 00 00 
   622)       402.1  Rx         0077  8  00 00 08 00 7F F8 05 F6 
   623)       402.4  Rx         007D  8  00 00 FB 40 00 20 27 F9 
   624)       402.6  Rx         0213  8  FF FF 00 00 80 11 FF 41 
   625)       403.0  Rx         0216  8  00 00 00 01 AA 00 00 00 
   626)       403.3  Rx         0167  8  72 80 00 00 00 1A 46 00 
   627)       403.6  Rx         0171  8  F0 E0 00 00 00 00 00 00 
   628)       403.8  Rx         0204  8  C0 00 7D 01 F7 00 00 00 
   629)       404.0  Rx         0217  8  00 00 00 00 00 00 00 00 
   630)       404.3  Rx         0415  8  00 00 E4 F3 0F FE 0F FE 
   631)       404.5  Rx         042F  8  7D 0F E8 4E 26 89 00 00 
   632)       404.8  Rx         043D  8  00 69 B8 83 00 00 00 00 
   633)       405.0  Rx         043E  8  00 96 10 8C 60 2E 72 BD 
   634)       405.2  Rx         04B0  8  9B 00 80 00 40 00 00 FB 
   635)       406.5  Rx         0085  8  7D 02 80 00 7D 60 FF FE 
   636)       411.8  Rx         0217  8  00 00 00 00 00 00 00 00 
   637)       413.2  Rx         0047  8  20 00 00 00 00 00 00 00 
   638)       413.5  Rx         0165  8  10 40 00 00 00 00 00 00 
   639)       413.7  Rx         0167  8  72 80 00 00 00 1A 45 00 
   640)       413.9  Rx         0200  8  00 00 80 F5 80 F5 00 00 
   641)       414.1  Rx         0202  8  00 EF 68 00 60 00 00 00 
   642)       414.4  Rx         0204  8  C0 00 7D 01 F7 00 00 00 
   643)       414.7  Rx         0230  8  F0 1C 00 00 59 00 00 00 
   644)       416.9  Rx         0082  8  83 00 14 38 A5 00 40 FF 
   645)       417.1  Rx         0085  8  7D 02 80 00 7C 70 FF FE 
   646)       417.6  Rx         0041  8  00 00 00 00 00 00 00 00 
   647)       417.9  Rx         0042  8  00 00 00 00 00 00 00 00 
   648)       421.7  Rx         0326  8  01 A0 02 68 01 D0 00 00 
   649)       421.9  Rx         0076  8  3E 80 40 00 00 00 00 00 
   650)       422.2  Rx         0077  8  00 00 08 01 7F F7 FD F7 
   651)       422.5  Rx         007D  8  00 00 FA 50 00 1F 98 06 
   652)       422.7  Rx         0213  8  FF FF 00 00 80 11 FF 41 
   653)       423.1  Rx         0216  8  00 00 00 01 AA 00 00 00 
   654)       423.3  Rx         0167  8  72 80 00 00 00 1A 45 00 
   655)       423.6  Rx         0204  8  C0 00 7D 01 F7 00 00 00 
   656)       423.8  Rx         0217  8  00 00 00 00 00 00 00 00 
   657)       424.0  Rx         0415  8  00 00 E8 F2 0F FE 0F FE 
   658)       424.3  Rx         0416  8  55 00 F9 08 01 00 00 00 
   659)       424.6  Rx         04B0  8  9B 00 80 00 50 00 00 FA 
   660)       426.5  Rx         0085  8  7D 02 80 00 7B 80 FF FE 
   661)       427.8  Rx         0083  8  00 E0 80 00 00 00 00 00 
   662)       431.8  Rx         0217  8  00 00 00 00 00 00 00 00 
   663)       433.2  Rx         0047  8  20 00 00 00 00 00 00 00 
   664)       433.5  Rx         0165  8  10 40 00 00 00 00 00 00 
   665)       433.7  Rx         0167  8  72 80 00 00 00 1A 42 00 
   666)       433.9  Rx         0171  8  F0 E0 00 00 00 00 00 00 
   667)       434.2  Rx         0200  8  00 00 80 F5 80 F5 00 00 
   668)       434.4  Rx         0202  8  00 ED 78 00 60 00 00 00 
   669)       434.7  Rx         0204  8  C0 00 7D 01 F3 00 00 00 
   670)       434.9  Rx         0230  8  F0 1C 00 00 59 00 00 00 
   671)       435.1  Rx         042F  8  7D 0F E8 4E 26 83 00 00 
   672)       436.1  Rx         0430  8  02 00 E3 99 8A 01 13 91 
   673)       436.4  Rx         0434  8  27 E8 15 55 0F FF 00 24 
   674)       436.6  Rx         0435  8  7C 70 18 DA C7 20 09 02 
   675)       436.9  Rx         0082  8  83 00 14 38 A4 00 40 FF 
   676)       437.1  Rx         0085  8  7D 02 80 00 7A 90 FF FE 
   677)       437.7  Rx         0041  8  00 00 00 00 00 00 00 00 
   678)       438.0  Rx         0042  8  00 00 00 00 00 00 00 00 
   679)       438.2  Rx         0242  8  03 AC 24 60 E4 00 00 01 
   680)       438.5  Rx         040A  8  C1 01 4A 5A 39 47 35 35 
   681)       438.7  Rx         042C  8  8C 00 00 00 DA E0 00 00 
   682)       441.9  Rx         0076  8  3E 80 40 00 00 00 00 00 
   683)       442.1  Rx         0077  8  00 00 07 FF 7F F8 01 F6 
   684)       442.4  Rx         007D  8  00 00 F9 60 00 20 37 F9 
   685)       442.6  Rx         0213  8  FF FF 00 00 80 11 FF 41 
   686)       443.1  Rx         0216  8  00 00 00 01 AA 00 00 00 
   687)       443.3  Rx         0167  8  72 80 00 00 00 1A 3F 00 
   688)       443.6  Rx         0204  8  C0 00 7D 01 F3 00 00 00 
   689)       443.8  Rx         0217  8  00 00 00 00 00 00 00 00 
   690)       444.1  Rx         0415  8  00 00 EC F1 0F FE 0F FE 
   691)       444.3  Rx         04B0  8  9B 00 80 00 60 00 00 F9 
   692)       446.4  Rx         0085  8  7D 02 80 00 79 A0 FF FE 
   693)       449.3  Rx         004A  8  02 00 00 00 00 00 00 00 
   694)       449.5  Rx         004B  8  00 C0 D8 D8 D8 D8 C0 00 
   695)       449.8  Rx         004C  8  20 AF FF 00 00 00 00 00 
   696)       451.8  Rx         0217  8  00 00 00 00 00 00 00 00 
   697)       453.2  Rx         0047  8  20 00 00 00 00 00 00 00 
   698)       453.4  Rx         0156  8  5E 5F 00 00 03 00 00 00 
   699)       453.7  Rx         0165  8  10 40 00 00 00 00 00 00 
   700)       453.9  Rx         0166  8  00 00 00 00 8A 75 00 00 
   701)       454.2  Rx         0167  8  72 80 00 00 00 1A 3F 00 
   702)       454.4  Rx         0178  8  00 00 01 FC 0E 74 DE 74 
   703)       454.7  Rx         0179  8  00 00 00 00 84 00 02 98 
   704)       454.9  Rx         0200  8  00 00 80 FB 80 FB 00 00 
   705)       455.1  Rx         0202  8  00 FB 08 00 60 00 00 00 
   706)       455.4  Rx         0204  8  C0 00 7D 01 F2 00 00 00 
   707)       455.7  Rx         0230  8  F0 1C 00 00 59 00 00 00 
   708)       455.9  Rx         0421  8  00 00 10 00 00 00 3A 00 
   709)       456.1  Rx         0424  8  00 FF C0 00 00 00 00 00 
   710)       456.4  Rx         042D  8  00 02 7F 00 00 00 F0 00 
   711)       456.6  Rx         043D  8  00 68 B9 83 00 00 00 00 
   712)       456.8  Rx         043E  8  00 96 10 8C 60 2E 12 BE 
   713)       457.1  Rx         0082  8  84 00 14 38 A6 00 40 FF 
   714)       457.4  Rx         0085  8  7D 02 80 00 78 B0 FF FE 
   715)       457.6  Rx         0455  8  A0 00 00 00 00 00 00 00 
   716)       457.9  Rx         0041  8  00 00 00 00 00 00 00 00 
   717)       458.1  Rx         0042  8  00 00 00 00 00 00 00 00 
   718)       461.9  Rx         0076  8  3E 80 40 00 00 00 00 00 
   719)       462.1  Rx         0077  8  00 00 08 00 7F F8 0D F5 
   720)       462.4  Rx         007D  8  00 00 F8 70 00 1F D8 06 
   721)       462.6  Rx         0213  8  FF FF 00 00 80 11 FF 41 
   722)       463.1  Rx         0216  8  00 00 00 01 AA 00 00 00 
   723)       463.3  Rx         0167  8  72 80 00 00 00 1A 40 00 
   724)       463.5  Rx         0171  8  F0 E0 00 00 00 00 00 00 
   725)       463.8  Rx         0204  8  C0 00 7D 01 F7 00 00 00 
   726)       464.1  Rx         0217  8  00 00 00 00 00 00 00 00 
   727)       464.3  Rx         0415  8  00 00 F0 F0 0F FE 0F FE 
   728)       464.5  Rx         042F  8  7D 0F E8 4E 26 7E 00 00 
   729)       464.8  Rx         04B0  8  9B 00 80 00 70 00 00 F8 
   730)       466.5  Rx         0085  8  7D 02 80 00 77 C0 FF FE 
   731)       471.8  Rx         0217  8  00 00 00 00 00 00 00 00 
   732)       473.4  Rx         0047  8  20 00 00 00 00 00 00 00 
   733)       473.7  Rx         0165  8  10 40 00 00 00 00 00 00 
   734)       474.0  Rx         0167  8  72 80 00 00 00 1A 41 00 
   735)       474.2  Rx         0200  8  00 00 80 F6 80 F6 00 00 
   736)       474.4  Rx         0202  8  00 F9 18 00 60 00 00 00 
   737)       474.7  Rx         0204  8  C0 00 7D 01 FA 00 00 00 
   738)       474.9  Rx         0230  8  F0 1C 00 00 59 00 00 00 
   739)       476.9  Rx         0082  8  84 00 14 38 A5 00 40 FF 
   740)       477.1  Rx         0085  8  7D 02 80 00 76 D0 FF FE 
   741)       478.1  Rx         0041  8  00 00 00 00 00 00 00 00 
   742)       478.4  Rx         0042  8  00 00 00 00 00 00 00 00 
   743)       478.6  Rx         0242  8  03 AC 24 5B E4 00 00 01 
   744)       481.9  Rx         0076  8  3E 80 40 00 00 00 00 00 
   745)       482.1  Rx         0077  8  00 00 08 00 7F F8 05 F7 
   746)       482.4  Rx         007D  8  00 00 F7 80 00 1F E8 04 
   747)       482.6  Rx         0213  8  FF FF 00 00 80 11 FF 41 
   748)       483.1  Rx         0216  8  00 00 00 01 AA 00 00 00 
   749)       483.3  Rx         0167  8  72 80 00 00 00 1A 41 00 
   750)       483.6  Rx         0204  8  C0 00 7D 01 FA 00 00 00 
   751)       483.8  Rx         0217  8  00 00 00 00 00 00 00 00 
   752)       484.1  Rx         0415  8  00 00 F4 EF 0F FE 0F FE 
   753)       484.3  Rx         04B0  8  9B 00 80 00 80 00 00 F7 
   754)       486.5  Rx         0085  8  7D 02 80 00 75 E0 FF FE 
   755)       487.6  Rx         0331  8  C0 00 75 A7 62 00 00 02 
   756)       487.9  Rx         03B6  8  08 00 0A 00 00 00 00 00 
   757)       488.1  Rx         03B7  8  00 00 02 00 60 50 63 4C 
   758)       488.3  Rx         042C  8  8C 00 00 00 DA E0 00 00 
   759)       491.8  Rx         0217  8  00 00 00 00 00 00 00 00 
   760)       493.2  Rx         0047  8  20 00 00 00 00 00 00 00 
   761)       493.5  Rx         0165  8  10 40 00 00 00 00 00 00 
   762)       493.7  Rx         0167  8  72 80 00 00 00 1A 3E 00 
   763)       493.9  Rx         0171  8  F0 E0 00 00 00 00 00 00 
   764)       494.2  Rx         0200  8  00 00 80 F2 80 F2 00 00 
   765)       494.4  Rx         0202  8  00 F7 28 00 60 00 00 00 
   766)       494.7  Rx         0204  8  C0 00 7D 01 F7 00 00 00 
   767)       494.9  Rx         0230  8  F0 1C 00 00 59 00 00 00 
   768)       495.2  Rx         042F  8  7D 0F E8 4E 26 7C 00 00 
   769)       497.0  Rx         0082  8  84 00 14 38 A4 00 40 FF 
   770)       497.2  Rx         0085  8  7D 02 80 00 74 F0 FF FE 
   771)       497.6  Rx         0041  8  00 00 00 00 00 00 00 00 
   772)       497.9  Rx         0042  8  00 00 00 00 00 00 00 00 
   773)       500.7  Rx         0092  8  6F AC 6F 66 73 79 EC 4E 
   774)       501.9  Rx         0076  8  3E 80 40 00 00 00 00 00 
   775)       502.1  Rx         0077  8  00 00 08 03 7F F7 FD F6 
   776)       502.4  Rx         007D  8  00 00 F6 90 00 20 58 02 
   777)       502.6  Rx         0213  8  FF FF 00 00 80 11 FF 41 
   778)       503.1  Rx         0216  8  00 00 00 01 AA 00 00 00 
   779)       503.4  Rx         0217  8  00 00 00 00 00 00 00 00 
   780)       503.6  Rx         0167  8  72 80 00 00 00 1A 3D 00 
   781)       503.8  Rx         0204  8  C0 00 7D 01 FB 00 00 00 
   782)       504.1  Rx         0415  8  00 00 F8 EE 0F FE 0F FE 
   783)       504.3  Rx         043D  8  00 68 B9 83 00 00 00 00 
   784)       504.6  Rx         043E  8  00 96 10 8C 60 2D B2 BF 
   785)       504.8  Rx         04B0  8  9B 00 80 00 90 00 00 F6 
   786)       506.5  Rx         0085  8  7D 02 80 00 83 00 FF FE 
   787)       511.8  Rx         0217  8  00 00 00 00 00 00 00 00 
   788)       513.2  Rx         0047  8  20 00 00 00 00 00 00 00 
   789)       513.5  Rx         0165  8  10 40 00 00 00 00 00 00 
   790)       513.7  Rx         0167  8  72 80 00 00 00 1A 3D 00 
   791)       513.9  Rx         0200  8  00 00 80 F5 80 F5 00 00 
   792)       514.2  Rx         0202  8  00 F5 38 00 60 00 00 00 
   793)       514.4  Rx         0204  8  C0 00 7D 01 FB 00 00 00 
   794)       514.7  Rx         0230  8  F0 1C 00 00 59 00 00 00 
   795)       516.9  Rx         0082  8  84 00 14 38 A4 00 40 FF 
   796)       517.2  Rx         0085  8  7D 02 80 00 82 10 FF FE 
   797)       517.6  Rx         0041  8  00 00 00 00 00 00 00 00 
   798)       517.9  Rx         0042  8  00 00 00 00 00 00 00 00 
   799)       518.1  Rx         0242  8  03 AC 24 59 E4 00 00 01 
   800)       521.7  Rx         0326  8  01 A0 02 68 01 D0 00 00 
   801)       522.0  Rx         0076  8  3E 80 40 00 00 00 00 00 
   802)       522.2  Rx         0077  8  00 00 07 FD 7F F8 01 F4 
   803)       522.5  Rx         007D  8  00 00 F5 A0 00 20 07 FE 
   804)       522.7  Rx         0213  8  FF FF 00 00 80 11 FF 41 
   805)       523.1  Rx         0216  8  00 00 00 01 AA 00 00 00 
   806)       523.3  Rx         0167  8  72 80 00 00 00 1A 3C 00 
   807)       523.6  Rx         0171  8  F0 E0 00 00 00 00 00 00 
   808)       523.8  Rx         0204  8  C0 00 7D 02 00 00 00 00 
   809)       524.0  Rx         0217  8  00 00 00 00 00 00 00 00 
   810)       524.3  Rx         0415  8  00 00 FC ED 0F FE 0F FE 
   811)       524.6  Rx         0416  8  56 00 F8 08 01 00 00 00 
   812)       524.8  Rx         042F  8  7D 0F E8 4E 26 79 00 00 
   813)       525.0  Rx         04B0  8  9B 00 80 00 A0 00 00 F5 
   814)       526.5  Rx         0085  8  7D 02 80 00 81 20 FF FE 
   815)       527.7  Rx         0083  8  00 E0 80 00 00 00 00 00 
   816)       531.8  Rx         0217  8  00 00 00 00 00 00 00 00 
   817)       533.2  Rx         0047  8  20 00 00 00 00 00 00 00 
   818)       533.5  Rx         0165  8  10 40 00 00 00 00 00 00 
   819)       533.7  Rx         0167  8  72 80 00 00 00 1A 3B 00 
   820)       533.9  Rx         0200  8  00 00 80 EA 80 EA 00 00 
   821)       534.2  Rx         0202  8  00 F3 48 00 60 00 00 00 
   822)       534.5  Rx         0204  8  C0 00 7D 01 FF 00 00 00 
   823)       534.7  Rx         0230  8  F0 1C 00 00 59 00 00 00 
   824)       536.0  Rx         0430  8  02 00 E3 99 8A 01 13 91 
   825)       536.3  Rx         0434  8  27 E9 15 55 0F FF 00 20 
   826)       536.5  Rx         0435  8  28 20 10 92 C7 20 09 02 
   827)       536.9  Rx         0082  8  84 00 14 38 A5 00 40 FF 
   828)       537.2  Rx         0085  8  7D 02 80 00 80 30 FF FE 
   829)       537.6  Rx         0041  8  00 00 00 00 00 00 00 00 
   830)       537.8  Rx         0042  8  00 00 00 00 00 00 00 00 
   831)       538.1  Rx         042C  8  8C 00 00 00 DA E0 00 00 
   832)       541.9  Rx         0076  8  3E 80 40 00 00 00 00 00 
   833)       542.1  Rx         0077  8  00 00 08 01 7F F8 01 F6 
   834)       542.4  Rx         007D  8  00 00 F4 B0 00 1F E8 00 
   835)       542.6  Rx         0213  8  FF FF 00 00 80 11 FF 41 
   836)       543.1  Rx         0216  8  00 00 00 01 AA 00 00 00 
   837)       543.3  Rx         0167  8  72 80 00 00 00 1A 3B 00 
   838)       543.5  Rx         0204  8  C0 00 7D 01 FF 00 00 00 
   839)       543.8  Rx         0217  8  00 00 00 00 00 00 00 00 
   840)       544.1  Rx         0415  8  00 00 C0 FC 0F FE 0F FE 
   841)       544.3  Rx         04B0  8  9B 00 80 00 B0 00 00 F4 
   842)       546.7  Rx         0085  8  7D 02 80 00 7F 40 FF FE 
   843)       549.2  Rx         004A  8  02 00 00 00 00 00 00 00 
   844)       549.4  Rx         004B  8  00 C0 D8 D8 D8 D8 C0 00 
   845)       549.7  Rx         004C  8  20 AF FF 00 00 00 00 00 
   846)       551.8  Rx         0217  8  00 00 00 00 00 00 00 00 
   847)       553.4  Rx         0047  8  20 00 00 00 00 00 00 00 
   848)       553.6  Rx         0156  8  5E 5F 00 00 03 00 00 00 
   849)       553.9  Rx         0165  8  10 40 00 00 00 00 00 00 
   850)       554.1  Rx         0166  8  00 00 00 00 8A 75 00 00 
   851)       554.3  Rx         0167  8  72 80 00 00 00 1A 39 00 
   852)       554.6  Rx         0171  8  F0 E0 00 00 00 00 00 00 
   853)       554.8  Rx         0178  8  00 00 02 07 0E 74 DE 74 
   854)       555.1  Rx         0179  8  00 00 00 00 84 00 02 9D 
   855)       555.3  Rx         0200  8  00 00 80 EB 80 EB 00 00 
   856)       555.5  Rx         0202  8  00 F1 58 00 60 00 00 00 
   857)       555.8  Rx         0204  8  C0 00 7D 02 04 00 00 00 
   858)       556.0  Rx         0230  8  F0 1C 00 00 59 00 00 00 
   859)       556.3  Rx         0421  8  00 00 10 00 00 00 3A 00 
   860)       556.5  Rx         0424  8  00 FF C0 00 00 00 00 00 
   861)       556.8  Rx         042D  8  00 02 7F 00 00 00 F0 00 
   862)       557.0  Rx         042F  8  7D 0F E8 4E 26 74 00 00 
   863)       557.2  Rx         0082  8  84 00 14 38 A4 00 40 FF 
   864)       557.5  Rx         0085  8  7D 02 80 00 7E 50 FF FE 
   865)       557.7  Rx         043D  8  00 68 BA 82 00 00 00 00 
   866)       558.0  Rx         0041  8  00 00 00 00 00 00 00 00 
   867)       558.2  Rx         0042  8  00 00 00 00 00 00 00 00 
   868)       558.5  Rx         0242  8  03 AC 24 59 E4 00 00 01 
   869)       558.7  Rx         043E  8  00 96 10 8C 60 2D 2A C0 
   870)       558.9  Rx         0455  8  A0 00 00 00 00 00 00 00 
   871)       561.9  Rx         0076  8  3E 80 40 00 00 00 00 00 
   872)       562.1  Rx         0077  8  00 00 08 00 7F F8 0D F6 
   873)       562.4  Rx         007D  8  00 00 F3 C0 00 20 58 01 
   874)       562.7  Rx         0213  8  FF FF 00 00 80 11 FF 41 
   875)       563.1  Rx         0216  8  00 00 00 01 AA 00 00 00 
   876)       563.3  Rx         0167  8  72 80 00 00 00 1A 38 00 
   877)       563.6  Rx         0204  8  C0 00 7D 02 0A 00 00 00 
   878)       563.9  Rx         0217  8  00 00 00 00 00 00 00 00 
   879)       564.1  Rx         0415  8  00 00 C4 FB 0F FE 0F FE 
   880)       564.3  Rx         04B0  8  9B 00 80 00 C0 00 00 F3 
   881)       566.5  Rx         0085  8  7D 02 80 00 7D 60 FF FE 
   882)       571.8  Rx         0217  8  00 00 00 00 00 00 00 00 
   883)       573.2  Rx         0047  8  20 00 00 00 00 00 00 00 
   884)       573.5  Rx         0165  8  10 40 00 00 00 00 00 00 
   885)       573.7  Rx         0167  8  72 80 00 00 00 1A 38 00 
   886)       573.9  Rx         0200  8  00 00 80 E5 80 E5 00 00 
   887)       574.2  Rx         0202  8  00 EF 68 00 60 00 00 00 
   888)       574.4  Rx         0204  8  C0 00 7D 02 0A 00 00 00 
   889)       574.7  Rx         0230  8  F0 1C 00 00 59 00 00 00 
   890)       576.9  Rx         0082  8  84 00 14 38 A5 00 40 FF 
   891)       577.2  Rx         0085  8  7D 02 80 00 7C 70 FF FE 
   892)       577.6  Rx         0041  8  00 00 00 00 00 00 00 00 
   893)       577.9  Rx         0042  8  00 00 00 00 00 00 00 00 
   894)       581.9  Rx         0076  8  3E 80 40 00 00 00 00 00 
   895)       582.1  Rx         0077  8  00 00 08 03 7F F7 FD F7 
   896)       582.4  Rx         007D  8  00 00 F2 D0 00 1F A8 00 
   897)       582.6  Rx         0213  8  FF FF 00 00 80 11 FF 41 
   898)       583.1  Rx         0216  8  00 00 00 01 AA 00 00 00 
   899)       583.3  Rx         0167  8  72 80 00 00 00 1A 37 00 
   900)       583.6  Rx         0171  8  F0 E0 00 00 00 00 00 00 
   901)       583.8  Rx         0204  8  C0 00 7D 02 0F 00 00 00 
   902)       584.1  Rx         0217  8  00 00 00 00 00 00 00 00 
   903)       584.3  Rx         0415  8  00 00 C8 FA 0F FE 0F FE 
   904)       584.5  Rx         042F  8  7D 0F E8 4E 26 71 00 00 
   905)       584.8  Rx         04B0  8  9B 00 80 00 D0 00 00 F2 
   906)       586.5  Rx         0085  8  7D 02 80 00 7B 80 FF FE 
   907)       587.6  Rx         042C  8  8C 00 00 00 DA E0 00 00 
   908)       591.8  Rx         0217  8  00 00 00 00 00 00 00 00 
   909)       593.2  Rx         0047  8  20 00 00 00 00 00 00 00 
   910)       593.5  Rx         0165  8  10 40 00 00 00 00 00 00 
   911)       593.7  Rx         0167  8  72 80 00 00 00 1A 35 00 
   912)       594.0  Rx         0200  8  00 00 80 D0 80 D0 00 00 
   913)       594.2  Rx         0202  8  00 ED 78 00 60 00 00 00 
   914)       594.4  Rx         0204  8  C0 00 7D 02 13 00 00 00 
   915)       594.7  Rx         0230  8  F0 1C 00 00 59 00 00 00 
   916)       596.9  Rx         0082  8  83 00 14 38 A3 00 40 FF 
   917)       597.2  Rx         0085  8  7D 02 80 00 7A 90 FF FE 
   918)       597.6  Rx         0041  8  00 00 00 00 00 00 00 00 
   919)       597.9  Rx         0042  8  00 00 00 00 00 00 00 00 
   920)       598.1  Rx         0242  8  03 AC 24 54 E4 00 00 01 
   921)       601.9  Rx         0076  8  3E 80 40 00 00 00 00 00 
   922)       602.1  Rx         0077  8  00 00 08 02 7F F8 01 F6 
   923)       602.4  Rx         007D  8  00 00 F1 E0 00 1F B8 04 
   924)       602.6  Rx         0213  8  FF FF 00 00 80 11 FF 41 
   925)       603.1  Rx         0216  8  00 00 00 01 AA 00 00 00 
   926)       603.4  Rx         0167  8  72 80 00 00 00 1A 35 00 
   927)       603.6  Rx         0204  8  C0 00 7D 02 13 00 00 00 
   928)       603.8  Rx         0217  8  00 00 00 00 00 00 00 00 
   929)       604.1  Rx         0415  8  00 00 CC F9 0F FE 0F FE 
   930)       604.3  Rx         043D  8  00 68 BA 82 00 00 00 00 
   931)       604.6  Rx         043E  8  00 96 10 8C 60 2C C2 C2 
   932)       604.8  Rx         04B0  8  9B 00 80 00 E0 00 00 F1 
   933)       606.0  Rx         0092  8  6F B3 6F 63 73 57 D8 80 
   934)       606.5  Rx         0085  8  7D 02 80 00 79 A0 FF FE 
   935)       611.8  Rx         0217  8  00 00 00 00 00 00 00 00 
   936)       613.2  Rx         0047  8  20 00 00 00 00 00 00 00 
   937)       613.5  Rx         0165  8  10 40 00 00 00 00 00 00 
   938)       613.7  Rx         0167  8  72 80 00 00 00 1A 36 00 
   939)       613.9  Rx         0171  8  F0 E0 00 00 00 00 00 00 
   940)       614.2  Rx         0200  8  00 00 80 CF 80 CF 00 00 
   941)       614.5  Rx         0202  8  00 FB 08 00 60 00 00 00 
   942)       614.7  Rx         0204  8  C0 00 7D 02 14 00 00 00 
   943)       614.9  Rx         0230  8  F0 1C 00 00 59 00 00 00 
   944)       615.2  Rx         042F  8  7D 0F E8 4E 26 6F 00 00 
   945)       616.9  Rx         0082  8  84 00 14 38 A5 00 40 FF 
   946)       617.1  Rx         0085  8  7D 02 80 00 78 B0 FF FE 
   947)       617.6  Rx         0041  8  00 00 00 00 00 00 00 00 
   948)       617.9  Rx         0042  8  00 00 00 00 00 00 00 00 
   949)       621.2  Rx         0326  8  01 A0 02 68 01 D0 00 00 
   950)       621.9  Rx         0076  8  3E 80 40 00 00 00 00 00 
   951)       622.1  Rx         0077  8  00 00 07 FF 7F F8 01 F5 
   952)       622.4  Rx         007D  8  00 00 F0 F0 00 1F D7 FF 
   953)       622.7  Rx         0213  8  FF FF 00 00 80 11 FF 41 
   954)       623.1  Rx         0216  8  00 00 00 01 AA 00 00 00 
   955)       623.4  Rx         0167  8  72 80 00 00 00 1A 36 00 
   956)       623.6  Rx         0204  8  C0 00 7D 02 15 00 00 00 
   957)       623.8  Rx         0217  8  00 00 00 00 00 00 00 00 
   958)       624.1  Rx         0415  8  00 00 D0 F8 0F FE 0F FE 
   959)       624.4  Rx         0416  8  57 00 F7 08 01 00 00 00 
   960)       624.6  Rx         04B0  8  9B 00 80 00 F0 00 00 F0 
   961)       626.5  Rx         0085  8  7D 02 80 00 77 C0 FF FE 
   962)       627.6  Rx         0083  8  00 E0 80 00 00 00 00 00 
   963)       631.8  Rx         0217  8  00 00 00 00 00 00 00 00 
   964)       633.2  Rx         0047  8  20 00 00 00 00 00 00 00 
   965)       633.5  Rx         0165  8  10 40 00 00 00 00 00 00 
   966)       633.7  Rx         0167  8  72 80 00 00 00 1A 36 00 
   967)       634.0  Rx         0200  8  00 00 80 CF 80 CF 00 00 
   968)       634.2  Rx         0202  8  00 F9 18 00 60 00 00 00 
   969)       634.5  Rx         0204  8  C0 00 7D 02 1B 00 00 00 
   970)       634.7  Rx         0230  8  F0 1C 00 00 59 00 00 00 
   971)       636.0  Rx         0430  8  02 00 E3 99 8A 01 13 91 
   972)       636.3  Rx         0434  8  27 E8 15 54 0F FF 00 20 
   973)       636.5  Rx         0435  8  28 20 18 9A C7 20 09 02 
   974)       636.9  Rx         0082  8  84 00 14 38 A5 00 40 FF 
   975)       637.2  Rx         0085  8  7D 02 80 00 76 D0 FF FE 
   976)       637.6  Rx         0041  8  00 00 00 00 00 00 00 00 
   977)       637.8  Rx         0042  8  00 00 00 00 00 00 00 00 
   978)       638.1  Rx         0242  8  03 AC 24 54 E4 00 00 01 
   979)       638.3  Rx         040A  8  C1 02 32 30 39 33 31 FF 
   980)       638.5  Rx         042C  8  8C 00 00 00 DA E0 00 00 
   981)       641.9  Rx         0076  8  3E 80 40 00 00 00 00 00 
   982)       642.1  Rx         0077  8  00 00 08 00 7F F8 09 F7 
   983)       642.4  Rx         007D  8  00 00 FF 00 00 20 28 02 
   984)       642.7  Rx         0213  8  FF FF 00 00 80 11 FF 41 
   985)       643.1  Rx         0216  8  00 00 00 01 AA 00 00 00 
   986)       643.4  Rx         0167  8  72 80 00 00 00 1A 34 00 
   987)       643.6  Rx         0171  8  F0 E0 00 00 00 00 00 00 
   988)       643.9  Rx         0204  8  C0 00 7D 02 1B 00 00 00 
   989)       644.1  Rx         0217  8  00 00 00 00 00 00 00 00 
   990)       644.4  Rx         0415  8  00 00 D4 F7 0F FE 0F FE 
   991)       644.6  Rx         042F  8  7D 0F E8 4E 26 6E 00 00 
   992)       644.8  Rx         04B0  8  9B 00 80 00 00 00 00 FF 
   993)       646.8  Rx         0085  8  7D 02 80 00 75 E0 FF FE 
   994)       649.2  Rx         004A  8  02 00 00 00 00 00 00 00 
   995)       649.4  Rx         004B  8  00 C0 D8 D8 D8 D8 C0 00 
   996)       649.7  Rx         004C  8  20 AF FF 00 00 00 00 00 
   997)       651.9  Rx         0217  8  00 00 00 00 00 00 00 00 
   998)       653.3  Rx         0047  8  20 00 00 00 00 00 00 00 
   999)       653.5  Rx         0156  8  5E 5F 00 00 03 00 00 00 
  1000)       653.8  Rx         0165  8  10 40 00 00 00 00 00 00 
  1001)       654.1  Rx         0166  8  00 00 00 00 8A 75 00 00 
  1002)       654.3  Rx         0167  8  72 80 00 00 00 1A 32 00 
  1003)       654.5  Rx         0178  8  00 00 02 0A 0E 74 DE 74 
  1004)       654.8  Rx         0179  8  00 00 00 00 84 00 02 A1 
  1005)       655.0  Rx         0200  8  00 00 80 C2 80 C2 00 00 
  1006)       655.2  Rx         0202  8  00 F7 28 00 60 00 00 00 
  1007)       655.5  Rx         0204  8  C0 00 7D 02 1E 00 00 00 
  1008)       655.8  Rx         0230  8  F0 1C 00 00 59 00 00 00 
  1009)       656.0  Rx         0421  8  00 00 10 00 00 00 3A 00 
  1010)       656.2  Rx         0424  8  00 FF C0 00 00 00 00 00 
  1011)       656.5  Rx         042D  8  00 02 7F 00 00 00 F0 00 
  1012)       656.7  Rx         043D  8  00 68 BB 81 00 00 00 00 
  1013)       657.0  Rx         043E  8  00 96 10 8C 60 2C 5A C1 
  1014)       657.2  Rx         0082  8  85 00 14 38 A5 00 40 FF 
  1015)       657.4  Rx         0085  8  7D 02 80 00 74 F0 FF FE 
  1016)       657.7  Rx         0455  8  A0 00 00 00 00 00 00 00 
  1017)       657.9  Rx         0041  8  00 00 00 00 00 00 00 00 
  1018)       658.2  Rx         0042  8  00 00 00 00 00 00 00 00 
  1019)       661.9  Rx         0076  8  3E 80 40 00 00 00 00 00 
  1020)       662.2  Rx         0077  8  00 00 08 00 7F F8 05 F6 
  1021)       662.4  Rx         007D  8  00 00 FE 10 00 20 08 01 
  1022)       662.7  Rx         0213  8  FF FF 00 00 80 11 FF 41 
  1023)       663.1  Rx         0216  8  00 00 00 01 AA 00 00 00 
  1024)       663.4  Rx         0167  8  72 80 00 00 00 1A 32 00 
  1025)       663.6  Rx         0204  8  C0 00 7D 02 1D 00 00 00 
  1026)       663.9  Rx         0217  8  00 00 00 00 00 00 00 00 
  1027)       664.1  Rx         0415  8  00 00 D8 F6 0F FE 0F FE 
  1028)       664.3  Rx         04B0  8  9B 00 80 00 10 00 00 FE 
  1029)       666.5  Rx         0085  8  7D 03 80 00 82 00 FF FE 
  1030)       671.8  Rx         0217  8  00 00 00 00 00 00 00 00 
  1031)       673.5  Rx         0047  8  20 00 00 00 00 00 00 00 
  1032)       673.8  Rx         0165  8  10 40 00 00 00 00 00 00 
  1033)       674.0  Rx         0167  8  72 80 00 00 00 1A 31 00 
  1034)       674.2  Rx         0171  8  F0 E0 00 00 00 00 00 00 
  1035)       674.5  Rx         0200  8  00 00 80 C4 80 C4 00 00 
  1036)       674.7  Rx         0202  8  00 F5 38 00 60 00 00 00 
  1037)       675.0  Rx         0204  8  C0 00 7D 02 1B 00 00 00 
  1038)       675.2  Rx         0230  8  F0 1C 00 00 59 00 00 00 
  1039)       675.5  Rx         042F  8  7D 0F E8 4E 26 68 00 00 
  1040)       677.0  Rx         0082  8  86 00 14 38 A6 00 40 FF 
  1041)       677.2  Rx         0085  8  7D 03 80 00 81 10 FF FE 
  1042)       677.6  Rx         0041  8  00 00 00 00 00 00 00 00 
  1043)       677.8  Rx         0042  8  00 00 00 00 00 00 00 00 
  1044)       678.1  Rx         0242  8  03 AC 24 53 E4 00 00 01 
  1045)       681.9  Rx         0076  8  3E 80 40 00 00 00 00 00 
  1046)       682.2  Rx         0077  8  00 00 08 03 7F F7 FD F4 
  1047)       682.4  Rx         007D  8  00 00 FD 20 00 20 27 FF 
  1048)       682.7  Rx         0213  8  FF FF 00 00 80 11 FF 41 
  1049)       683.2  Rx         0216  8  00 00 00 01 AA 00 00 00 
  1050)       683.4  Rx         0167  8  72 80 00 00 00 1A 2F 00 
  1051)       683.6  Rx         0204  8  C0 00 7D 02 1B 00 00 00 
  1052)       683.9  Rx         0217  8  00 00 00 00 00 00 00 00 
  1053)       684.1  Rx         0415  8  00 00 DC F5 0F FE 0F FE 
  1054)       684.3  Rx         04B0  8  9B 00 80 00 20 00 00 FD 
  1055)       686.5  Rx         0085  8  7D 03 80 00 80 20 FF FE 
  1056)       688.1  Rx         042C  8  8C 00 00 00 DA E0 00 00 
  1057)       691.8  Rx         0217  8  00 00 00 00 00 00 00 00 
  1058)       693.4  Rx         0047  8  20 00 00 00 00 00 00 00 
  1059)       693.6  Rx         0165  8  10 40 00 00 00 00 00 00 
  1060)       693.9  Rx         0167  8  72 80 00 00 00 1A 2F 00 
  1061)       694.1  Rx         0200  8  00 00 80 C6 80 C6 00 00 
  1062)       694.4  Rx         0202  8  00 F3 48 00 60 00 00 00 
  1063)       694.6  Rx         0204  8  C0 00 7D 02 1D 00 00 00 
  1064)       694.9  Rx         0230  8  F0 1C 00 00 59 00 00 00 
  1065)       696.9  Rx         0082  8  88 00 14 38 A4 00 40 FF 
  1066)       697.2  Rx         0085  8  7D 03 80 00 7F 30 FF FE 
  1067)       697.6  Rx         0041  8  00 00 00 00 00 00 00 00 
  1068)       697.9  Rx         0042  8  00 00 00 00 00 00 00 00 
  1069)       701.9  Rx         0076  8  3E 80 40 00 00 00 00 00 
  1070)       702.1  Rx         0077  8  00 00 08 00 7F F7 FD F6 
  1071)       702.4  Rx         007D  8  00 00 FC 30 00 20 48 01 
  1072)       702.6  Rx         0213  8  FF FF 00 00 80 11 FF 41 
  1073)       703.1  Rx         0216  8  00 00 00 01 AA 00 00 00 
  1074)       703.3  Rx         0167  8  72 80 00 00 00 1A 26 00 
  1075)       703.6  Rx         0171  8  F0 E0 00 00 00 00 00 00 
  1076)       703.8  Rx         0204  8  C0 00 7D 02 1A 00 00 00 
  1077)       704.1  Rx         0217  8  00 00 00 00 00 00 00 00 
  1078)       704.3  Rx         0415  8  00 00 E0 F4 0F FE 0F FE 
  1079)       704.6  Rx         042F  8  7D 0F E8 4E 26 5A 00 00 
  1080)       704.8  Rx         043D  8  00 68 BB 81 00 00 00 00 
  1081)       705.0  Rx         043E  8  00 96 10 8C 60 2B E2 C1 
  1082)       705.3  Rx         04B0  8  9B 00 80 00 30 00 00 FC 
  1083)       706.6  Rx         0085  8  7D 04 80 00 7D 40 FF FE 
  1084)       710.7  Rx         0092  8  6F AE 6F 66 73 74 86 B7 
  1085)       711.9  Rx         0217  8  00 00 00 00 00 00 00 00 
  1086)       713.3  Rx         0047  8  20 00 00 00 00 00 00 00 
  1087)       713.5  Rx         0165  8  10 40 00 00 00 00 00 00 
  1088)       713.7  Rx         0167  8  72 80 00 00 00 1A 25 00 
  1089)       714.0  Rx         0200  8  00 00 80 C7 80 C7 00 00 
  1090)       714.2  Rx         0202  8  00 F1 58 00 60 00 00 00 
  1091)       714.5  Rx         0204  8  C0 00 7D 02 1A 00 00 00 
  1092)       714.7  Rx         0230  8  F0 1C 00 00 59 00 00 00 
  1093)       716.9  Rx         0082  8  89 00 14 38 A6 00 40 FF 
  1094)       717.2  Rx         0085  8  7D 04 80 00 7C 50 FF FE 
  1095)       717.6  Rx         0041  8  00 00 00 00 00 00 00 00 
  1096)       717.8  Rx         0042  8  00 00 00 00 00 00 00 00 
  1097)       718.1  Rx         0242  8  03 AC 24 4F E4 00 00 01 
  1098)       721.2  Rx         0326  8  01 A0 02 68 01 D0 00 00 
  1099)       721.9  Rx         0076  8  3E 80 40 00 00 00 00 00 
  1100)       722.2  Rx         0077  8  00 00 08 00 7F F7 FD F5 
  1101)       722.4  Rx         007D  8  00 00 FB 40 00 20 37 FF 
  1102)       722.7  Rx         0213  8  FF FF 00 00 80 11 FF 41 
  1103)       723.1  Rx         0216  8  00 00 00 01 AA 00 00 00 
  1104)       723.3  Rx         0167  8  72 80 00 00 00 1A 25 00 
  1105)       723.6  Rx         0204  8  C0 00 7D 02 17 00 00 00 
  1106)       723.9  Rx         0217  8  00 00 00 00 00 00 00 00 
  1107)       724.1  Rx         0415  8  00 00 E4 F3 0F FE 0F FE 
  1108)       724.3  Rx         0416  8  58 00 F6 08 01 00 00 00 
  1109)       724.6  Rx         04B0  8  9B 00 80 00 40 00 00 FB 
  1110)       726.5  Rx         0085  8  7D 04 80 00 7B 60 FF FE 
  1111)       727.6  Rx         0083  8  00 E0 80 00 00 00 00 00 
  1112)       731.8  Rx         0217  8  00 00 00 00 00 00 00 00 
  1113)       733.3  Rx         0047  8  20 00 00 00 00 00 00 00 
  1114)       733.5  Rx         0165  8  10 40 00 00 00 00 00 00 
  1115)       733.8  Rx         0167  8  72 80 00 00 00 1A 25 00 
  1116)       734.0  Rx         0171  8  F0 E0 00 00 00 00 00 00 
  1117)       734.3  Rx         0200  8  00 00 80 CC 80 CC 00 00 
  1118)       734.5  Rx         0202  8  00 EF 68 00 60 00 00 00 
  1119)       734.8  Rx         0204  8  C0 00 7D 02 19 00 00 00 
  1120)       735.0  Rx         0230  8  F0 1C 00 00 59 00 00 00 
  1121)       735.2  Rx         042F  8  7D 0F E8 4E 26 56 00 00 
  1122)       736.2  Rx         0430  8  02 00 E3 99 8A 01 13 91 
  1123)       736.4  Rx         0434  8  27 E8 15 57 0F FF 00 20 
  1124)       736.7  Rx         0435  8  28 20 10 92 C7 20 09 02 
  1125)       737.0  Rx         0082  8  89 00 14 38 A4 00 40 FF 
  1126)       737.2  Rx         0085  8  7D 05 80 00 79 70 FF FE 
  1127)       737.7  Rx         0041  8  00 00 00 00 00 00 00 00 
  1128)       737.9  Rx         0042  8  00 00 00 00 00 00 00 00 
  1129)       738.1  Rx         03B6  8  08 00 0B 00 00 00 00 00 
  1130)       738.4  Rx         03B7  8  00 00 03 00 60 50 5E DB 
  1131)       738.7  Rx         03B8  8  FF FF FF FF 00 00 00 00 
  1132)       738.9  Rx         042C  8  8C 00 00 00 DA E0 00 00 
  1133)       741.9  Rx         0076  8  3E 80 40 00 00 00 00 00 
  1134)       742.2  Rx         0077  8  00 00 08 00 7F F8 09 F6 
  1135)       742.4  Rx         007D  8  00 00 FA 50 00 1F C7 FE 
  1136)       742.7  Rx         0213  8  FF FF 00 00 80 11 FF 41 
  1137)       743.1  Rx         0216  8  00 00 00 01 AA 00 00 00 
  1138)       743.4  Rx         0167  8  72 80 00 00 00 1A 22 00 
  1139)       743.7  Rx         0204  8  C0 00 7D 02 1A 00 00 00 
  1140)       743.9  Rx         0217  8  00 00 00 00 00 00 00 00 
  1141)       744.1  Rx         0415  8  00 00 E8 F2 0F FE 0F FE 
  1142)       744.4  Rx         04B0  8  9B 00 80 00 50 00 00 FA 
  1143)       746.7  Rx         0085  8  7D 05 80 00 78 80 FF FE 
  1144)       749.2  Rx         004A  8  02 00 00 00 00 00 00 00 
  1145)       749.4  Rx         004B  8  00 C0 D8 D8 D8 D8 C0 00 
  1146)       749.7  Rx         004C  8  20 AF FF 00 00 00 00 00 
  1147)       751.8  Rx         0217  8  00 00 00 00 00 00 00 00 
  1148)       753.3  Rx         0047  8  20 00 00 00 00 00 00 00 
  1149)       753.5  Rx         0156  8  5E 5F 00 00 03 00 00 00 
  1150)       753.8  Rx         0165  8  10 40 00 00 00 00 00 00 
  1151)       754.0  Rx         0166  8  00 00 00 00 8A 75 00 00 
  1152)       754.2  Rx         0167  8  72 80 00 00 00 1A 22 00 
  1153)       754.5  Rx         0178  8  00 00 02 01 0E 74 DE 74 
  1154)       754.7  Rx         0179  8  00 00 00 00 84 00 02 A6 
  1155)       755.0  Rx         0200  8  00 00 80 C9 80 C9 00 00 
  1156)       755.2  Rx         0202  8  00 ED 78 00 60 00 00 00 
  1157)       755.5  Rx         0204  8  C0 00 7D 02 1A 00 00 00 
  1158)       755.7  Rx         0230  8  F0 1C 00 00 59 00 00 00 
  1159)       755.9  Rx         0421  8  00 00 10 00 00 00 3A 00 
  1160)       756.2  Rx         0424  8  00 FF C0 00 00 00 00 00 
  1161)       756.5  Rx         042D  8  00 02 7F 00 00 00 F0 00 
  1162)       756.7  Rx         043D  8  00 67 BC 81 00 00 00 00 
  1163)       756.9  Rx         043E  8  00 96 10 8C 60 2A EA C1 
  1164)       757.2  Rx         0082  8  8A 00 14 34 A5 00 40 FF 
  1165)       757.4  Rx         0085  8  7D 05 80 00 77 90 FF FE 
  1166)       757.8  Rx         0455  8  A0 00 00 00 00 00 00 00 
  1167)       758.0  Rx         0041  8  00 00 00 00 00 00 00 00 
  1168)       758.3  Rx         0042  8  00 00 00 00 00 00 00 00 
  1169)       758.5  Rx         0242  8  03 AC 24 50 E4 00 00 01 
  1170)       761.9  Rx         0076  8  3E 80 40 00 00 00 00 00 
  1171)       762.2  Rx         0077  8  00 00 08 01 7F F7 FD F5 
  1172)       762.4  Rx         007D  8  00 00 F9 60 00 20 17 FD 
  1173)       762.7  Rx         0213  8  FF FF 00 00 80 11 FF 41 
  1174)       763.1  Rx         0216  8  00 00 00 01 AA 00 00 00 
  1175)       763.4  Rx         0217  8  00 00 00 00 00 00 00 00 
  1176)       763.6  Rx         0167  8  72 80 00 00 00 1A 21 00 
  1177)       763.9  Rx         0171  8  F0 E0 00 00 00 00 00 00 
  1178)       764.1  Rx         0204  8  C0 00 7D 02 15 00 00 00 
  1179)       764.3  Rx         0415  8  00 00 EC F1 0F FE 0F FE 
  1180)       764.6  Rx         042F  8  7D 0F E8 4E 26 50 00 00 
  1181)       764.9  Rx         04B0  8  9B 00 80 00 60 00 00 F9 
  1182)       766.6  Rx         0085  8  7D 05 80 00 76 A0 FF FE 
  1183)       771.9  Rx         0217  8  00 00 00 00 00 00 00 00 
  1184)       773.3  Rx         0047  8  20 00 00 00 00 00 00 00 
  1185)       773.5  Rx         0165  8  10 40 00 00 00 00 00 00 
  1186)       773.8  Rx         0167  8  72 80 00 00 00 1A 1F 00 
  1187)       774.0  Rx         0200  8  00 00 80 CF 80 CF 00 00 
  1188)       774.2  Rx         0202  8  00 FB 08 00 60 00 00 00 
  1189)       774.5  Rx         0204  8  C0 00 7D 02 13 00 00 00 
  1190)       774.7  Rx         0230  8  F0 1C 00 00 59 00 00 00 
  1191)       776.9  Rx         0082  8  89 00 14 38 A5 00 40 FF 
  1192)       777.2  Rx         0085  8  7D 05 80 00 75 B0 FF FE 
  1193)       777.6  Rx         0041  8  00 00 00 00 00 00 00 00 
  1194)       777.9  Rx         0042  8  00 00 00 00 00 00 00 00 
  1195)       781.9  Rx         0076  8  3E 80 40 00 00 00 00 00 
  1196)       782.2  Rx         0077  8  00 00 07 FE 7F F8 01 F5 
  1197)       782.4  Rx         007D  8  00 00 F8 70 00 20 08 01 
  1198)       782.7  Rx         0213  8  FF FF 00 00 80 11 FF 41 
  1199)       783.1  Rx         0216  8  00 00 00 01 AA 00 00 00 
  1200)       783.4  Rx         0167  8  72 80 00 00 00 1A 1F 00 
  1201)       783.6  Rx         0204  8  C0 00 7D 02 13 00 00 00 
  1202)       783.9  Rx         0217  8  00 00 00 00 00 00 00 00 
  1203)       784.1  Rx         0415  8  00 00 F0 F0 0F FE 0F FE 
  1204)       784.4  Rx         04B0  8  9B 00 80 00 70 00 00 F8 
  1205)       786.6  Rx         0085  8  7D 05 80 00 74 C0 FF FE 
  1206)       787.6  Rx         042C  8  8C 00 00 00 DA E0 00 00 
  1207)       791.9  Rx         0217  8  00 00 00 00 00 00 00 00 
  1208)       793.3  Rx         0047  8  20 00 00 00 00 00 00 00 
  1209)       793.5  Rx         0165  8  10 40 00 00 00 00 00 00 
  1210)       793.8  Rx         0167  8  72 80 00 00 00 1A 1E 00 
  1211)       794.0  Rx         0171  8  F0 E0 00 00 00 00 00 00 
  1212)       794.3  Rx         0200  8  00 00 80 D0 80 D0 00 00 
  1213)       794.5  Rx         0202  8  00 F9 18 00 60 00 00 00 
  1214)       794.8  Rx         0204  8  C0 00 7D 02 15 00 00 00 
  1215)       795.0  Rx         0230  8  F0 1C 00 00 59 00 00 00 
  1216)       795.2  Rx         042F  8  7D 0F E8 4E 26 4C 00 00 
  1217)       797.0  Rx         0082  8  89 00 14 38 A4 00 40 FF 
  1218)       797.2  Rx         0085  8  7D 05 80 00 73 D0 FF FE 
  1219)       797.6  Rx         0041  8  00 00 00 00 00 00 00 00 
  1220)       797.9  Rx         0042  8  00 00 00 00 00 00 00 00 
  1221)       798.1  Rx         0242  8  03 AC 24 4E E4 00 00 01 
  1222)       798.3  Rx         03B5  8  00 C8 00 B1 00 C6 00 C8 
  1223)       802.0  Rx         0076  8  3E 80 40 00 00 00 00 00 
  1224)       802.2  Rx         0077  8  00 00 08 00 7F F8 05 F5 
  1225)       802.4  Rx         007D  8  00 00 F7 80 00 1F 87 FD 
  1226)       802.7  Rx         0213  8  FF FF 00 00 80 11 FF 41 
  1227)       803.2  Rx         0216  8  00 00 00 01 AA 00 00 00 
  1228)       803.4  Rx         0167  8  72 80 00 00 00 1A 1D 00 
  1229)       803.6  Rx         0204  8  C0 00 7D 02 15 00 00 00 
  1230)       803.9  Rx         0217  8  00 00 00 00 00 00 00 00 
  1231)       804.2  Rx         0415  8  00 00 F4 EF 0F FE 0F FE 
  1232)       804.4  Rx         043D  8  00 67 BC 80 00 00 00 00 
  1233)       804.6  Rx         043E  8  00 96 10 8C 60 2A 5A C3 
  1234)       804.8  Rx         04B0  8  9B 00 80 00 80 00 00 F7 
  1235)       806.5  Rx         0085  8  7D 05 80 00 72 E0 FF FE 
  1236)       811.8  Rx         0217  8  00 00 00 00 00 00 00 00 
  1237)       813.5  Rx         0047  8  20 00 00 00 00 00 00 00 
  1238)       813.8  Rx         0165  8  10 40 00 00 00 00 00 00 
  1239)       814.0  Rx         0167  8  72 80 00 00 00 1A 1D 00 
  1240)       814.3  Rx         0200  8  00 00 80 CF 80 CF 00 00 
  1241)       814.5  Rx         0202  8  00 F7 28 00 60 00 00 00 
  1242)       814.8  Rx         0204  8  C0 00 7D 02 13 00 00 00 
  1243)       815.0  Rx         0230  8  F0 1C 00 00 59 00 00 00 
  1244)       816.1  Rx         0092  8  6F AD 6F 69 73 45 81 E9 
  1245)       817.0  Rx         0082  8  89 00 14 38 A4 00 40 FF 
  1246)       817.2  Rx         0085  8  7D 05 80 00 71 F0 FF FE 
  1247)       817.6  Rx         0041  8  00 00 00 00 00 00 00 00 
  1248)       817.8  Rx         0042  8  00 00 00 00 00 00 00 00 
  1249)       821.8  Rx         0326  8  01 A0 02 68 01 D0 00 00 
  1250)       822.1  Rx         0076  8  3E 80 40 00 00 00 00 00 
  1251)       822.3  Rx         0077  8  00 00 08 01 7F F7 FD F6 
  1252)       822.6  Rx         007D  8  00 00 F6 90 00 1F 58 03 
  1253)       822.8  Rx         0213  8  FF FF 00 00 80 11 FF 41 
  1254)       823.1  Rx         0216  8  00 00 00 01 AA 00 00 00 
  1255)       823.4  Rx         0167  8  72 80 00 00 00 1A 1B 00 
  1256)       823.6  Rx         0171  8  F0 E0 00 00 00 00 00 00 
  1257)       823.9  Rx         0204  8  C0 00 7D 02 13 00 00 00 
  1258)       824.1  Rx         0217  8  00 00 00 00 00 00 00 00 
  1259)       824.3  Rx         0415  8  00 00 F8 EE 0F FE 0F FE 
  1260)       824.6  Rx         0416  8  59 00 F5 08 01 00 00 00 
  1261)       824.8  Rx         042F  8  7D 0F E8 4E 26 47 00 00 
  1262)       825.1  Rx         04B0  8  9B 00 80 00 90 00 00 F6 
  1263)       826.6  Rx         0085  8  7D 05 80 00 80 00 FF FE 
  1264)       827.6  Rx         0083  8  00 E0 80 00 00 00 00 00 
  1265)       831.9  Rx         0217  8  00 00 00 00 00 00 00 00 
  1266)       833.3  Rx         0047  8  20 00 00 00 00 00 00 00 
  1267)       833.5  Rx         0165  8  10 40 00 00 00 00 00 00 
  1268)       833.8  Rx         0167  8  72 80 00 00 00 1A 19 00 
  1269)       834.0  Rx         0200  8  00 00 80 DA 80 DA 00 00 
  1270)       834.2  Rx         0202  8  00 F5 38 00 60 00 00 00 
  1271)       834.5  Rx         0204  8  C0 00 7D 02 0E 00 00 00 
  1272)       834.7  Rx         0230  8  F0 1C 00 00 59 00 00 00 
  1273)       836.0  Rx         0430  8  02 00 E3 99 8A 01 13 91 
  1274)       836.3  Rx         0434  8  27 E8 15 54 0F FF 00 20 
  1275)       836.5  Rx         0435  8  28 20 18 9A C7 20 09 02 
  1276)       837.0  Rx         0082  8  89 00 14 38 A5 00 40 FF 
  1277)       837.2  Rx         0085  8  7D 05 80 00 7F 10 FF FE 
  1278)       837.6  Rx         0041  8  00 00 00 00 00 00 00 00 
  1279)       837.9  Rx         0042  8  00 00 00 00 00 00 00 00 
  1280)       838.1  Rx         0242  8  03 AC 24 48 E5 00 00 01 
  1281)       838.3  Rx         03B3  8  44 88 C0 0C 10 00 00 3A 
  1282)       838.6  Rx         040A  8  C1 04 01 75 08 44 55 C2 
  1283)       838.8  Rx         042C  8  8C 00 00 00 DA E0 00 00 
  1284)       842.0  Rx         0076  8  3E 80 40 00 00 00 00 00 
  1285)       842.2  Rx         0077  8  00 00 08 00 7F F7 FD F6 
  1286)       842.5  Rx         007D  8  00 00 F5 A0 00 1F 77 FD 
  1287)       842.7  Rx         0213  8  FF FF 00 00 80 11 FF 41 
  1288)       843.1  Rx         0216  8  00 00 00 01 AA 00 00 00 
  1289)       843.4  Rx         0167  8  72 80 00 00 00 1A 19 00 
  1290)       843.7  Rx         0204  8  C0 00 7D 02 09 00 00 00 
  1291)       843.9  Rx         0217  8  00 00 00 00 00 00 00 00 
  1292)       844.1  Rx         0415  8  00 00 FC ED 0F FE 0F FE 
  1293)       844.4  Rx         04B0  8  9B 00 80 00 A0 00 00 F5 
  1294)       846.7  Rx         0085  8  7D 05 80 00 7E 20 FF FE 
  1295)       849.1  Rx         004A  8  02 00 00 00 00 00 00 00 
  1296)       849.3  Rx         004B  8  00 C0 D8 D8 D8 D8 C0 00 
  1297)       849.6  Rx         004C  8  20 AF FF 00 00 00 00 00 
  1298)       851.9  Rx         0217  8  00 00 00 00 00 00 00 00 
  1299)       853.3  Rx         0047  8  20 00 00 00 00 00 00 00 
  1300)       853.5  Rx         0156  8  5E 5F 00 00 03 00 00 00 
  1301)       853.8  Rx         0165  8  10 40 00 00 00 00 00 00 
  1302)       854.0  Rx         0166  8  00 00 00 00 8A 75 00 00 
  1303)       854.2  Rx         0167  8  72 80 00 00 00 1A 1B 00 
  1304)       854.5  Rx         0171  8  F0 E0 00 00 00 00 00 00 
  1305)       854.7  Rx         0178  8  00 00 01 F5 0E 74 DE 74 
  1306)       855.0  Rx         0179  8  00 00 00 00 84 00 02 A9 
  1307)       855.2  Rx         0200  8  00 00 80 E0 80 E0 00 00 
  1308)       855.5  Rx         0202  8  00 F3 48 00 60 00 00 00 
  1309)       855.7  Rx         0204  8  C0 00 7D 02 09 00 00 00 
  1310)       855.9  Rx         0230  8  F0 1C 00 00 59 00 00 00 
  1311)       856.2  Rx         0421  8  00 00 10 00 00 00 3A 00 
  1312)       856.5  Rx         0424  8  00 FF C0 00 00 00 00 00 
  1313)       856.7  Rx         042D  8  00 02 7F 00 00 00 F0 00 
  1314)       856.9  Rx         042F  8  7D 0F E8 4E 26 46 00 00 
  1315)       857.2  Rx         0082  8  87 00 14 38 A5 00 40 FF 
  1316)       857.4  Rx         0085  8  7D 05 80 00 7D 30 FF FE 
  1317)       857.7  Rx         043D  8  00 67 BD 7F 00 00 00 00 
  1318)       857.9  Rx         0041  8  00 00 00 00 00 00 00 00 
  1319)       858.2  Rx         0042  8  00 00 00 00 00 00 00 00 
  1320)       858.4  Rx         043E  8  00 96 10 8C 60 2A 1A C3 
  1321)       858.6  Rx         0455  8  A0 00 00 00 00 00 00 00 
  1322)       862.0  Rx         0076  8  3E 80 40 00 00 00 00 00 
  1323)       862.2  Rx         0077  8  00 00 08 02 7F F7 FD F7 
  1324)       862.5  Rx         007D  8  00 00 F4 B0 00 1F 87 FF 
  1325)       862.7  Rx         0213  8  FF FF 00 00 80 11 FF 41 
  1326)       863.2  Rx         0216  8  00 00 00 01 AA 00 00 00 
  1327)       863.4  Rx         0167  8  72 80 00 00 00 1A 1A 00 
  1328)       863.6  Rx         0204  8  C0 00 7D 02 0D 00 00 00 
  1329)       863.9  Rx         0217  8  00 00 00 00 00 00 00 00 
  1330)       864.1  Rx         0415  8  00 00 C0 FC 0F FE 0F FE 
  1331)       864.4  Rx         04B0  8  9B 00 80 00 B0 00 00 F4 
  1332)       866.6  Rx         0085  8  7D 05 80 00 7C 40 FF FE 
  1333)       871.9  Rx         0217  8  00 00 00 00 00 00 00 00 
  1334)       873.3  Rx         0047  8  20 00 00 00 00 00 00 00 
  1335)       873.6  Rx         0165  8  10 40 00 00 00 00 00 00 
  1336)       873.8  Rx         0167  8  72 80 00 00 00 1A 1A 00 
  1337)       874.0  Rx         0200  8  00 00 80 DB 80 DB 00 00 
  1338)       874.3  Rx         0202  8  00 F1 58 00 60 00 00 00 
  1339)       874.6  Rx         0204  8  C0 00 7D 02 12 00 00 00 
  1340)       874.8  Rx         0230  8  F0 1C 00 00 59 00 00 00 
  1341)       876.9  Rx         0082  8  85 00 14 38 A4 00 40 FF 
  1342)       877.2  Rx         0085  8  7D 05 80 00 7B 50 FF FE 
  1343)       877.7  Rx         0041  8  00 00 00 00 00 00 00 00 
  1344)       877.9  Rx         0042  8  00 00 00 00 00 00 00 00 
  1345)       878.2  Rx         0242  8  03 AC 24 45 E4 00 00 01 
  1346)       881.9  Rx         0076  8  3E 80 40 00 00 00 00 00 
  1347)       882.2  Rx         0077  8  00 00 08 01 7F F8 0D F6 
  1348)       882.4  Rx         007D  8  00 00 F3 C0 00 1F A7 FC 
  1349)       882.7  Rx         0213  8  FF FF 00 00 80 11 FF 41 
  1350)       883.2  Rx         0216  8  00 00 00 01 AA 00 00 00 
  1351)       883.4  Rx         0167  8  72 80 00 00 00 1A 1A 00 
  1352)       883.6  Rx         0171  8  F0 E0 00 00 00 00 00 00 
  1353)       883.9  Rx         0204  8  C0 00 7D 02 12 00 00 00 
  1354)       884.1  Rx         0217  8  00 00 00 00 00 00 00 00 
  1355)       884.4  Rx         0415  8  00 00 C4 FB 0F FE 0F FE 
  1356)       884.6  Rx         042F  8  7D 0F E8 4E 26 45 00 00 
  1357)       884.8  Rx         04B0  8  9D 00 80 00 C0 00 00 F3 
  1358)       886.6  Rx         0085  8  7D 05 80 00 7A 60 FF FE 
  1359)       887.6  Rx         042C  8  8C 00 00 00 DA E0 00 00 
  1360)       891.9  Rx         0217  8  00 00 00 00 00 00 00 00 
  1361)       893.3  Rx         0047  8  20 00 00 00 00 00 00 00 
  1362)       893.5  Rx         0165  8  10 40 00 00 00 00 00 00 
  1363)       893.7  Rx         0167  8  72 80 00 00 00 1A 19 00 
  1364)       894.0  Rx         0200  8  00 00 80 D5 80 D5 00 00 
  1365)       894.3  Rx         0202  8  00 EF 68 00 60 00 00 00 
  1366)       894.5  Rx         0204  8  C0 00 7D 02 11 00 00 00 
  1367)       894.7  Rx         0230  8  F0 1C 00 00 59 00 00 00 
  1368)       897.0  Rx         0082  8  83 00 14 38 A4 00 40 FF 
  1369)       897.3  Rx         0085  8  7D 05 80 00 79 70 FF FE 
  1370)       898.1  Rx         0041  8  00 00 00 00 00 00 00 00 
  1371)       898.4  Rx         0042  8  00 00 00 00 00 00 00 00 
  1372)       901.9  Rx         0076  8  3E 80 40 00 00 00 00 00 
  1373)       902.2  Rx         0077  8  00 00 08 01 7F F7 F9 F4 
  1374)       902.4  Rx         007D  8  00 00 F2 D0 00 1F E8 02 
  1375)       902.7  Rx         0213  8  FF FF 00 00 80 11 FF 41 
  1376)       903.1  Rx         0216  8  00 00 00 01 AA 00 00 00 
  1377)       903.3  Rx         0167  8  72 80 00 00 00 1A 19 00 
  1378)       903.6  Rx         0204  8  C0 00 7D 02 14 00 00 00 
  1379)       903.9  Rx         0217  8  00 00 00 00 00 00 00 00 
  1380)       904.1  Rx         0415  8  00 00 C8 FA 0F FE 0F FE 
  1381)       904.3  Rx         043D  8  00 67 BD 7E 00 00 00 00 
  1382)       904.6  Rx         043E  8  00 96 10 8C 60 29 E2 C1 
  1383)       904.8  Rx         04B0  8  9D 00 80 00 D0 00 00 F2 
  1384)       906.5  Rx         0085  8  7D 04 80 00 79 80 FF FE 
  1385)       911.8  Rx         0217  8  00 00 00 00 00 00 00 00 
  1386)       913.3  Rx         0047  8  20 00 00 00 00 00 00 00 
  1387)       913.5  Rx         0165  8  10 40 00 00 00 00 00 00 
  1388)       913.8  Rx         0167  8  72 80 00 00 00 1A 1C 00 
  1389)       914.0  Rx         0171  8  F0 E0 00 00 00 00 00 00 
  1390)       914.3  Rx         0200  8  00 00 80 D2 80 D2 00 00 
  1391)       914.5  Rx         0202  8  00 ED 78 00 60 00 00 00 
  1392)       914.7  Rx         0204  8  C0 00 7D 02 18 00 00 00 
  1393)       915.0  Rx         0230  8  F0 1C 00 00 59 00 00 00 
  1394)       915.2  Rx         042F  8  7D 0F E8 4E 26 47 00 00 
  1395)       917.0  Rx         0082  8  83 00 14 38 A4 00 40 FF 
  1396)       917.3  Rx         0085  8  7D 04 80 00 78 90 FF FE 
  1397)       917.6  Rx         0041  8  00 00 00 00 00 00 00 00 
  1398)       917.9  Rx         0042  8  00 00 00 00 00 00 00 00 
  1399)       918.1  Rx         0242  8  03 AC 24 40 E4 00 00 01 
  1400)       920.9  Rx         0092  8  6F AE 6F 68 73 67 28 20 
  1401)       922.0  Rx         0076  8  3E 80 40 00 00 00 00 00 
  1402)       922.2  Rx         0077  8  00 00 08 01 7F F8 05 F6 
  1403)       922.5  Rx         007D  8  00 00 F1 E0 00 1F C8 03 
  1404)       922.7  Rx         0213  8  FF FF 00 00 80 11 FF 41 
  1405)       923.1  Rx         0216  8  00 00 00 01 AA 00 00 00 
  1406)       923.4  Rx         0167  8  72 80 00 00 00 1A 1C 00 
  1407)       923.7  Rx         0204  8  C0 00 7D 02 18 00 00 00 
  1408)       923.9  Rx         0217  8  00 00 00 00 00 00 00 00 
  1409)       924.1  Rx         0326  8  01 A0 02 68 01 D0 00 00 
  1410)       924.4  Rx         0415  8  00 00 CC F9 0F FE 0F FE 
  1411)       924.6  Rx         0416  8  5A 00 F4 08 01 00 00 00 
  1412)       924.9  Rx         04B0  8  9D 00 80 00 E0 00 00 F1 
  1413)       926.5  Rx         0085  8  7D 04 80 00 77 A0 FF FE 
  1414)       927.5  Rx         0083  8  00 E0 80 00 00 00 00 00 
  1415)       928.1  Rx         035E  8  00 00 00 00 00 00 00 00 
  1416)       931.9  Rx         0217  8  00 00 00 00 00 00 00 00 
  1417)       933.3  Rx         0047  8  20 00 00 00 00 00 00 00 
  1418)       933.6  Rx         0165  8  10 40 00 00 00 00 00 00 
  1419)       933.8  Rx         0167  8  72 80 00 00 00 1A 1C 00 
  1420)       934.0  Rx         0200  8  00 00 80 CB 80 CB 00 00 
  1421)       934.3  Rx         0202  8  00 FB 08 00 60 00 00 00 
  1422)       934.5  Rx         0204  8  C0 00 7D 02 17 00 00 00 
  1423)       934.8  Rx         0230  8  F0 1C 00 00 59 00 00 00 
  1424)       936.1  Rx         0430  8  06 00 E3 99 8A 01 17 91 
  1425)       936.3  Rx         0434  8  27 E8 15 55 0F FF 00 20 
  1426)       936.5  Rx         0435  8  28 20 10 92 C7 20 09 02 
  1427)       937.0  Rx         0082  8  81 00 14 34 A5 00 40 FF 
  1428)       937.3  Rx         0085  8  7D 03 80 00 77 B0 FF FE 
  1429)       937.6  Rx         0041  8  00 00 00 00 00 00 00 00 
  1430)       937.9  Rx         0042  8  00 00 00 00 00 00 00 00 
  1431)       938.1  Rx         042C  8  8C 00 00 00 DA E0 00 00 
  1432)       941.9  Rx         0076  8  3E 80 40 00 00 00 00 00 
  1433)       942.2  Rx         0077  8  00 00 08 00 7F F7 FD F8 
  1434)       942.4  Rx         007D  8  00 00 F0 F0 00 1F E8 04 
  1435)       942.7  Rx         0213  8  FF FF 00 00 80 11 FF 41 
  1436)       943.2  Rx         0216  8  00 00 00 01 AA 00 00 00 
  1437)       943.4  Rx         0167  8  72 80 00 00 00 1A 1C 00 
  1438)       943.6  Rx         0171  8  F0 E0 00 00 00 00 00 00 
  1439)       943.9  Rx         0204  8  C0 00 7D 02 12 00 00 00 
  1440)       944.1  Rx         0217  8  00 00 00 00 00 00 00 00 
  1441)       944.4  Rx         0415  8  00 00 D0 F8 0F FE 0F FE 
  1442)       944.6  Rx         042F  8  7D 0F E8 4E 26 48 00 00 
  1443)       944.9  Rx         04B0  8  9D 00 80 00 F0 00 00 F0 
  1444)       946.7  Rx         0085  8  7D 03 80 00 76 C0 FF FE 
  1445)       949.1  Rx         004A  8  02 00 00 00 00 00 00 00 
  1446)       949.3  Rx         004B  8  00 C0 D8 D8 D8 D8 C0 00 
  1447)       949.6  Rx         004C  8  20 AF FF 00 00 00 00 00 
  1448)       951.9  Rx         0217  8  00 00 00 00 00 00 00 00 
  1449)       953.3  Rx         0047  8  20 00 00 00 00 00 00 00 
  1450)       953.5  Rx         0156  8  5E 5F 00 00 03 00 00 00 
  1451)       953.8  Rx         0165  8  10 40 00 00 00 00 00 00 
  1452)       954.0  Rx         0166  8  00 00 00 00 8A 75 00 00 
  1453)       954.3  Rx         0167  8  72 80 00 00 00 1A 1D 00 
  1454)       954.5  Rx         0178  8  00 00 01 FB 0E 74 DE 74 
  1455)       954.8  Rx         0179  8  00 00 00 00 84 00 02 AD 
  1456)       955.0  Rx         0200  8  00 00 80 D5 80 D5 00 00 
  1457)       955.2  Rx         0202  8  00 F9 18 00 60 00 00 00 
  1458)       955.5  Rx         0204  8  C0 00 7D 02 12 00 00 00 
  1459)       955.7  Rx         0230  8  F0 1C 00 00 59 00 00 00 
  1460)       956.0  Rx         0421  8  00 00 10 00 00 00 3A 00 
  1461)       956.2  Rx         0424  8  00 FF C0 00 00 00 00 00 
  1462)       956.5  Rx         042D  8  00 02 7F 00 00 00 F0 00 
  1463)       956.7  Rx         043D  8  00 66 BF 7D 00 00 00 00 
  1464)       956.9  Rx         043E  8  00 96 10 8C 60 2A 1A C1 
  1465)       957.2  Rx         0082  8  80 00 14 38 A5 00 40 FF 
  1466)       957.4  Rx         0085  8  7D 02 80 00 76 D0 FF FE 
  1467)       957.7  Rx         0455  8  A0 00 00 00 00 00 00 00 
  1468)       958.0  Rx         0041  8  00 00 00 00 00 00 00 00 
  1469)       958.3  Rx         0042  8  00 00 00 00 00 00 00 00 
  1470)       958.5  Rx         0242  8  03 AC 24 42 E4 00 00 01 
  1471)       962.0  Rx         0076  8  3E 80 40 00 00 00 00 00 
  1472)       962.2  Rx         0077  8  00 00 08 01 7F F8 01 F6 
  1473)       962.5  Rx         007D  8  00 00 FF 00 00 1F F7 FE 
  1474)       962.7  Rx         0213  8  FF FF 00 00 80 11 FF 41 
  1475)       963.2  Rx         0216  8  00 00 00 01 AA 00 00 00 
  1476)       963.4  Rx         0167  8  72 80 00 00 00 1A 1D 00 
  1477)       963.6  Rx         0204  8  C0 00 7D 02 11 00 00 00 
  1478)       963.9  Rx         0217  8  00 00 00 00 00 00 00 00 
  1479)       964.1  Rx         0415  8  00 00 D4 F7 0F FE 0F FE 
  1480)       964.4  Rx         04B0  8  9D 00 80 00 00 00 00 FF 
  1481)       966.6  Rx         0085  8  7D 02 80 00 75 E0 FF FE 
  1482)       971.9  Rx         0217  8  00 00 00 00 00 00 00 00 
  1483)       973.3  Rx         0047  8  20 00 00 00 00 00 00 00 
  1484)       973.6  Rx         0165  8  10 40 00 00 00 00 00 00 
  1485)       973.8  Rx         0167  8  72 80 00 00 00 1A 1E 00 
  1486)       974.0  Rx         0171  8  F0 E0 00 00 00 00 00 00 
  1487)       974.3  Rx         0200  8  00 00 80 D6 80 D6 00 00 
  1488)       974.6  Rx         0202  8  00 F7 28 00 60 00 00 00 
  1489)       974.8  Rx         0204  8  C0 00 7D 02 12 00 00 00 
  1490)       975.0  Rx         0230  8  F0 1C 00 00 59 00 00 00 
  1491)       975.3  Rx         042F  8  7D 0F E8 4E 26 4B 00 00 
  1492)       977.0  Rx         0082  8  81 00 14 38 A5 00 40 FF 
  1493)       977.2  Rx         0085  8  7D 02 80 00 74 F0 FF FE 
  1494)       977.6  Rx         0041  8  00 00 00 00 00 00 00 00 
  1495)       977.9  Rx         0042  8  00 00 00 00 00 00 00 00 
  1496)       982.0  Rx         0076  8  3E 80 40 00 00 00 00 00 
  1497)       982.2  Rx         0077  8  00 00 08 00 7F F7 FD F5 
  1498)       982.5  Rx         007D  8  00 00 FE 10 00 20 17 FD 
  1499)       982.7  Rx         0213  8  FF FF 00 00 80 11 FF 41 
  1500)       983.2  Rx         0216  8  00 00 00 01 AA 00 00 00 
  1501)       983.4  Rx         0217  8  00 00 00 00 00 00 00 00 
  1502)       983.6  Rx         0167  8  72 80 00 00 00 1A 1F 00 
  1503)       983.9  Rx         0204  8  C0 00 7D 02 12 00 00 00 
  1504)       984.2  Rx         0415  8  00 00 D8 F6 0F FE 0F FE 
  1505)       984.4  Rx         04B0  8  9D 00 80 00 10 00 00 FE 
  1506)       986.6  Rx         0085  8  7D 02 80 00 83 00 FF FE 
  1507)       987.6  Rx         03B6  8  08 00 00 00 24 31 91 44 
  1508)       987.9  Rx         03B7  8  00 00 00 00 60 9D 4F 0A 
