(0000000000.003300) vcan0 011#03E8FFF605690000
(0000000000.004100) vcan0 2D0#0010000000100000
(0000000000.006500) vcan0 2D2#0010000000100000
(0000000000.008500) vcan0 012#FFF700FAFEEFFFFF
(0000000000.013800) vcan0 013#0064000000091EFC
(0000000000.019000) vcan0 014#FBFA81
(0000000000.025300) vcan0 2D0#0010000000100000
(0000000000.028600) vcan0 2D2#0010000000100000
(0000000000.046700) vcan0 2D0#0010000000100000
(0000000000.048500) vcan0 2D2#0010000000100000
(0000000000.050500) vcan0 010#04990000FFF6F555
(0000000000.055800) vcan0 011#03E8FFF605690000
(0000000000.061000) vcan0 012#FFF700FAFEEFFFFF
(0000000000.066300) vcan0 013#0064000000091EFC
(0000000000.066400) vcan0 2D0#0010000000100000
(0000000000.068500) vcan0 2D2#0010000000100000
(0000000000.071400) vcan0 014#FBFA81
(0000000000.088400) vcan0 2D0#0010000000100000
(0000000000.090100) vcan0 2D2#0010000000100000
(0000000000.103000) vcan0 010#04990000FFF6F555
(0000000000.108200) vcan0 011#03E8FFF605680000
(0000000000.110800) vcan0 2D0#0010000000100000
(0000000000.112600) vcan0 2D2#0010000000100000
(0000000000.113500) vcan0 012#FFF700FAFEEFFFFF
(0000000000.118700) vcan0 013#0064000000091EFC
(0000000000.123900) vcan0 014#FBFA80
(0000000000.129800) vcan0 2D0#0010000000100000
(0000000000.131600) vcan0 2D2#0010000000100000
(0000000000.153300) vcan0 2D0#0010000000100000
(0000000000.155500) vcan0 010#04990000FFF6F555
(0000000000.158200) vcan0 2D2#0010000000100000
(0000000000.160800) vcan0 011#03E8FFF605680000
(0000000000.166000) vcan0 012#FFF700FAFEEFFFFF
(0000000000.171200) vcan0 013#0064000000091EFC
(0000000000.176400) vcan0 014#FBFA80
(0000000000.177500) vcan0 2D0#0010000000100000
(0000000000.179600) vcan0 2D2#0010000000100000
(0000000000.199500) vcan0 2D0#0010000000100000
(0000000000.201600) vcan0 2D2#0010000000100000
(0000000000.208000) vcan0 010#04990000FFF6F555
(0000000000.213100) vcan0 011#03E8FFF605680000
(0000000000.218400) vcan0 012#FFF700FAFEEFFFFF
(0000000000.218900) vcan0 2D0#0010000000100000
(0000000000.221700) vcan0 2D2#0010000000100000
(0000000000.223700) vcan0 013#0064000000091EFC
(0000000000.228900) vcan0 014#FBFA80
(0000000000.241200) vcan0 2D0#0010000000100000
(0000000000.242900) vcan0 2D2#0010000000100000
(0000000000.260399) vcan0 010#04990000FFF6F555
(0000000000.261200) vcan0 2D0#0010000000100000
(0000000000.262900) vcan0 2D2#0010000000100000
(0000000000.265700) vcan0 011#03E8FFF605680000
(0000000000.270900) vcan0 012#FFF700FAFEEFFFFF
(0000000000.276100) vcan0 013#0064000000091EFC
(0000000000.281300) vcan0 014#FBFA80
(0000000000.282200) vcan0 2D0#0010000000100000
(0000000000.284100) vcan0 2D2#0010000000100000
(0000000000.304000) vcan0 2D0#0010000000100000
(0000000000.306500) vcan0 2D2#0010000000100000
(0000000000.312800) vcan0 010#04990000FFF6F555
(0000000000.318100) vcan0 011#03E8FFF605680000
(0000000000.323300) vcan0 012#FFF700FAFEEFFFFF
(0000000000.324000) vcan0 2D0#0010000000100000
(0000000000.326200) vcan0 2D2#0010000000100000
(0000000000.328600) vcan0 013#0064000000091EFC
(0000000000.333800) vcan0 014#FBFA80
(0000000000.345300) vcan0 2D0#0010000000100000
(0000000000.347900) vcan0 2D2#0010000000100000
(0000000000.365400) vcan0 010#04990000FFF6F555
(0000000000.368200) vcan0 2D0#0010000000100000
(0000000000.370600) vcan0 011#03E8FFF605680000
(0000000000.371200) vcan0 2D2#0010000000100000
(0000000000.375900) vcan0 012#FFF700FAFEEFFFFF
(0000000000.381000) vcan0 013#0064000000091EFC
(0000000000.386300) vcan0 014#FBFA80
(0000000000.396000) vcan0 2D0#0010000000100000
(0000000000.398400) vcan0 2D2#0010000000100000
(0000000000.417900) vcan0 010#04990000FFF6F555
(0000000000.419700) vcan0 2D0#0010000000100000
(0000000000.422200) vcan0 2D2#0010000000100000
(0000000000.423100) vcan0 011#03E8FFF605680000
(0000000000.428300) vcan0 012#FFF700FAFEEFFFFF
(0000000000.433600) vcan0 013#0064000000091EFC
(0000000000.438700) vcan0 014#FBFA80
(0000000000.439800) vcan0 2D0#0010000000100000
(0000000000.441500) vcan0 2D2#0010000000100000
(0000000000.461500) vcan0 2D0#0010000000100000
(0000000000.463700) vcan0 2D2#0010000000100000
(0000000000.470200) vcan0 010#04990000FFF6F555
(0000000000.475600) vcan0 011#03E8FFF605690000
(0000000000.480800) vcan0 012#FFF700FAFEEFFFFF
(0000000000.482800) vcan0 2D0#0010000000100000
(0000000000.485200) vcan0 2D2#0010000000100000
(0000000000.486000) vcan0 013#0064000000091EFC
(0000000000.491200) vcan0 014#FBFA81
(0000000000.502800) vcan0 2D0#0010000000100000
(0000000000.505400) vcan0 2D2#0010000000100000
(0000000000.522799) vcan0 010#04990000FFF6F555
(0000000000.524600) vcan0 2D0#0010000000100000
(0000000000.527200) vcan0 2D2#0010000000100000
(0000000000.528000) vcan0 011#03E8FFF605690000
(0000000000.533200) vcan0 012#FFF700FAFEEFFFFF
(0000000000.538500) vcan0 013#0064000000091EFC
(0000000000.543700) vcan0 014#FBFA81
(0000000000.543900) vcan0 2D0#0010000000100000
(0000000000.546400) vcan0 2D2#0010000000100000
(0000000000.565000) vcan0 2D0#0010000000100000
(0000000000.570200) vcan0 2D2#0010000000100000
(0000000000.575200) vcan0 010#04990000FFF6F555
(0000000000.580600) vcan0 011#03E8FFF605680000
(0000000000.585700) vcan0 012#FFF700FAFEEFFFFF
(0000000000.590900) vcan0 013#0064000000091EFC
(0000000000.591700) vcan0 2D0#0010000000100000
(0000000000.593400) vcan0 2D2#0010000000100000
(0000000000.596200) vcan0 014#FBFA80
(0000000000.612500) vcan0 2D0#0010000000100000
(0000000000.614300) vcan0 2D2#0010000000100000
(0000000000.627700) vcan0 010#04990000FFF6F555
(0000000000.632900) vcan0 011#03E8FFF605690000
(0000000000.634400) vcan0 2D0#0010000000100000
(0000000000.636700) vcan0 2D2#0010000000100000
(0000000000.638200) vcan0 012#FFF700FAFEEFFFFF
(0000000000.643400) vcan0 013#0064000000091EFC
(0000000000.648700) vcan0 014#FBFA81
(0000000000.655700) vcan0 2D0#0010000000100000
(0000000000.659600) vcan0 2D2#0010000000100000
(0000000000.680100) vcan0 010#04990000FFF6F555
(0000000000.681800) vcan0 2D0#0010000000100000
(0000000000.683600) vcan0 2D2#0010000000100000
(0000000000.685400) vcan0 011#03E8FFF605690000
(0000000000.690600) vcan0 012#FFF700FAFEEFFFFF
(0000000000.695900) vcan0 013#0064000000091EFC
(0000000000.701100) vcan0 014#FBFA81
(0000000000.702600) vcan0 2D0#0010000000100000
(0000000000.704300) vcan0 2D2#0010000000100000
(0000000000.723800) vcan0 2D0#0010000000100000
(0000000000.725900) vcan0 2D2#0010000000100000
(0000000000.732700) vcan0 010#04990000FFF6F555
(0000000000.737900) vcan0 011#03E8FFF605680000
(0000000000.743200) vcan0 012#FFF700FAFEEFFFFF
(0000000000.745900) vcan0 2D0#0010000000100000
(0000000000.747700) vcan0 2D2#0010000000100000
(0000000000.748400) vcan0 013#0064000000091EFC
(0000000000.753600) vcan0 014#FBFA80
(0000000000.765200) vcan0 2D0#0010000000100000
(0000000000.766900) vcan0 2D2#0010000000100000
(0000000000.785100) vcan0 010#04990000FFF6F555
(0000000000.785200) vcan0 2D0#0010000000100000
(0000000000.787000) vcan0 2D2#0010000000100000
(0000000000.790400) vcan0 011#03E8FFF605690000
(0000000000.795600) vcan0 012#FFF700FAFEEFFFFF
(0000000000.800900) vcan0 013#0064000000091EFC
(0000000000.806000) vcan0 014#FBFA81
(0000000000.806500) vcan0 2D0#0010000000100000
(0000000000.808300) vcan0 2D2#0010000000100000
(0000000000.828400) vcan0 2D0#0010000000100000
(0000000000.830900) vcan0 2D2#0010000000100000
(0000000000.837600) vcan0 010#04990000FFF6F555
(0000000000.842800) vcan0 011#03E8FFF605680000
(0000000000.848100) vcan0 012#FFF700FAFEEFFFFF
(0000000000.848600) vcan0 2D0#0010000000100000
(0000000000.851400) vcan0 2D2#0010000000100000
(0000000000.853400) vcan0 013#0064000000091EFC
(0000000000.858600) vcan0 014#FBFA80
(0000000000.870200) vcan0 2D0#0010000000100000
(0000000000.872900) vcan0 2D2#0010000000100000
(0000000000.890100) vcan0 010#04990000FFF6F555
(0000000000.892400) vcan0 2D0#0010000000100000
(0000000000.895300) vcan0 011#03E8FFF605680000
(0000000000.895400) vcan0 2D2#0010000000100000
(0000000000.900600) vcan0 012#FFF700FAFEEFFFFF
(0000000000.905800) vcan0 013#0064000000091EFC
(0000000000.911000) vcan0 014#FBFA80
(0000000000.912100) vcan0 2D0#0010000000100000
(0000000000.915100) vcan0 2D2#0010000000100000
(0000000000.933900) vcan0 2D0#0010000000100000
(0000000000.939400) vcan0 2D2#0010000000100000
(0000000000.942600) vcan0 010#04990000FFF6F555
(0000000000.947700) vcan0 011#03E8FFF605680000
(0000000000.953000) vcan0 012#FFF700FAFEEFFFFF
(0000000000.958300) vcan0 013#0064000000091EFC
(0000000000.959300) vcan0 2D0#0010000000100000
(0000000000.961000) vcan0 2D2#0010000000100000
(0000000000.963500) vcan0 014#FBFA80
(0000000000.981000) vcan0 2D0#0010000000100000
(0000000000.983700) vcan0 2D2#0010000000100000
(0000000000.995000) vcan0 010#04990000FFF6F555
(0000000001.000300) vcan0 011#03E8FFF605680000
(0000000001.001300) vcan0 2D0#0010000000100000
(0000000001.004100) vcan0 2D2#0010000000100000
(0000000001.005500) vcan0 012#FFF700FAFEEFFFFF
(0000000001.010700) vcan0 013#0064000000091EFC
(0000000001.015900) vcan0 014#FBFA80
(0000000001.022900) vcan0 2D0#0010000000100000
(0000000001.028300) vcan0 2D2#0010000000100000
(0000000001.047500) vcan0 010#04990000FFF6F555
(0000000001.049200) vcan0 2D0#0010000000100000
(0000000001.051000) vcan0 2D2#0010000000100000
(0000000001.052700) vcan0 011#03E8FFF605690000
(0000000001.058000) vcan0 012#FFF700FAFEEFFFFF
(0000000001.063200) vcan0 013#0064000000091EFC
(0000000001.068400) vcan0 014#FBFA81
(0000000001.068700) vcan0 2D0#0010000000100000
(0000000001.070500) vcan0 2D2#0010000000100000
(0000000001.090400) vcan0 2D0#0010000000100000
(0000000001.092300) vcan0 2D2#0010000000100000
(0000000001.099900) vcan0 010#04990000FFF6F555
(0000000001.105200) vcan0 011#03E8FFF605690000
(0000000001.110400) vcan0 012#FFF700FAFEEFFFFF
(0000000001.111000) vcan0 2D0#0010000000100000
(0000000001.112800) vcan0 2D2#0010000000100000
(0000000001.115700) vcan0 013#0064000000091EFC
(0000000001.120900) vcan0 014#FBFA81
(0000000001.131800) vcan0 2D0#0010000000100000
(0000000001.135400) vcan0 2D2#0010000000100000
(0000000001.152400) vcan0 010#04990000FFF6F555
(0000000001.155100) vcan0 2D0#0010000000100000
(0000000001.157600) vcan0 011#03E8FFF605680000
(0000000001.160100) vcan0 2D2#0010000000100000
(0000000001.162900) vcan0 012#FFF700FAFEEFFFFF
(0000000001.168200) vcan0 013#0064000000091EFC
(0000000001.173400) vcan0 014#FBFA80
(0000000001.180500) vcan0 2D0#0010000000100000
(0000000001.182600) vcan0 2D2#0010000000100000
(0000000001.199800) vcan0 2D0#0010000000100000
(0000000001.201900) vcan0 2D2#0010000000100000
(0000000001.204900) vcan0 010#04990000FFF6F555
(0000000001.210200) vcan0 011#03E8FFF605690000
(0000000001.215400) vcan0 012#FFF700FAFEEFFFFF
(0000000001.220600) vcan0 013#0064000000091EFC
(0000000001.222100) vcan0 2D0#0010000000100000
(0000000001.224300) vcan0 2D2#0010000000100000
(0000000001.225900) vcan0 014#FBFA81
(0000000001.242100) vcan0 2D0#0010000000100000
(0000000001.244400) vcan0 2D2#0010000000100000
(0000000001.257400) vcan0 010#04990000FFF6F555
(0000000001.262600) vcan0 011#03E8FFF605690000
(0000000001.263700) vcan0 2D0#0010000000100000
(0000000001.266400) vcan0 2D2#0010000000100000
(0000000001.267900) vcan0 012#FFF700FAFEEFFFFF
(0000000001.273200) vcan0 013#0064000000091EFC
(0000000001.278400) vcan0 014#FBFA81
(0000000001.284100) vcan0 2D0#0010000000100000
(0000000001.285800) vcan0 2D2#0010000000100000
(0000000001.304600) vcan0 2D0#0010000000100000
(0000000001.306400) vcan0 2D2#0010000000100000
(0000000001.309800) vcan0 010#04990000FFF6F555
(0000000001.315200) vcan0 011#03E8FFF605680000
(0000000001.320300) vcan0 012#FFF700FAFEEFFFFF
(0000000001.325500) vcan0 013#0064000000091EFC
(0000000001.329100) vcan0 2D0#0010000000100000
(0000000001.330800) vcan0 014#FBFA80
(0000000001.331500) vcan0 2D2#0010000000100000
(0000000001.353000) vcan0 2D0#0010000000100000
(0000000001.354700) vcan0 2D2#0010000000100000
(0000000001.362300) vcan0 010#04990000FFF6F555
(0000000001.367600) vcan0 011#03E8FFF605680000
(0000000001.372800) vcan0 012#FFF700FAFEEFFFFF
(0000000001.373000) vcan0 2D0#0010000000100000
(0000000001.374800) vcan0 2D2#0010000000100000
(0000000001.378100) vcan0 013#0064000000091EFC
(0000000001.383200) vcan0 014#FBFA80
(0000000001.394900) vcan0 2D0#0010000000100000
(0000000001.397300) vcan0 2D2#0010000000100000
(0000000001.414800) vcan0 010#04990000FFF6F555
(0000000001.416100) vcan0 2D0#0010000000100000
(0000000001.418800) vcan0 2D2#0010000000100000
(0000000001.420100) vcan0 011#03E8FFF605680000
(0000000001.425300) vcan0 012#FFF700FAFEEFFFFF
(0000000001.430500) vcan0 013#0064000000091EFC
(0000000001.435800) vcan0 014#FBFA80
(0000000001.436700) vcan0 2D0#0010000000100000
(0000000001.439500) vcan0 2D2#0010000000100000
(0000000001.458800) vcan0 2D0#0010000000100000
(0000000001.462000) vcan0 2D2#0010000000100000
(0000000001.467300) vcan0 010#04990000FFF6F555
(0000000001.472500) vcan0 011#03E8FFF605690000
(0000000001.477800) vcan0 012#FFF700FAFEEFFFFF
(0000000001.477900) vcan0 2D0#0010000000100000
(0000000001.480700) vcan0 2D2#0010000000100000
(0000000001.483000) vcan0 013#0064000000091EFC
(0000000001.488300) vcan0 014#FBFA81
(0000000001.499100) vcan0 2D0#0010000000100000
(0000000001.504500) vcan0 2D2#0010000000100000
(0000000001.519700) vcan0 010#04990000FFF6F555
(0000000001.525000) vcan0 011#03E8FFF605680000
(0000000001.525700) vcan0 2D0#0010000000100000
(0000000001.527400) vcan0 2D2#0010000000100000
(0000000001.530200) vcan0 012#FFF700FAFEEFFFFF
(0000000001.535400) vcan0 013#0064000000091EFC
(0000000001.540600) vcan0 014#FBFA80
(0000000001.546400) vcan0 2D0#0010000000100000
(0000000001.548700) vcan0 2D2#0010000000100000
(0000000001.567700) vcan0 2D0#0010000000100000
(0000000001.570500) vcan0 2D2#0010000000100000
(0000000001.572200) vcan0 010#04990000FFF6F555
(0000000001.577500) vcan0 011#03E8FFF605690000
(0000000001.582700) vcan0 012#FFF700FAFEEFFFFF
(0000000001.588000) vcan0 013#0064000000091EFC
(0000000001.588900) vcan0 2D0#0010000000100000
(0000000001.590800) vcan0 2D2#0010000000100000
(0000000001.593100) vcan0 014#FBFA81
(0000000001.609600) vcan0 2D0#0010000000100000
(0000000001.611300) vcan0 2D2#0010000000100000
(0000000001.624700) vcan0 010#030A0000FFF6F555
(0000000001.630000) vcan0 011#03E8FFF605680000
(0000000001.634200) vcan0 2D0#0010000000100000
(0000000001.635200) vcan0 012#FFF700FAFEEFFFFF
(0000000001.636600) vcan0 2D2#0010000000100000
(0000000001.640400) vcan0 013#007F000000051EFC
(0000000001.645700) vcan0 014#FBFA07
(0000000001.657800) vcan0 2D0#0010000000100000
(0000000001.659600) vcan0 2D2#0010000000100000
(0000000001.677200) vcan0 010#030A0000FFF6F555
(0000000001.682400) vcan0 011#03E8FFF605680000
(0000000001.684700) vcan0 2D0#0010000000100000
(0000000001.687300) vcan0 2D2#0010000000100000
(0000000001.687600) vcan0 012#FFF700FAFEEFFFFF
(0000000001.693000) vcan0 013#007F000000051EFC
(0000000001.698100) vcan0 014#FBFA07
(0000000001.704600) vcan0 2D0#0010000000100000
(0000000001.707300) vcan0 2D2#0010000000100000
(0000000001.726500) vcan0 2D0#0010000000100000
(0000000001.729700) vcan0 010#030D0000FFF6F555
(0000000001.731600) vcan0 2D2#0010000000100000
(0000000001.735000) vcan0 011#03E8FFF605690000
(0000000001.740200) vcan0 012#FFF700FAFEEFFFFF
(0000000001.745400) vcan0 013#007E000000051EFC
(0000000001.750600) vcan0 014#FBFA0A
(0000000001.751500) vcan0 2D0#0010000000100000
(0000000001.753600) vcan0 2D2#0010000000100000
(0000000001.773600) vcan0 2D0#0010000000100000
(0000000001.775700) vcan0 2D2#0010000000100000
(0000000001.782200) vcan0 010#030D0000FFF6F555
(0000000001.787300) vcan0 011#03E8FFF605690000
(0000000001.792700) vcan0 012#FFF700FAFEEFFFFF
(0000000001.794700) vcan0 2D0#0010000000100000
(0000000001.796800) vcan0 2D2#0010000000100000
(0000000001.797900) vcan0 013#007E000000051EFC
(0000000001.803100) vcan0 014#FBFA0A
(0000000001.814600) vcan0 2D0#0010000000100000
(0000000001.816700) vcan0 2D2#0010000000100000
(0000000001.834700) vcan0 010#030D0000FFF6F555
(0000000001.836400) vcan0 2D0#0010000000100000
(0000000001.838300) vcan0 2D2#0010000000100000
(0000000001.839900) vcan0 011#03E8FFF605690000
(0000000001.845200) vcan0 012#FFF700FAFEEFFFFF
(0000000001.850300) vcan0 013#007E000000051EFC
(0000000001.855600) vcan0 014#FBFA0A
(0000000001.857300) vcan0 2D0#0010000000100000
(0000000001.859400) vcan0 2D2#0010000000100000
(0000000001.877100) vcan0 2D0#0010000000100000
(0000000001.879300) vcan0 2D2#0010000000100000
(0000000001.887100) vcan0 010#030A0000FFF6F555
(0000000001.892300) vcan0 011#03E8FFF605690000
(0000000001.897600) vcan0 012#FFF700FAFEEFFFFF
(0000000001.899200) vcan0 2D0#0010000000100000
(0000000001.901000) vcan0 2D2#0010000000100000
(0000000001.902900) vcan0 013#007F000000051EFC
(0000000001.908000) vcan0 014#FBFA08
(0000000001.920300) vcan0 2D0#0010000000100000
(0000000001.922600) vcan0 2D2#0010000000100000
(0000000001.939600) vcan0 010#030A0000FFF6F555
(0000000001.940200) vcan0 2D0#0010000000100000
(0000000001.943000) vcan0 2D2#0010000000100000
(0000000001.944900) vcan0 011#03E8FFF605680000
(0000000001.950100) vcan0 012#FFF700FAFEEFFFFF
(0000000001.955300) vcan0 013#007F000000051EFC
(0000000001.960500) vcan0 014#FBFA07
(0000000001.963200) vcan0 2D0#0010000000100000
(0000000001.968300) vcan0 2D2#0010000000100000
(0000000001.988400) vcan0 2D0#0010000000100000
(0000000001.990500) vcan0 2D2#0010000000100000
(0000000001.992100) vcan0 010#030D0000FFF6F555
(0000000001.997300) vcan0 011#03E8FFF605690000
(0000000002.002600) vcan0 012#FFF700FAFEEFFFFF
(0000000002.007900) vcan0 013#007E000000051EFC
(0000000002.009900) vcan0 2D0#0010000000100000
(0000000002.012000) vcan0 2D2#0010000000100000
(0000000002.012900) vcan0 014#FBFA0A
(0000000002.029000) vcan0 2D0#0010000000100000
(0000000002.030700) vcan0 2D2#0010000000100000
(0000000002.044500) vcan0 010#030D0000FFF6F555
(0000000002.049900) vcan0 011#03E8FFF605680000
(0000000002.051100) vcan0 2D0#0010000000100000
(0000000002.052800) vcan0 2D2#0010000000100000
(0000000002.055000) vcan0 012#FFF700FAFEEFFFFF
(0000000002.060199) vcan0 013#007E000000051EFC
(0000000002.065400) vcan0 014#FBFA09
(0000000002.072400) vcan0 2D0#0010000000100000
(0000000002.075199) vcan0 2D2#0010000000100000
(0000000002.094800) vcan0 2D0#0010000000100000
(0000000002.096699) vcan0 2D2#0010000000100000
(0000000002.097000) vcan0 010#030D0000FFF6F555
(0000000002.102200) vcan0 011#03E8FFF605680000
(0000000002.107500) vcan0 012#FFF700FAFEEFFFFF
(0000000002.112800) vcan0 013#007E000000051EFC
(0000000002.113200) vcan0 2D0#0010000000100000
(0000000002.115600) vcan0 2D2#0010000000100000
(0000000002.117900) vcan0 014#FBFA09
(0000000002.136500) vcan0 2D0#0010000000100000
(0000000002.141200) vcan0 2D2#0010000000100000
(0000000002.149500) vcan0 010#030D0000FFF6F555
(0000000002.154800) vcan0 011#03E8FFF605680000
(0000000002.160100) vcan0 012#FFF700FAFEEFFFFF
(0000000002.161400) vcan0 2D0#0010000000100000
(0000000002.163500) vcan0 2D2#0010000000100000
(0000000002.165200) vcan0 013#007E000000051EFC
(0000000002.170400) vcan0 014#FBFA09
(0000000002.181200) vcan0 2D0#0010000000100000
(0000000002.183300) vcan0 2D2#0010000000100000
(0000000002.202000) vcan0 010#030A0000FFF6F555
(0000000002.202200) vcan0 2D0#0010000000100000
(0000000002.204300) vcan0 2D2#0010000000100000
(0000000002.207100) vcan0 011#03E8FFF605680000
(0000000002.212500) vcan0 012#FFF700FAFEEFFFFF
(0000000002.217700) vcan0 013#007E000000051EFC
(0000000002.222900) vcan0 014#FBFA06
(0000000002.224300) vcan0 2D0#0010000000100000
(0000000002.226300) vcan0 2D2#0010000000100000
(0000000002.246000) vcan0 2D0#0010000000100000
(0000000002.248000) vcan0 2D2#0010000000100000
(0000000002.254500) vcan0 010#030A0000FFF6F555
(0000000002.259800) vcan0 011#03E8FFF605690000
(0000000002.265000) vcan0 012#FFF700FAFEEFFFFF
(0000000002.265300) vcan0 2D0#0010000000100000
(0000000002.267300) vcan0 2D2#0010000000100000
(0000000002.270100) vcan0 013#007E000000051EFC
(0000000002.275400) vcan0 014#FBFA07
(0000000002.287200) vcan0 2D0#0010000000100000
(0000000002.289000) vcan0 2D2#0010000000100000
(0000000002.306900) vcan0 010#030D0000FFF6F555
(0000000002.309000) vcan0 2D0#0010000000100000
(0000000002.310800) vcan0 2D2#0010000000100000
(0000000002.312100) vcan0 011#03E8FFF605680000
(0000000002.317400) vcan0 012#FFF700FAFEEFFFFF
(0000000002.322700) vcan0 013#007F000000051EFC
(0000000002.327800) vcan0 014#FBFA0A
(0000000002.328400) vcan0 2D0#0010000000100000
(0000000002.330100) vcan0 2D2#0010000000100000
(0000000002.350100) vcan0 2D0#0010000000100000
(0000000002.352500) vcan0 2D2#0010000000100000
(0000000002.359300) vcan0 010#030D0000FFF6F555
(0000000002.364700) vcan0 011#03E8FFF605690000
(0000000002.369900) vcan0 012#FFF700FAFEEFFFFF
(0000000002.371400) vcan0 2D0#0010000000100000
(0000000002.375100) vcan0 013#007F000000051EFC
(0000000002.375300) vcan0 2D2#0010000000100000
(0000000002.380300) vcan0 014#FBFA0B
(0000000002.391200) vcan0 2D0#0010000000100000
(0000000002.393800) vcan0 2D2#0010000000100000
(0000000002.411900) vcan0 010#030D0000FFF6F555
(0000000002.413800) vcan0 2D0#0010000000100000
(0000000002.416700) vcan0 2D2#0010000000100000
(0000000002.417100) vcan0 011#03E8FFF605690000
(0000000002.422400) vcan0 012#FFF700FAFEEFFFFF
(0000000002.427600) vcan0 013#007E000000051EFC
(0000000002.432800) vcan0 014#FBFA0A
(0000000002.433400) vcan0 2D0#0010000000100000
(0000000002.436100) vcan0 2D2#0010000000100000
(0000000002.456000) vcan0 2D0#0010000000100000
(0000000002.461300) vcan0 2D2#0010000000100000
(0000000002.464300) vcan0 010#030A0000FFF6F555
(0000000002.469700) vcan0 011#03E8FFF605690000
(0000000002.474800) vcan0 012#FFF700FAFEEFFFFF
(0000000002.480000) vcan0 013#007E000000051EFC
(0000000002.481300) vcan0 2D0#0010000000100000
(0000000002.483400) vcan0 2D2#0010000000100000
(0000000002.485200) vcan0 014#FBFA07
(0000000002.502300) vcan0 2D0#0010000000100000
(0000000002.504400) vcan0 2D2#0010000000100000
(0000000002.516700) vcan0 010#030A0000FFF6F555
(0000000002.522000) vcan0 011#03E8FFF605680000
(0000000002.522900) vcan0 2D0#0010000000100000
(0000000002.524600) vcan0 2D2#0010000000100000
(0000000002.527200) vcan0 012#FFF700FAFEEFFFFF
(0000000002.532500) vcan0 013#007E000000051EFC
(0000000002.537700) vcan0 014#FBFA06
(0000000002.543600) vcan0 2D0#0010000000100000
(0000000002.545800) vcan0 2D2#0010000000100000
(0000000002.565200) vcan0 2D0#0010000000100000
(0000000002.566900) vcan0 2D2#0010000000100000
(0000000002.569300) vcan0 010#030A0000FFF6F555
(0000000002.574600) vcan0 011#03E8FFF605690000
(0000000002.579800) vcan0 012#FFF700FAFEEFFFFF
(0000000002.585000) vcan0 013#007E000000051EFC
(0000000002.585200) vcan0 2D0#0010000000100000
(0000000002.587100) vcan0 2D2#0010000000100000
(0000000002.590200) vcan0 014#FBFA07
(0000000002.607000) vcan0 2D0#0010000000100000
(0000000002.609400) vcan0 2D2#0010000000100000
(0000000002.621800) vcan0 010#030A0000FFF6F555
(0000000002.627000) vcan0 011#03E8FFF605680000
(0000000002.627600) vcan0 2D0#0010000000100000
(0000000002.629800) vcan0 2D2#0010000000100000
(0000000002.632300) vcan0 012#FFF700FAFEEFFFFF
(0000000002.637500) vcan0 013#007F000000051EFC
(0000000002.642700) vcan0 014#FBFA07
(0000000002.649500) vcan0 2D0#0010000000100000
(0000000002.651900) vcan0 2D2#0010000000100000
(0000000002.669200) vcan0 2D0#0010000000100000
(0000000002.671600) vcan0 2D2#0010000000100000
(0000000002.674300) vcan0 010#030A0000FFF6F555
(0000000002.679600) vcan0 011#03E8FFF605690000
(0000000002.684800) vcan0 012#FFF700FAFEEFFFFF
(0000000002.690000) vcan0 013#007F000000051EFC
(0000000002.695200) vcan0 014#FBFA08
(0000000002.696300) vcan0 2D0#0010000000100000
(0000000002.702100) vcan0 2D2#0010000000100000
(0000000002.723400) vcan0 2D0#0010000000100000
(0000000002.725600) vcan0 2D2#0010000000100000
(0000000002.726700) vcan0 010#030D0000FFF6F555
(0000000002.731900) vcan0 011#03E8FFF605680000
(0000000002.737200) vcan0 012#FFF700FAFEEFFFFF
(0000000002.742500) vcan0 013#007E000000051EFC
(0000000002.743500) vcan0 2D0#0010000000100000
(0000000002.745500) vcan0 2D2#0010000000100000
(0000000002.747600) vcan0 014#FBFA09
(0000000002.764800) vcan0 2D0#0010000000100000
(0000000002.767200) vcan0 2D2#0010000000100000
(0000000002.779200) vcan0 010#030D0000FFF6F555
(0000000002.784500) vcan0 011#03E8FFF605690000
(0000000002.784800) vcan0 2D0#0010000000100000
(0000000002.786500) vcan0 2D2#0010000000100000
(0000000002.789700) vcan0 012#FFF700FAFEEFFFFF
(0000000002.794900) vcan0 013#007E000000051EFC
(0000000002.800100) vcan0 014#FBFA0A
(0000000002.806400) vcan0 2D0#0010000000100000
(0000000002.808100) vcan0 2D2#0010000000100000
(0000000002.827400) vcan0 2D0#0010000000100000
(0000000002.829100) vcan0 2D2#0010000000100000
(0000000002.831700) vcan0 010#030D0000FFF6F555
(0000000002.836900) vcan0 011#03E8FFF605690000
(0000000002.842200) vcan0 012#FFF700FAFEEFFFFF
(0000000002.847400) vcan0 013#007E000000051EFC
(0000000002.849000) vcan0 2D0#0010000000100000
(0000000002.851000) vcan0 2D2#0010000000100000
(0000000002.852600) vcan0 014#FBFA0A
(0000000002.869100) vcan0 2D0#0010000000100000
(0000000002.871000) vcan0 2D2#0010000000100000
(0000000002.884200) vcan0 010#030A0000FFF6F555
(0000000002.889400) vcan0 011#03E8FFF605680000
(0000000002.890400) vcan0 2D0#0010000000100000
(0000000002.892400) vcan0 2D2#0010000000100000
(0000000002.894700) vcan0 012#FFF700FAFEEFFFFF
(0000000002.899800) vcan0 013#007F000000051EFC
(0000000002.905100) vcan0 014#FBFA07
(0000000002.912400) vcan0 2D0#0010000000100000
(0000000002.914900) vcan0 2D2#0010000000100000
(0000000002.932200) vcan0 2D0#0010000000100000
(0000000002.934600) vcan0 2D2#0010000000100000
(0000000002.936600) vcan0 010#030A0000FFF6F555
(0000000002.941800) vcan0 011#03E8FFF605680000
(0000000002.947100) vcan0 012#FFF700FAFEEFFFFF
(0000000002.952400) vcan0 013#007F000000051EFC
(0000000002.953300) vcan0 2D0#0010000000100000
(0000000002.955900) vcan0 2D2#0010000000100000
(0000000002.957500) vcan0 014#FBFA07
(0000000002.976000) vcan0 2D0#0010000000100000
(0000000002.979000) vcan0 2D2#0010000000100000
(0000000002.989100) vcan0 010#030D0000FFF6F555
(0000000002.994400) vcan0 011#03E8FFF605690000
(0000000002.999500) vcan0 012#FFF700FAFEEFFFFF
(0000000003.003700) vcan0 2D0#0010000000100000
(0000000003.004800) vcan0 013#007E000000051EFC
(0000000003.006100) vcan0 2D2#0010000000100000
(0000000003.010000) vcan0 014#FBFA0A
(0000000003.026800) vcan0 2D0#0010000000100000
(0000000003.028500) vcan0 2D2#0010000000100000
(0000000003.041500) vcan0 010#030D0000FFF6F555
(0000000003.046800) vcan0 011#03E8FFF605690000
(0000000003.049500) vcan0 2D0#0010000000100000
(0000000003.052100) vcan0 012#FFF700FAFEEFFFFF
(0000000003.052900) vcan0 2D2#0010000000100000
(0000000003.057400) vcan0 013#007E000000051EFC
(0000000003.062500) vcan0 014#FBFA0A
(0000000003.074100) vcan0 2D0#0010000000100000
(0000000003.079500) vcan0 2D2#0010000000100000
(0000000003.094000) vcan0 010#030D0000FFF6F555
(0000000003.099300) vcan0 011#03E8FFF605690000
(0000000003.101100) vcan0 2D0#0010000000100000
(0000000003.103700) vcan0 2D2#0010000000100000
(0000000003.104500) vcan0 012#FFF700FAFEEFFFFF
(0000000003.109800) vcan0 013#007E000000051EFC
(0000000003.115000) vcan0 014#FBFA0A
(0000000003.120700) vcan0 2D0#0010000000100000
(0000000003.122400) vcan0 2D2#0010000000100000
(0000000003.141400) vcan0 2D0#0010000000100000
(0000000003.143100) vcan0 2D2#0010000000100000
(0000000003.146500) vcan0 010#030D0000FFF6F555
(0000000003.151800) vcan0 011#03E8FFF605680000
(0000000003.157000) vcan0 012#FFF700FAFEEFFFFF
(0000000003.162200) vcan0 013#007E000000051EFC
(0000000003.163000) vcan0 2D0#0010000000100000
(0000000003.164700) vcan0 2D2#0010000000100000
(0000000003.167400) vcan0 014#FBFA09
(0000000003.183500) vcan0 2D0#0010000000100000
(0000000003.185500) vcan0 2D2#0010000000100000
(0000000003.199000) vcan0 010#07FD0000FFF6F555
(0000000003.204300) vcan0 011#03E8FFF605690000
(0000000003.204800) vcan0 2D0#0010000000100000
(0000000003.207300) vcan0 2D2#0010000000100000
(0000000003.209500) vcan0 012#FFF700FAFEEFFFFF
(0000000003.214700) vcan0 013#007E000000101EFC
(0000000003.219900) vcan0 014#FBFA09
(0000000003.226600) vcan0 2D0#0010000000100000
(0000000003.229300) vcan0 2D2#0010000000100000
(0000000003.249100) vcan0 2D0#0010000000100000
(0000000003.251500) vcan0 010#01860000FFF6F555
(0000000003.252400) vcan0 2D2#0010000000100000
(0000000003.256700) vcan0 011#03E8FFF605680000
(0000000003.261900) vcan0 012#FFF700FAFEEFFFFF
(0000000003.267300) vcan0 013#008F000000021EFC
(0000000003.272400) vcan0 014#FBFA8E
(0000000003.273800) vcan0 2D0#0010000000100000
(0000000003.278400) vcan0 2D2#0010000000100000
(0000000003.300400) vcan0 2D0#0010000000100000
(0000000003.302500) vcan0 2D2#0010000000100000
(0000000003.303900) vcan0 010#017C0000FFF6F555
(0000000003.309200) vcan0 011#03E8FFF605680000
(0000000003.314400) vcan0 012#FFF700FAFEEFFFFF
(0000000003.319600) vcan0 013#0088000000021EFC
(0000000003.320000) vcan0 2D0#0010000000100000
(0000000003.322100) vcan0 2D2#0010000000100000
(0000000003.324800) vcan0 014#FBFA7D
(0000000003.341500) vcan0 2D0#0010000000100000
(0000000003.343600) vcan0 2D2#0010000000100000
(0000000003.356400) vcan0 010#017B0000FFF6F555
(0000000003.361600) vcan0 011#03E8FFF605680000
(0000000003.363500) vcan0 2D0#0010000000100000
(0000000003.365200) vcan0 2D2#0010000000100000
(0000000003.366800) vcan0 012#FFF700FAFEEFFFFF
(0000000003.372200) vcan0 013#0087000000021EFC
(0000000003.377200) vcan0 014#FBFA7B
(0000000003.383100) vcan0 2D0#0010000000100000
(0000000003.385100) vcan0 2D2#0010000000100000
(0000000003.404100) vcan0 2D0#0010000000100000
(0000000003.405900) vcan0 2D2#0010000000100000
(0000000003.408800) vcan0 010#017C0000FFF6F555
(0000000003.414200) vcan0 011#03E8FFF605680000
(0000000003.419400) vcan0 012#FFF700FAFEEFFFFF
(0000000003.424500) vcan0 013#0088000000021EFC
(0000000003.426000) vcan0 2D0#0010000000100000
(0000000003.427900) vcan0 2D2#0010000000100000
(0000000003.429800) vcan0 014#FBFA7D
(0000000003.447500) vcan0 2D0#0010000000100000
(0000000003.449500) vcan0 2D2#0010000000100000
(0000000003.461300) vcan0 010#017C0000FFF6F555
(0000000003.466500) vcan0 011#03E8FFF605690000
(0000000003.466700) vcan0 2D0#0010000000100000
(0000000003.468600) vcan0 2D2#0010000000100000
(0000000003.471800) vcan0 012#FFF700FAFEEFFFFF
(0000000003.477000) vcan0 013#0088000000021EFC
(0000000003.482200) vcan0 014#FBFA7E
(0000000003.488600) vcan0 2D0#0010000000100000
(0000000003.491200) vcan0 2D2#0010000000100000
(0000000003.510400) vcan0 2D0#0010000000100000
(0000000003.512800) vcan0 2D2#0010000000100000
(0000000003.513700) vcan0 010#017B0000FFF6F555
(0000000003.519000) vcan0 011#03E8FFF605680000
(0000000003.524200) vcan0 012#FFF700FAFEEFFFFF
(0000000003.529500) vcan0 013#0087000000021EFC
(0000000003.530900) vcan0 2D0#0010000000100000
(0000000003.532600) vcan0 2D2#0010000000100000
(0000000003.534700) vcan0 014#FBFA7B
(0000000003.553500) vcan0 2D0#0010000000100000
(0000000003.555900) vcan0 2D2#0010000000100000
(0000000003.566300) vcan0 010#017C0000FFF6F555
(0000000003.571500) vcan0 011#03E8FFF605680000
(0000000003.573400) vcan0 2D0#0010000000100000
(0000000003.575400) vcan0 2D2#0010000000100000
(0000000003.576800) vcan0 012#FFF700FAFEEFFFFF
(0000000003.582000) vcan0 013#0088000000021EFC
(0000000003.587100) vcan0 014#FBFA7D
(0000000003.594600) vcan0 2D0#0010000000100000
(0000000003.596400) vcan0 2D2#0010000000100000
(0000000003.614400) vcan0 2D0#0010000000100000
(0000000003.616800) vcan0 2D2#0010000000100000
(0000000003.618800) vcan0 010#017C0000FFF6F555
(0000000003.624100) vcan0 011#03E8FFF605680000
(0000000003.629300) vcan0 012#FFF700FAFEEFFFFF
(0000000003.634500) vcan0 013#0088000000021EFC
(0000000003.636000) vcan0 2D0#0010000000100000
(0000000003.637700) vcan0 2D2#0010000000100000
(0000000003.639700) vcan0 014#FBFA7D
(0000000003.655800) vcan0 2D0#0010000000100000
(0000000003.657600) vcan0 2D2#0010000000100000
(0000000003.671300) vcan0 010#017B0000FFF6F555
(0000000003.676500) vcan0 011#03E8FFF605680000
(0000000003.676800) vcan0 2D0#0010000000100000
(0000000003.679000) vcan0 2D2#0010000000100000
(0000000003.681800) vcan0 012#FFF700FAFEEFFFFF
(0000000003.687000) vcan0 013#0087000000021EFC
(0000000003.692200) vcan0 014#FBFA7B
(0000000003.704300) vcan0 2D0#0010000000100000
(0000000003.709500) vcan0 2D2#0010000000100000
(0000000003.723700) vcan0 010#017C0000FFF6F555
(0000000003.729000) vcan0 011#03E8FFF605680000
(0000000003.730000) vcan0 2D0#0010000000100000
(0000000003.731800) vcan0 2D2#0010000000100000
(0000000003.734200) vcan0 012#FFF700FAFEEFFFFF
(0000000003.739400) vcan0 013#0088000000021EFC
(0000000003.744600) vcan0 014#FBFA7D
(0000000003.750600) vcan0 2D0#0010000000100000
(0000000003.753100) vcan0 2D2#0010000000100000
(0000000003.772700) vcan0 2D0#0010000000100000
(0000000003.775600) vcan0 2D2#0010000000100000
(0000000003.776200) vcan0 010#017C0000FFF6F555
(0000000003.781400) vcan0 011#03E8FFF605680000
(0000000003.786700) vcan0 012#FFF700FAFEEFFFFF
(0000000003.792000) vcan0 013#0088000000021EFC
(0000000003.794400) vcan0 2D0#0010000000100000
(0000000003.797200) vcan0 014#FBFA7D
(0000000003.797400) vcan0 2D2#0010000000100000
(0000000003.822300) vcan0 2D0#0010000000100000
(0000000003.824600) vcan0 2D2#0010000000100000
(0000000003.828700) vcan0 010#017B0000FFF6F555
(0000000003.834000) vcan0 011#03E8FFF605690000
(0000000003.839200) vcan0 012#FFF700FAFEEFFFFF
(0000000003.844400) vcan0 013#0087000000021EFC
(0000000003.846200) vcan0 2D0#0010000000100000
(0000000003.848300) vcan0 2D2#0010000000100000
(0000000003.849600) vcan0 014#FBFA7C
(0000000003.867800) vcan0 2D0#0010000000100000
(0000000003.869800) vcan0 2D2#0010000000100000
(0000000003.881100) vcan0 010#017C0000FFF6F555
(0000000003.886400) vcan0 011#03E8FFF605680000
(0000000003.887000) vcan0 2D0#0010000000100000
(0000000003.889000) vcan0 2D2#0010000000100000
(0000000003.891600) vcan0 012#FFF700FAFEEFFFFF
(0000000003.896900) vcan0 013#0088000000021EFC
(0000000003.902100) vcan0 014#FBFA7D
(0000000003.908900) vcan0 2D0#0010000000100000
(0000000003.910600) vcan0 2D2#0010000000100000
(0000000003.929700) vcan0 2D0#0010000000100000
(0000000003.932100) vcan0 2D2#0010000000100000
(0000000003.933600) vcan0 010#017C0000FFF6F555
(0000000003.938900) vcan0 011#03E8FFF605690000
(0000000003.944100) vcan0 012#FFF700FAFEEFFFFF
(0000000003.949400) vcan0 013#0088000000021EFC
(0000000003.949600) vcan0 2D0#0010000000100000
(0000000003.951400) vcan0 2D2#0010000000100000
(0000000003.954600) vcan0 014#FBFA7E
(0000000003.971300) vcan0 2D0#0010000000100000
(0000000003.973000) vcan0 2D2#0010000000100000
(0000000003.986100) vcan0 010#017B0000FFF6F555
(0000000003.991300) vcan0 011#03E8FFF605690000
(0000000003.992200) vcan0 2D0#0010000000100000
(0000000003.994000) vcan0 2D2#0010000000100000
(0000000003.996600) vcan0 012#FFF700FAFEEFFFFF
(0000000004.001900) vcan0 013#0087000000021EFC
(0000000004.007000) vcan0 014#FBFA7C
(0000000004.013800) vcan0 2D0#0010000000100000
(0000000004.015700) vcan0 2D2#0010000000100000
(0000000004.033700) vcan0 2D0#0010000000100000
(0000000004.035400) vcan0 2D2#0010000000100000
(0000000004.038500) vcan0 010#017C0000FFF6F555
(0000000004.043800) vcan0 011#03E8FFF605680000
(0000000004.049000) vcan0 012#FFF700FAFEEFFFFF
(0000000004.054300) vcan0 013#0088000000021EFC
(0000000004.055100) vcan0 2D0#0010000000100000
(0000000004.057800) vcan0 2D2#0010000000100000
(0000000004.059500) vcan0 014#FBFA7D
(0000000004.076700) vcan0 2D0#0010000000100000
(0000000004.079200) vcan0 2D2#0010000000100000
(0000000004.091000) vcan0 010#017C0000FFF6F555
(0000000004.096300) vcan0 011#03E8FFF605680000
(0000000004.097500) vcan0 2D0#0010000000100000
(0000000004.099200) vcan0 2D2#0010000000100000
(0000000004.101500) vcan0 012#FFF700FAFEEFFFFF
(0000000004.106800) vcan0 013#0088000000021EFC
(0000000004.112000) vcan0 014#FBFA7D
(0000000004.121700) vcan0 2D0#0010000000100000
(0000000004.124000) vcan0 2D2#0010000000100000
(0000000004.143500) vcan0 010#017B0000FFF6F555
(0000000004.143899) vcan0 2D0#0010000000100000
(0000000004.146000) vcan0 2D2#0010000000100000
(0000000004.148800) vcan0 011#03E8FFF605680000
(0000000004.154000) vcan0 012#FFF700FAFEEFFFFF
(0000000004.159200) vcan0 013#0087000000021EFC
(0000000004.164399) vcan0 014#FBFA7B
(0000000004.165600) vcan0 2D0#0010000000100000
(0000000004.167500) vcan0 2D2#0010000000100000
(0000000004.186600) vcan0 2D0#0010000000100000
(0000000004.188399) vcan0 2D2#0010000000100000
(0000000004.196000) vcan0 010#017C0000FFF6F555
(0000000004.201300) vcan0 011#03E8FFF605680000
(0000000004.206500) vcan0 012#FFF700FAFEEFFFFF
(0000000004.208300) vcan0 2D0#0010000000100000
(0000000004.210000) vcan0 2D2#0010000000100000
(0000000004.211800) vcan0 013#0088000000021EFC
(0000000004.216900) vcan0 014#FBFA7D
(0000000004.230300) vcan0 2D0#0010000000100000
(0000000004.232800) vcan0 2D2#0010000000100000
(0000000004.248400) vcan0 010#017C0000FFF6F555
(0000000004.249400) vcan0 2D0#0010000000100000
(0000000004.251400) vcan0 2D2#0010000000100000
(0000000004.253800) vcan0 011#03E8FFF605690000
(0000000004.258900) vcan0 012#FFF700FAFEEFFFFF
(0000000004.264200) vcan0 013#0088000000021EFC
(0000000004.269400) vcan0 014#FBFA7E
(0000000004.271400) vcan0 2D0#0010000000100000
(0000000004.274000) vcan0 2D2#0010000000100000
(0000000004.292700) vcan0 2D0#0010000000100000
(0000000004.296400) vcan0 2D2#0010000000100000
(0000000004.301000) vcan0 010#017B0000FFF6F555
(0000000004.306200) vcan0 011#03E8FFF605680000
(0000000004.311500) vcan0 012#FFF700FAFEEFFFFF
(0000000004.316700) vcan0 013#0087000000021EFC
(0000000004.320900) vcan0 2D0#0010000000100000
(0000000004.321900) vcan0 014#FBFA7B
(0000000004.323200) vcan0 2D2#0010000000100000
(0000000004.343300) vcan0 2D0#0010000000100000
(0000000004.345000) vcan0 2D2#0010000000100000
(0000000004.353400) vcan0 010#017C0000FFF6F555
(0000000004.358700) vcan0 011#03E8FFF605690000
(0000000004.363900) vcan0 012#FFF700FAFEEFFFFF
(0000000004.366200) vcan0 2D0#0010000000100000
(0000000004.368900) vcan0 2D2#0010000000100000
(0000000004.369200) vcan0 013#0088000000021EFC
(0000000004.374400) vcan0 014#FBFA7E
(0000000004.385700) vcan0 2D0#0010000000100000
(0000000004.388200) vcan0 2D2#0010000000100000
(0000000004.405900) vcan0 010#017C0000FFF6F555
(0000000004.407300) vcan0 2D0#0010000000100000
(0000000004.410100) vcan0 2D2#0010000000100000
(0000000004.411100) vcan0 011#03E8FFF605690000
(0000000004.416400) vcan0 012#FFF700FAFEEFFFFF
(0000000004.421700) vcan0 013#0088000000021EFC
(0000000004.426900) vcan0 014#FBFA7E
(0000000004.429100) vcan0 2D0#0010000000100000
(0000000004.431700) vcan0 2D2#0010000000100000
(0000000004.449100) vcan0 2D0#0010000000100000
(0000000004.451800) vcan0 2D2#0010000000100000
(0000000004.458400) vcan0 010#017B0000FFF6F555
(0000000004.463600) vcan0 011#03E8FFF605690000
(0000000004.468900) vcan0 012#FFF700FAFEEFFFFF
(0000000004.470600) vcan0 2D0#0010000000100000
(0000000004.474100) vcan0 013#0087000000021EFC
(0000000004.476100) vcan0 2D2#0010000000100000
(0000000004.479300) vcan0 014#FBFA7C
(0000000004.495800) vcan0 2D0#0010000000100000
(0000000004.497900) vcan0 2D2#0010000000100000
(0000000004.510900) vcan0 010#017C0000FFF6F555
(0000000004.516100) vcan0 011#03E8FFF605680000
(0000000004.517600) vcan0 2D0#0010000000100000
(0000000004.519700) vcan0 2D2#0010000000100000
(0000000004.521400) vcan0 012#FFF700FAFEEFFFFF
(0000000004.526600) vcan0 013#0088000000021EFC
(0000000004.531700) vcan0 014#FBFA7D
(0000000004.537800) vcan0 2D0#0010000000100000
(0000000004.540100) vcan0 2D2#0010000000100000
(0000000004.558100) vcan0 2D0#0010000000100000
(0000000004.559900) vcan0 2D2#0010000000100000
(0000000004.563300) vcan0 010#017C0000FFF6F555
(0000000004.568600) vcan0 011#03E8FFF605680000
(0000000004.573800) vcan0 012#FFF700FAFEEFFFFF
(0000000004.579000) vcan0 013#0088000000021EFC
(0000000004.579800) vcan0 2D0#0010000000100000
(0000000004.581700) vcan0 2D2#0010000000100000
(0000000004.584300) vcan0 014#FBFA7D
(0000000004.600400) vcan0 2D0#0010000000100000
(0000000004.602200) vcan0 2D2#0010000000100000
(0000000004.615800) vcan0 010#035A0000FFF6F555
(0000000004.621100) vcan0 011#03E8FFF605680000
(0000000004.621900) vcan0 2D0#0010000000100000
(0000000004.624500) vcan0 2D2#0010000000100000
(0000000004.626300) vcan0 012#FFF700FAFEEFFFFF
(0000000004.631700) vcan0 013#007E000000051EFC
(0000000004.636700) vcan0 014#FBFA56
(0000000004.643100) vcan0 2D0#0010000000100000
(0000000004.646600) vcan0 2D2#0010000000100000
(0000000004.663500) vcan0 2D0#0010000000100000
(0000000004.666200) vcan0 2D2#0010000000100000
(0000000004.668300) vcan0 010#030A0000FFF6F555
(0000000004.673600) vcan0 011#03E8FFF605690000
(0000000004.678800) vcan0 012#FFF700FAFEEFFFFF
(0000000004.684000) vcan0 013#007E000000051EFC
(0000000004.684500) vcan0 2D0#0010000000100000
(0000000004.689300) vcan0 014#FBFA07
(0000000004.689800) vcan0 2D2#0010000000100000
(0000000004.711100) vcan0 2D0#0010000000100000
(0000000004.713200) vcan0 2D2#0010000000100000
(0000000004.720800) vcan0 010#030A0000FFF6F555
(0000000004.726000) vcan0 011#03E8FFF605690000
(0000000004.731300) vcan0 012#FFF700FAFEEFFFFF
(0000000004.733200) vcan0 2D0#0010000000100000
(0000000004.734900) vcan0 2D2#0010000000100000
(0000000004.736600) vcan0 013#007E000000051EFC
(0000000004.741700) vcan0 014#FBFA07
(0000000004.753100) vcan0 2D0#0010000000100000
(0000000004.754800) vcan0 2D2#0010000000100000
(0000000004.773200) vcan0 010#030D0000FFF6F555
(0000000004.774000) vcan0 2D0#0010000000100000
(0000000004.776000) vcan0 2D2#0010000000100000
(0000000004.778600) vcan0 011#03E8FFF605680000
(0000000004.783700) vcan0 012#FFF700FAFEEFFFFF
(0000000004.789000) vcan0 013#007F000000051EFC
(0000000004.794200) vcan0 014#FBFA0A
(0000000004.796100) vcan0 2D0#0010000000100000
(0000000004.798500) vcan0 2D2#0010000000100000
(0000000004.815800) vcan0 2D0#0010000000100000
(0000000004.817800) vcan0 2D2#0010000000100000
(0000000004.825800) vcan0 010#030D0000FFF6F555
(0000000004.830900) vcan0 011#03E8FFF605680000
(0000000004.836300) vcan0 012#FFF700FAFEEFFFFF
(0000000004.837400) vcan0 2D0#0010000000100000
(0000000004.840200) vcan0 2D2#0010000000100000
(0000000004.841500) vcan0 013#007F000000051EFC
(0000000004.846700) vcan0 014#FBFA0A
(0000000004.859500) vcan0 2D0#0010000000100000
(0000000004.862100) vcan0 2D2#0010000000100000
(0000000004.878200) vcan0 010#030D0000FFF6F555
(0000000004.881600) vcan0 2D0#0010000000100000
(0000000004.883500) vcan0 011#03E8FFF605680000
(0000000004.884800) vcan0 2D2#0010000000100000
(0000000004.888700) vcan0 012#FFF700FAFEEFFFFF
(0000000004.893900) vcan0 013#007E000000051EFC
(0000000004.899100) vcan0 014#FBFA09
(0000000004.908600) vcan0 2D0#0010000000100000
(0000000004.911000) vcan0 2D2#0010000000100000
(0000000004.930700) vcan0 010#030A0000FFF6F555
(0000000004.930900) vcan0 2D0#0010000000100000
(0000000004.933200) vcan0 2D2#0010000000100000
(0000000004.935900) vcan0 011#03E8FFF605680000
(0000000004.941100) vcan0 012#FFF700FAFEEFFFFF
(0000000004.946400) vcan0 013#007E000000051EFC
(0000000004.951600) vcan0 014#FBFA06
(0000000004.953000) vcan0 2D0#0010000000100000
(0000000004.954700) vcan0 2D2#0010000000100000
(0000000004.975000) vcan0 2D0#0010000000100000
(0000000004.977900) vcan0 2D2#0010000000100000
(0000000004.983200) vcan0 010#030A0000FFF6F555
(0000000004.988400) vcan0 011#03E8FFF605680000
(0000000004.993700) vcan0 012#FFF700FAFEEFFFFF
(0000000004.994000) vcan0 2D0#0010000000100000
(0000000004.996700) vcan0 2D2#0010000000100000
(0000000004.998800) vcan0 013#007E000000051EFC
(0000000005.004100) vcan0 014#FBFA06
(0000000005.015800) vcan0 2D0#0010000000100000
(0000000005.017500) vcan0 2D2#0010000000100000
(0000000005.035600) vcan0 010#030A0000FFF6F555
(0000000005.036300) vcan0 2D0#0010000000100000
(0000000005.038000) vcan0 2D2#0010000000100000
(0000000005.040800) vcan0 011#03E8FFF605680000
(0000000005.046100) vcan0 012#FFF700FAFEEFFFFF
(0000000005.051400) vcan0 013#007F000000051EFC
(0000000005.056600) vcan0 014#FBFA07
(0000000005.057400) vcan0 2D0#0010000000100000
(0000000005.059500) vcan0 2D2#0010000000100000
(0000000005.078300) vcan0 2D0#0010000000100000
(0000000005.080400) vcan0 2D2#0010000000100000
(0000000005.088100) vcan0 010#030A0000FFF6F555
(0000000005.093300) vcan0 011#03E8FFF605680000
(0000000005.098500) vcan0 012#FFF700FAFEEFFFFF
(0000000005.099700) vcan0 2D0#0010000000100000
(0000000005.101400) vcan0 2D2#0010000000100000
(0000000005.103800) vcan0 013#007F000000051EFC
(0000000005.109000) vcan0 014#FBFA07
(0000000005.120300) vcan0 2D0#0010000000100000
(0000000005.122000) vcan0 2D2#0010000000100000
(0000000005.140500) vcan0 010#030A0000FFF6F555
(0000000005.142200) vcan0 2D0#0010000000100000
(0000000005.144300) vcan0 2D2#0010000000100000
(0000000005.145800) vcan0 011#03E8FFF605680000
(0000000005.151000) vcan0 012#FFF700FAFEEFFFFF
(0000000005.156400) vcan0 013#007F000000051EFC
(0000000005.161500) vcan0 014#FBFA07
(0000000005.163400) vcan0 2D0#0010000000100000
(0000000005.165800) vcan0 2D2#0010000000100000
(0000000005.183100) vcan0 2D0#0010000000100000
(0000000005.185200) vcan0 2D2#0010000000100000
(0000000005.193000) vcan0 010#030D0000FFF6F555
(0000000005.198400) vcan0 011#03E8FFF605690000
(0000000005.203500) vcan0 012#FFF700FAFEEFFFFF
(0000000005.204900) vcan0 2D0#0010000000100000
(0000000005.207000) vcan0 2D2#0010000000100000
(0000000005.208700) vcan0 013#007E000000051EFC
(0000000005.214000) vcan0 014#FBFA0A
(0000000005.226200) vcan0 2D0#0010000000100000
(0000000005.228700) vcan0 2D2#0010000000100000
(0000000005.245500) vcan0 010#030D0000FFF6F555
(0000000005.246100) vcan0 2D0#0010000000100000
(0000000005.248700) vcan0 2D2#0010000000100000
(0000000005.250700) vcan0 011#03E8FFF605680000
(0000000005.256000) vcan0 012#FFF700FAFEEFFFFF
(0000000005.261300) vcan0 013#007E000000051EFC
(0000000005.266400) vcan0 014#FBFA09
(0000000005.268500) vcan0 2D0#0010000000100000
(0000000005.271800) vcan0 2D2#0010000000100000
(0000000005.288400) vcan0 2D0#0010000000100000
(0000000005.290200) vcan0 2D2#0010000000100000
(0000000005.297900) vcan0 010#030D0000FFF6F555
(0000000005.303200) vcan0 011#03E8FFF605690000
(0000000005.308400) vcan0 012#FFF700FAFEEFFFFF
(0000000005.309000) vcan0 2D0#0010000000100000
(0000000005.310800) vcan0 2D2#0010000000100000
(0000000005.313700) vcan0 013#007E000000051EFC
(0000000005.318900) vcan0 014#FBFA0A
(0000000005.330500) vcan0 2D0#0010000000100000
(0000000005.332600) vcan0 2D2#0010000000100000
(0000000005.350500) vcan0 010#030A0000FFF6F555
(0000000005.351500) vcan0 2D0#0010000000100000
(0000000005.354200) vcan0 2D2#0010000000100000
(0000000005.355600) vcan0 011#03E8FFF605680000
(0000000005.361000) vcan0 012#FFF700FAFEEFFFFF
(0000000005.366300) vcan0 013#00690000000D1EFC
(0000000005.371400) vcan0 014#FBFAF9
(0000000005.373600) vcan0 2D0#0010000000100000
(0000000005.375300) vcan0 2D2#0010000000100000
(0000000005.393500) vcan0 2D0#0010000000100000
(0000000005.395300) vcan0 2D2#0010000000100000
(0000000005.402900) vcan0 010#04990000FFF6F555
(0000000005.408300) vcan0 011#03E8FFF605680000
(0000000005.413400) vcan0 012#FFF700FAFEEFFFFF
(0000000005.414600) vcan0 2D0#0010000000100000
(0000000005.416500) vcan0 2D2#0010000000100000
(0000000005.418700) vcan0 013#0064000000091EFC
(0000000005.423900) vcan0 014#FBFA80
(0000000005.434600) vcan0 2D0#0010000000100000
(0000000005.436600) vcan0 2D2#0010000000100000
(0000000005.455400) vcan0 010#04990000FFF6F555
(0000000005.456800) vcan0 2D0#0010000000100000
(0000000005.459500) vcan0 2D2#0010000000100000
(0000000005.460600) vcan0 011#03E8FFF605680000
(0000000005.465900) vcan0 012#FFF700FAFEEFFFFF
(0000000005.471200) vcan0 013#0064000000091EFC
(0000000005.476300) vcan0 014#FBFA80
(0000000005.478900) vcan0 2D0#0010000000100000
(0000000005.481800) vcan0 2D2#0010000000100000
(0000000005.506600) vcan0 2D0#0010000000100000
(0000000005.507900) vcan0 010#04990000FFF6F555
(0000000005.509000) vcan0 2D2#0010000000100000
(0000000005.513100) vcan0 011#03E8FFF605680000
(0000000005.518300) vcan0 012#FFF700FAFEEFFFFF
(0000000005.523600) vcan0 013#0064000000091EFC
(0000000005.528800) vcan0 014#FBFA80
(0000000005.529600) vcan0 2D0#0010000000100000
(0000000005.531300) vcan0 2D2#0010000000100000
(0000000005.553900) vcan0 2D0#0010000000100000
(0000000005.556300) vcan0 2D2#0010000000100000
(0000000005.560300) vcan0 010#04990000FFF6F555
(0000000005.565500) vcan0 011#03E8FFF605690000
(0000000005.570800) vcan0 012#FFF700FAFEEFFFFF
(0000000005.576100) vcan0 013#0064000000091EFC
(0000000005.577500) vcan0 2D0#0010000000100000
(0000000005.581300) vcan0 014#FBFA81
(0000000005.582400) vcan0 2D2#0010000000100000
(0000000005.604200) vcan0 2D0#0010000000100000
(0000000005.605900) vcan0 2D2#0010000000100000
(0000000005.612800) vcan0 010#04990000FFF6F555
(0000000005.618100) vcan0 011#03E8FFF605690000
(0000000005.623300) vcan0 012#FFF700FAFEEFFFFF
(0000000005.624200) vcan0 2D0#0010000000100000
(0000000005.626600) vcan0 2D2#0010000000100000
(0000000005.628600) vcan0 013#0064000000091EFC
(0000000005.633800) vcan0 014#FBFA81
(0000000005.645900) vcan0 2D0#0010000000100000
(0000000005.648000) vcan0 2D2#0010000000100000
(0000000005.665400) vcan0 010#04990000FFF6F555
(0000000005.666100) vcan0 2D0#0010000000100000
(0000000005.668600) vcan0 2D2#0010000000100000
(0000000005.670600) vcan0 011#03E8FFF605680000
(0000000005.675900) vcan0 012#FFF700FAFEEFFFFF
(0000000005.681100) vcan0 013#0064000000091EFC
(0000000005.686200) vcan0 014#FBFA80
(0000000005.687600) vcan0 2D0#0010000000100000
(0000000005.690400) vcan0 2D2#0010000000100000
(0000000005.713100) vcan0 2D0#0010000000100000
(0000000005.717800) vcan0 010#04990000FFF6F555
(0000000005.718000) vcan0 2D2#0010000000100000
(0000000005.723000) vcan0 011#03E8FFF605680000
(0000000005.728300) vcan0 012#FFF700FAFEEFFFFF
(0000000005.733500) vcan0 013#0064000000091EFC
(0000000005.738700) vcan0 014#FBFA80
(0000000005.740100) vcan0 2D0#0010000000100000
(0000000005.742200) vcan0 2D2#0010000000100000
(0000000005.762400) vcan0 2D0#0010000000100000
(0000000005.764300) vcan0 2D2#0010000000100000
(0000000005.770300) vcan0 010#04990000FFF6F555
(0000000005.775500) vcan0 011#03E8FFF605690000
(0000000005.780700) vcan0 012#FFF700FAFEEFFFFF
(0000000005.781800) vcan0 2D0#0010000000100000
(0000000005.784100) vcan0 2D2#0010000000100000
(0000000005.786100) vcan0 013#0064000000091EFC
(0000000005.791100) vcan0 014#FBFA81
(0000000005.801900) vcan0 2D0#0010000000100000
(0000000005.804400) vcan0 2D2#0010000000100000
(0000000005.822700) vcan0 010#04990000FFF6F555
(0000000005.823300) vcan0 2D0#0010000000100000
(0000000005.826100) vcan0 2D2#0010000000100000
(0000000005.828100) vcan0 011#03E8FFF605680000
(0000000005.833300) vcan0 012#FFF700FAFEEFFFFF
(0000000005.838400) vcan0 013#0064000000091EFC
(0000000005.843700) vcan0 014#FBFA80
(0000000005.846200) vcan0 2D0#0010000000100000
(0000000005.849100) vcan0 2D2#0010000000100000
(0000000005.873600) vcan0 2D0#0010000000100000
(0000000005.875200) vcan0 010#04990000FFF6F555
(0000000005.875900) vcan0 2D2#0010000000100000
(0000000005.880400) vcan0 011#03E8FFF605680000
(0000000005.885700) vcan0 012#FFF700FAFEEFFFFF
(0000000005.891000) vcan0 013#0064000000091EFC
(0000000005.896100) vcan0 014#FBFA80
(0000000005.898300) vcan0 2D0#0010000000100000
(0000000005.900300) vcan0 2D2#0010000000100000
(0000000005.917600) vcan0 2D0#0010000000100000
(0000000005.919700) vcan0 2D2#0010000000100000
(0000000005.927700) vcan0 010#04990000FFF6F555
(0000000005.933000) vcan0 011#03E8FFF605680000
(0000000005.938200) vcan0 012#FFF700FAFEEFFFFF
(0000000005.940100) vcan0 2D0#0010000000100000
(0000000005.942900) vcan0 2D2#0010000000100000
(0000000005.943400) vcan0 013#0064000000091EFC
(0000000005.948600) vcan0 014#FBFA80
(0000000005.961900) vcan0 2D0#0010000000100000
(0000000005.965400) vcan0 2D2#0010000000100000
(0000000005.980100) vcan0 010#062B0000FFF6F555
(0000000005.985300) vcan0 011#03E8FFF605690000
(0000000005.989300) vcan0 2D0#0010000000100000
(0000000005.990700) vcan0 012#FFF700FAFEEFFFFF
(0000000005.991700) vcan0 2D2#0010000000100000
(0000000005.995900) vcan0 013#00670000000C1EFC
(0000000006.001100) vcan0 014#FBFA1B
(0000000006.011800) vcan0 2D0#0010000000100000
(0000000006.013800) vcan0 2D2#0010000000100000
(0000000006.032600) vcan0 010#062B0000FFF6F555
(0000000006.034100) vcan0 2D0#0010000000100000
(0000000006.035800) vcan0 2D2#0010000000100000
(0000000006.037900) vcan0 011#03E8FFF605690000
(0000000006.043100) vcan0 012#FFF700FAFEEFFFFF
(0000000006.048300) vcan0 013#00670000000C1EFC
(0000000006.053600) vcan0 014#FBFA1B
(0000000006.056300) vcan0 2D0#0010000000100000
(0000000006.059400) vcan0 2D2#0010000000100000
(0000000006.079900) vcan0 2D0#0010000000100000
(0000000006.082300) vcan0 2D2#0010000000100000
(0000000006.085000) vcan0 010#062B0000FFF6F555
(0000000006.090300) vcan0 011#03E8FFF605680000
(0000000006.095500) vcan0 012#FFF700FAFEEFFFFF
(0000000006.100800) vcan0 013#00670000000C1EFC
(0000000006.102400) vcan0 2D0#0010000000100000
(0000000006.104800) vcan0 2D2#0010000000100000
(0000000006.106000) vcan0 014#FBFA1A
(0000000006.123700) vcan0 2D0#0010000000100000
(0000000006.125800) vcan0 2D2#0010000000100000
(0000000006.137500) vcan0 010#062B0000FFF6F555
(0000000006.142900) vcan0 011#03E8FFF605680000
(0000000006.143700) vcan0 2D0#0010000000100000
(0000000006.145800) vcan0 2D2#0010000000100000
(0000000006.148000) vcan0 012#FFF700FAFEEFFFFF
(0000000006.153200) vcan0 013#00670000000C1EFC
(0000000006.158400) vcan0 014#FBFA1A
(0000000006.164200) vcan0 2D0#0010000000100000
(0000000006.165900) vcan0 2D2#0010000000100000
(0000000006.187300) vcan0 2D0#0010000000100000
(0000000006.190000) vcan0 010#062B0000FFF6F555
(0000000006.190600) vcan0 2D2#0010000000100000
(0000000006.195300) vcan0 011#03E8FFF605680000
(0000000006.200500) vcan0 012#FFF700FAFEEFFFFF
(0000000006.205800) vcan0 013#00670000000C1EFC
(0000000006.210900) vcan0 014#FBFA1A
(0000000006.215000) vcan0 2D0#0010000000100000
(0000000006.217400) vcan0 2D2#0010000000100000
(0000000006.237400) vcan0 2D0#0010000000100000
(0000000006.239500) vcan0 2D2#0010000000100000
(0000000006.242500) vcan0 010#062B0000FFF6F555
(0000000006.247900) vcan0 011#03E8FFF605680000
(0000000006.253000) vcan0 012#FFF700FAFEEFFFFF
(0000000006.258200) vcan0 013#00670000000C1EFC
(0000000006.259300) vcan0 2D0#0010000000100000
(0000000006.261300) vcan0 2D2#0010000000100000
(0000000006.263400) vcan0 014#FBFA1A
(0000000006.280500) vcan0 2D0#0010000000100000
(0000000006.282200) vcan0 2D2#0010000000100000
(0000000006.295000) vcan0 010#062B0000FFF6F555
(0000000006.300200) vcan0 011#03E8FFF605680000
(0000000006.300600) vcan0 2D0#0010000000100000
(0000000006.302300) vcan0 2D2#0010000000100000
(0000000006.305500) vcan0 012#FFF700FAFEEFFFFF
(0000000006.310800) vcan0 013#00670000000C1EFC
(0000000006.315900) vcan0 014#FBFA1A
(0000000006.322500) vcan0 2D0#0010000000100000
(0000000006.324600) vcan0 2D2#0010000000100000
(0000000006.343500) vcan0 2D0#0010000000100000
(0000000006.345200) vcan0 2D2#0010000000100000
(0000000006.347400) vcan0 010#062B0000FFF6F555
(0000000006.352700) vcan0 011#03E8FFF605680000
(0000000006.357900) vcan0 012#FFF700FAFEEFFFFF
(0000000006.363100) vcan0 013#00670000000C1EFC
(0000000006.364200) vcan0 2D0#0010000000100000
(0000000006.366000) vcan0 2D2#0010000000100000
(0000000006.368300) vcan0 014#FBFA1A
(0000000006.386800) vcan0 2D0#0010000000100000
(0000000006.389000) vcan0 2D2#0010000000100000
(0000000006.399900) vcan0 010#062B0000FFF6F555
(0000000006.405100) vcan0 011#03E8FFF605680000
(0000000006.406200) vcan0 2D0#0010000000100000
(0000000006.409100) vcan0 2D2#0010000000100000
(0000000006.410400) vcan0 012#FFF700FAFEEFFFFF
(0000000006.415700) vcan0 013#00670000000C1EFC
(0000000006.420800) vcan0 014#FBFA1A
(0000000006.428300) vcan0 2D0#0010000000100000
(0000000006.430400) vcan0 2D2#0010000000100000
(0000000006.448400) vcan0 2D0#0010000000100000
(0000000006.450500) vcan0 2D2#0010000000100000
(0000000006.452300) vcan0 010#07BB0000FFF6F555
(0000000006.457700) vcan0 011#03E8FFF605680000
(0000000006.462800) vcan0 012#FFF700FAFEEFFFFF
(0000000006.468100) vcan0 013#007A000000101EFC
(0000000006.469500) vcan0 2D0#0010000000100000
(0000000006.471600) vcan0 2D2#0010000000100000
(0000000006.473300) vcan0 014#FBFAC2
(0000000006.489500) vcan0 2D0#0010000000100000
(0000000006.491600) vcan0 2D2#0010000000100000
(0000000006.504800) vcan0 010#07B90000FFF6F555
(0000000006.510100) vcan0 011#03E8FFF605680000
(0000000006.511400) vcan0 2D0#0010000000100000
(0000000006.513700) vcan0 2D2#0010000000100000
(0000000006.515300) vcan0 012#FFF700FAFEEFFFFF
(0000000006.520600) vcan0 013#007A000000101EFC
(0000000006.525800) vcan0 014#FBFAC0
(0000000006.531500) vcan0 2D0#0010000000100000
(0000000006.533900) vcan0 2D2#0010000000100000
(0000000006.552400) vcan0 2D0#0010000000100000
(0000000006.555000) vcan0 2D2#0010000000100000
(0000000006.557300) vcan0 010#07B90000FFF6F555
(0000000006.562600) vcan0 011#03E8FFF605680000
(0000000006.567800) vcan0 012#FFF700FAFEEFFFFF
(0000000006.573100) vcan0 013#007A000000101EFC
(0000000006.575000) vcan0 2D0#0010000000100000
(0000000006.577900) vcan0 2D2#0010000000100000
(0000000006.578300) vcan0 014#FBFAC0
(0000000006.595800) vcan0 2D0#0010000000100000
(0000000006.597700) vcan0 2D2#0010000000100000
(0000000006.609800) vcan0 010#07BB0000FFF6F555
(0000000006.615100) vcan0 011#03E8FFF605680000
(0000000006.616600) vcan0 2D0#0010000000100000
(0000000006.618300) vcan0 2D2#0010000000100000
(0000000006.620300) vcan0 012#FFF700FAFEEFFFFF
(0000000006.625600) vcan0 013#007A000000101EFC
(0000000006.630700) vcan0 014#FBFAC2
(0000000006.637500) vcan0 2D0#0010000000100000
(0000000006.642300) vcan0 2D2#0010000000100000
(0000000006.662300) vcan0 010#07BB0000FFF6F555
(0000000006.664400) vcan0 2D0#0010000000100000
(0000000006.666500) vcan0 2D2#0010000000100000
(0000000006.667600) vcan0 011#03E8FFF605680000
(0000000006.672800) vcan0 012#FFF700FAFEEFFFFF
(0000000006.678000) vcan0 013#007A000000101EFC
(0000000006.683200) vcan0 014#FBFAC2
(0000000006.684500) vcan0 2D0#0010000000100000
(0000000006.686600) vcan0 2D2#0010000000100000
(0000000006.710800) vcan0 2D0#0010000000100000
(0000000006.713400) vcan0 2D2#0010000000100000
(0000000006.714800) vcan0 010#07BB0000FFF6F555
(0000000006.720000) vcan0 011#03E8FFF605680000
(0000000006.725300) vcan0 012#FFF700FAFEEFFFFF
(0000000006.730600) vcan0 013#007A000000101EFC
(0000000006.733100) vcan0 2D0#0010000000100000
(0000000006.735700) vcan0 014#FBFAC2
(0000000006.736100) vcan0 2D2#0010000000100000
(0000000006.760800) vcan0 2D0#0010000000100000
(0000000006.763100) vcan0 2D2#0010000000100000
(0000000006.767200) vcan0 010#07BB0000FFF6F555
(0000000006.772500) vcan0 011#03E8FFF605680000
(0000000006.777700) vcan0 012#FFF700FAFEEFFFFF
(0000000006.782900) vcan0 013#007A000000101EFC
(0000000006.783500) vcan0 2D0#0010000000100000
(0000000006.785200) vcan0 2D2#0010000000100000
(0000000006.788100) vcan0 014#FBFAC2
(0000000006.804400) vcan0 2D0#0010000000100000
(0000000006.807300) vcan0 2D2#0010000000100000
(0000000006.819800) vcan0 010#07BB0000FFF6F555
(0000000006.825000) vcan0 011#03E8FFF605680000
(0000000006.826400) vcan0 2D0#0010000000100000
(0000000006.830200) vcan0 012#FFF700FAFEEFFFFF
(0000000006.830300) vcan0 2D2#0010000000100000
(0000000006.835500) vcan0 013#0093000000141EFC
(0000000006.840600) vcan0 014#FBFADF
(0000000006.846400) vcan0 2D0#0010000000100000
(0000000006.849200) vcan0 2D2#0010000000100000
(0000000006.869400) vcan0 2D0#0010000000100000
(0000000006.872100) vcan0 010#062B0000FFF6F555
(0000000006.874600) vcan0 2D2#0010000000100000
(0000000006.877500) vcan0 011#03E8FFF605680000
(0000000006.882700) vcan0 012#FFF700FAFEEFFFFF
(0000000006.887900) vcan0 013#00670000000C1EFC
(0000000006.893100) vcan0 014#FBFA1A
(0000000006.894000) vcan0 2D0#0010000000100000
(0000000006.896100) vcan0 2D2#0010000000100000
(0000000006.916000) vcan0 2D0#0010000000100000
(0000000006.918100) vcan0 2D2#0010000000100000
(0000000006.924600) vcan0 010#062B0000FFF6F555
(0000000006.929900) vcan0 011#03E8FFF605690000
(0000000006.935200) vcan0 012#FFF700FAFEEFFFFF
(0000000006.935700) vcan0 2D0#0010000000100000
(0000000006.937800) vcan0 2D2#0010000000100000
(0000000006.940400) vcan0 013#00670000000C1EFC
(0000000006.945600) vcan0 014#FBFA1B
(0000000006.956800) vcan0 2D0#0010000000100000
(0000000006.958900) vcan0 2D2#0010000000100000
(0000000006.977100) vcan0 010#062B0000FFF6F555
(0000000006.979000) vcan0 2D0#0010000000100000
(0000000006.981200) vcan0 2D2#0010000000100000
(0000000006.982400) vcan0 011#03E8FFF605680000
(0000000006.987700) vcan0 012#FFF700FAFEEFFFFF
(0000000006.992800) vcan0 013#00670000000C1EFC
(0000000006.998000) vcan0 014#FBFA1A
(0000000006.999100) vcan0 2D0#0010000000100000
(0000000007.001200) vcan0 2D2#0010000000100000
(0000000007.020400) vcan0 2D0#0010000000100000
(0000000007.022400) vcan0 2D2#0010000000100000
(0000000007.029600) vcan0 010#062B0000FFF6F555
(0000000007.034800) vcan0 011#03E8FFF605680000
(0000000007.040100) vcan0 012#FFF700FAFEEFFFFF
(0000000007.041000) vcan0 2D0#0010000000100000
(0000000007.042700) vcan0 2D2#0010000000100000
(0000000007.045400) vcan0 013#00670000000C1EFC
(0000000007.050500) vcan0 014#FBFA1A
(0000000007.061900) vcan0 2D0#0010000000100000
(0000000007.064600) vcan0 2D2#0010000000100000
(0000000007.082000) vcan0 010#062B0000FFF6F555
(0000000007.084900) vcan0 2D0#0010000000100000
(0000000007.086800) vcan0 2D2#0010000000100000
(0000000007.087300) vcan0 011#03E8FFF605690000
(0000000007.092500) vcan0 012#FFF700FAFEEFFFFF
(0000000007.097800) vcan0 013#00670000000C1EFC
(0000000007.103000) vcan0 014#FBFA1B
(0000000007.103300) vcan0 2D0#0010000000100000
(0000000007.105700) vcan0 2D2#0010000000100000
(0000000007.124300) vcan0 2D0#0010000000100000
(0000000007.126800) vcan0 2D2#0010000000100000
(0000000007.134600) vcan0 010#062B0000FFF6F555
(0000000007.139800) vcan0 011#03E8FFF605680000
(0000000007.145100) vcan0 012#FFF700FAFEEFFFFF
(0000000007.146700) vcan0 2D0#0010000000100000
(0000000007.150400) vcan0 013#00670000000C1EFC
(0000000007.151700) vcan0 2D2#0010000000100000
(0000000007.155500) vcan0 014#FBFA1A
(0000000007.171700) vcan0 2D0#0010000000100000
(0000000007.173800) vcan0 2D2#0010000000100000
(0000000007.187000) vcan0 010#06310000FFF6F555
(0000000007.192400) vcan0 011#03E8FFF605680000
(0000000007.192800) vcan0 2D0#0010000000100000
(0000000007.194900) vcan0 2D2#0010000000100000
(0000000007.197500) vcan0 012#FFF700FAFEEFFFFF
(0000000007.202700) vcan0 013#00A1000000171EFC
(0000000007.208000) vcan0 014#FBFA65
(0000000007.214900) vcan0 2D0#0010000000100000
(0000000007.217000) vcan0 2D2#0010000000100000
(0000000007.234700) vcan0 2D0#0010000000100000
(0000000007.236700) vcan0 2D2#0010000000100000
(0000000007.239400) vcan0 010#07BB0000FFF6F555
(0000000007.244700) vcan0 011#03E8FFF605680000
(0000000007.249900) vcan0 012#FFF700FAFEEFFFFF
(0000000007.255300) vcan0 013#007A000000101EFC
(0000000007.256000) vcan0 2D0#0010000000100000
(0000000007.258100) vcan0 2D2#0010000000100000
(0000000007.260400) vcan0 014#FBFAC2
(0000000007.278300) vcan0 2D0#0010000000100000
(0000000007.280000) vcan0 2D2#0010000000100000
(0000000007.292000) vcan0 010#07BB0000FFF6F555
(0000000007.297300) vcan0 011#03E8FFF605680000
(0000000007.297600) vcan0 2D0#0010000000100000
(0000000007.300100) vcan0 2D2#0010000000100000
(0000000007.302500) vcan0 012#FFF700FAFEEFFFFF
(0000000007.307700) vcan0 013#007A000000101EFC
(0000000007.312900) vcan0 014#FBFAC2
(0000000007.319400) vcan0 2D0#0010000000100000
(0000000007.321300) vcan0 2D2#0010000000100000
(0000000007.339400) vcan0 2D0#0010000000100000
(0000000007.341200) vcan0 2D2#0010000000100000
(0000000007.344400) vcan0 010#07BB0000FFF6F555
(0000000007.349600) vcan0 011#03E8FFF605680000
(0000000007.354900) vcan0 012#FFF700FAFEEFFFFF
(0000000007.360200) vcan0 013#007A000000101EFC
(0000000007.360500) vcan0 2D0#0010000000100000
(0000000007.362500) vcan0 2D2#0010000000100000
(0000000007.365400) vcan0 014#FBFAC2
(0000000007.382500) vcan0 2D0#0010000000100000
(0000000007.385000) vcan0 2D2#0010000000100000
(0000000007.396900) vcan0 010#07B90000FFF6F555
(0000000007.402200) vcan0 011#03E8FFF605680000
(0000000007.403900) vcan0 2D0#0010000000100000
(0000000007.405800) vcan0 2D2#0010000000100000
(0000000007.407400) vcan0 012#FFF700FAFEEFFFFF
(0000000007.412600) vcan0 013#007A000000101EFC
(0000000007.417800) vcan0 014#FBFAC0
(0000000007.424400) vcan0 2D0#0010000000100000
(0000000007.429100) vcan0 2D2#0010000000100000
(0000000007.449400) vcan0 010#07BB0000FFF6F555
(0000000007.450400) vcan0 2D0#0010000000100000
(0000000007.453300) vcan0 2D2#0010000000100000
(0000000007.454500) vcan0 011#03E8FFF605680000
(0000000007.459800) vcan0 012#FFF700FAFEEFFFFF
(0000000007.465100) vcan0 013#007A000000101EFC
(0000000007.470200) vcan0 014#FBFAC2
(0000000007.471600) vcan0 2D0#0010000000100000
(0000000007.473400) vcan0 2D2#0010000000100000
(0000000007.493000) vcan0 2D0#0010000000100000
(0000000007.497900) vcan0 2D2#0010000000100000
(0000000007.501900) vcan0 010#07BB0000FFF6F555
(0000000007.507200) vcan0 011#03E8FFF605690000
(0000000007.512400) vcan0 012#FFF700FAFEEFFFFF
(0000000007.517600) vcan0 013#007A000000101EFC
(0000000007.518000) vcan0 2D0#0010000000100000
(0000000007.520100) vcan0 2D2#0010000000100000
(0000000007.522700) vcan0 014#FBFAC3
(0000000007.539200) vcan0 2D0#0010000000100000
(0000000007.540900) vcan0 2D2#0010000000100000
(0000000007.554300) vcan0 010#07BB0000FFF6F555
(0000000007.559500) vcan0 011#03E8FFF605680000
(0000000007.559800) vcan0 2D0#0010000000100000
(0000000007.561800) vcan0 2D2#0010000000100000
(0000000007.564900) vcan0 012#FFF700FAFEEFFFFF
(0000000007.570100) vcan0 013#007A000000101EFC
(0000000007.575300) vcan0 014#FBFAC2
(0000000007.580900) vcan0 2D0#0010000000100000
(0000000007.582800) vcan0 2D2#0010000000100000
(0000000007.603300) vcan0 2D0#0010000000100000
(0000000007.605000) vcan0 2D2#0010000000100000
(0000000007.606800) vcan0 010#07BB0000FFF6F555
(0000000007.612100) vcan0 011#03E8FFF605680000
(0000000007.617300) vcan0 012#FFF700FAFEEFFFFF
(0000000007.622500) vcan0 013#007A000000101EFC
(0000000007.623400) vcan0 2D0#0010000000100000
(0000000007.626200) vcan0 2D2#0010000000100000
(0000000007.627700) vcan0 014#FBFAC2
(0000000007.643700) vcan0 2D0#0010000000100000
(0000000007.646500) vcan0 2D2#0010000000100000
(0000000007.659300) vcan0 010#07B90000FFF6F555
(0000000007.664600) vcan0 011#03E8FFF605680000
(0000000007.665900) vcan0 2D0#0010000000100000
(0000000007.669800) vcan0 012#FFF700FAFEEFFFFF
(0000000007.671100) vcan0 2D2#0010000000100000
(0000000007.675100) vcan0 013#007A000000101EFC
(0000000007.680300) vcan0 014#FBFAC0
(0000000007.691100) vcan0 2D0#0010000000100000
(0000000007.693100) vcan0 2D2#0010000000100000
(0000000007.711800) vcan0 010#07B90000FFF6F555
(0000000007.717100) vcan0 011#03E8FFF605680000
(0000000007.717400) vcan0 2D0#0010000000100000
(0000000007.719100) vcan0 2D2#0010000000100000
(0000000007.722300) vcan0 012#FFF700FAFEEFFFFF
(0000000007.727500) vcan0 013#007A000000101EFC
(0000000007.732700) vcan0 014#FBFAC0
(0000000007.738400) vcan0 2D0#0010000000100000
(0000000007.740800) vcan0 2D2#0010000000100000
(0000000007.760100) vcan0 2D0#0010000000100000
(0000000007.762000) vcan0 2D2#0010000000100000
(0000000007.764300) vcan0 010#07BB0000FFF6F555
(0000000007.769500) vcan0 011#03E8FFF605680000
(0000000007.774800) vcan0 012#FFF700FAFEEFFFFF
(0000000007.780000) vcan0 013#007A000000101EFC
(0000000007.780200) vcan0 2D0#0010000000100000
(0000000007.781900) vcan0 2D2#0010000000100000
(0000000007.785200) vcan0 014#FBFAC2
(0000000007.801300) vcan0 2D0#0010000000100000
(0000000007.803200) vcan0 2D2#0010000000100000
(0000000007.816800) vcan0 010#07BB0000FFF6F555
(0000000007.822000) vcan0 011#03E8FFF605680000
(0000000007.823500) vcan0 2D0#0010000000100000
(0000000007.826000) vcan0 2D2#0010000000100000
(0000000007.827200) vcan0 012#FFF700FAFEEFFFFF
(0000000007.832400) vcan0 013#007A000000101EFC
(0000000007.837600) vcan0 014#FBFAC2
(0000000007.843800) vcan0 2D0#0010000000100000
(0000000007.846600) vcan0 2D2#0010000000100000
(0000000007.865800) vcan0 2D0#0010000000100000
(0000000007.868600) vcan0 2D2#0010000000100000
(0000000007.869200) vcan0 010#07BB0000FFF6F555
(0000000007.874500) vcan0 011#03E8FFF605680000
(0000000007.879700) vcan0 012#FFF700FAFEEFFFFF
(0000000007.885000) vcan0 013#007A000000101EFC
(0000000007.886500) vcan0 2D0#0010000000100000
(0000000007.889100) vcan0 2D2#0010000000100000
(0000000007.890100) vcan0 014#FBFAC2
(0000000007.908700) vcan0 2D0#0010000000100000
(0000000007.913800) vcan0 2D2#0010000000100000
(0000000007.921700) vcan0 010#07BB0000FFF6F555
(0000000007.927000) vcan0 011#03E8FFF605680000
(0000000007.932200) vcan0 012#FFF700FAFEEFFFFF
(0000000007.933200) vcan0 2D0#0010000000100000
(0000000007.935300) vcan0 2D2#0010000000100000
(0000000007.937500) vcan0 013#007A000000101EFC
(0000000007.942600) vcan0 014#FBFAC2
(0000000007.955300) vcan0 2D0#0010000000100000
(0000000007.957400) vcan0 2D2#0010000000100000
(0000000007.974200) vcan0 010#07B90000FFF6F555
(0000000007.974500) vcan0 2D0#0010000000100000
(0000000007.977400) vcan0 2D2#0010000000100000
(0000000007.979300) vcan0 011#03E8FFF605680000
(0000000007.984700) vcan0 012#FFF700FAFEEFFFFF
(0000000007.989900) vcan0 013#007A000000101EFC
(0000000007.995000) vcan0 014#FBFAC0
(0000000007.995200) vcan0 2D0#0010000000100000
(0000000007.996900) vcan0 2D2#0010000000100000
(0000000008.016800) vcan0 2D0#0010000000100000
(0000000008.021600) vcan0 2D2#0010000000100000
(0000000008.026600) vcan0 010#07BB0000FFF6F555
(0000000008.031900) vcan0 011#03E8FFF605690000
(0000000008.037100) vcan0 012#FFF700FAFEEFFFFF
(0000000008.042300) vcan0 013#007A000000101EFC
(0000000008.042600) vcan0 2D0#0010000000100000
(0000000008.044300) vcan0 2D2#0010000000100000
(0000000008.047500) vcan0 014#FBFAC3
(0000000008.065100) vcan0 2D0#0010000000100000
(0000000008.067500) vcan0 2D2#0010000000100000
(0000000008.079200) vcan0 010#07BB0000FFF6F555
(0000000008.084300) vcan0 011#03E8FFF605690000
(0000000008.085200) vcan0 2D0#0010000000100000
(0000000008.088400) vcan0 2D2#0010000000100000
(0000000008.089600) vcan0 012#FFF700FAFEEFFFFF
(0000000008.094800) vcan0 013#007A000000101EFC
(0000000008.100000) vcan0 014#FBFAC3
(0000000008.107500) vcan0 2D0#0010000000100000
(0000000008.109300) vcan0 2D2#0010000000100000
(0000000008.127600) vcan0 2D0#0010000000100000
(0000000008.130200) vcan0 2D2#0010000000100000
(0000000008.131500) vcan0 010#07BB0000FFF6F555
(0000000008.136900) vcan0 011#03E8FFF605680000
(0000000008.142000) vcan0 012#FFF700FAFEEFFFFF
(0000000008.147300) vcan0 013#007A000000101EFC
(0000000008.150200) vcan0 2D0#0010000000100000
(0000000008.152500) vcan0 014#FBFAC2
(0000000008.155100) vcan0 2D2#0010000000100000
(0000000008.175000) vcan0 2D0#0010000000100000
(0000000008.177100) vcan0 2D2#0010000000100000
(0000000008.184100) vcan0 010#07BB0000FFF6F555
(0000000008.189300) vcan0 011#03E8FFF605690000
(0000000008.194600) vcan0 012#FFF700FAFEEFFFFF
(0000000008.196500) vcan0 2D0#0010000000100000
(0000000008.198600) vcan0 2D2#0010000000100000
(0000000008.199799) vcan0 013#007A000000101EFC
(0000000008.205000) vcan0 014#FBFAC3
(0000000008.216500) vcan0 2D0#0010000000100000
(0000000008.218799) vcan0 2D2#0010000000100000
(0000000008.236500) vcan0 010#07BB0000FFF6F555
(0000000008.236900) vcan0 2D0#0010000000100000
(0000000008.238900) vcan0 2D2#0010000000100000
(0000000008.241799) vcan0 011#03E8FFF605680000
(0000000008.247000) vcan0 012#FFF700FAFEEFFFFF
(0000000008.252200) vcan0 013#007A000000101EFC
(0000000008.257400) vcan0 014#FBFAC2
(0000000008.257900) vcan0 2D0#0010000000100000
(0000000008.259900) vcan0 2D2#0010000000100000
(0000000008.279900) vcan0 2D0#0010000000100000
(0000000008.281700) vcan0 2D2#0010000000100000
(0000000008.289000) vcan0 010#07B90000FFF6F555
(0000000008.294200) vcan0 011#03E8FFF605690000
(0000000008.299400) vcan0 012#FFF700FAFEEFFFFF
(0000000008.301799) vcan0 2D0#0010000000100000
(0000000008.303799) vcan0 2D2#0010000000100000
(0000000008.304799) vcan0 013#007A000000101EFC
(0000000008.309900) vcan0 014#FBFAC1
(0000000008.321400) vcan0 2D0#0010000000100000
(0000000008.323400) vcan0 2D2#0010000000100000
(0000000008.341400) vcan0 010#07BB0000FFF6F555
(0000000008.343500) vcan0 2D0#0010000000100000
(0000000008.346200) vcan0 2D2#0010000000100000
(0000000008.346799) vcan0 011#03E8FFF605690000
(0000000008.352000) vcan0 012#FFF700FAFEEFFFFF
(0000000008.357200) vcan0 013#007A000000101EFC
(0000000008.362400) vcan0 014#FBFAC3
(0000000008.362799) vcan0 2D0#0010000000100000
(0000000008.365500) vcan0 2D2#0010000000100000
(0000000008.385900) vcan0 2D0#0010000000100000
(0000000008.388900) vcan0 2D2#0010000000100000
(0000000008.393900) vcan0 010#07BB0000FFF6F555
(0000000008.399100) vcan0 011#03E8FFF605690000
(0000000008.404400) vcan0 012#FFF700FAFEEFFFFF
(0000000008.409700) vcan0 013#007A000000101EFC
(0000000008.413700) vcan0 2D0#0010000000100000
(0000000008.414900) vcan0 014#FBFAC3
(0000000008.416100) vcan0 2D2#0010000000100000
(0000000008.438100) vcan0 2D0#0010000000100000
(0000000008.439900) vcan0 2D2#0010000000100000
(0000000008.446400) vcan0 010#07BB0000FFF6F555
(0000000008.451700) vcan0 011#03E8FFF605680000
(0000000008.456900) vcan0 012#FFF700FAFEEFFFFF
(0000000008.457500) vcan0 2D0#0010000000100000
(0000000008.459300) vcan0 2D2#0010000000100000
(0000000008.462100) vcan0 013#007A000000101EFC
(0000000008.467300) vcan0 014#FBFAC2
(0000000008.479300) vcan0 2D0#0010000000100000
(0000000008.481500) vcan0 2D2#0010000000100000
(0000000008.498800) vcan0 010#07B90000FFF6F555
(0000000008.500500) vcan0 2D0#0010000000100000
(0000000008.503800) vcan0 2D2#0010000000100000
(0000000008.504100) vcan0 011#03E8FFF605680000
(0000000008.509400) vcan0 012#FFF700FAFEEFFFFF
(0000000008.514700) vcan0 013#007A000000101EFC
(0000000008.519700) vcan0 014#FBFAC0
(0000000008.520600) vcan0 2D0#0010000000100000
(0000000008.522300) vcan0 2D2#0010000000100000
(0000000008.541200) vcan0 2D0#0010000000100000
(0000000008.543000) vcan0 2D2#0010000000100000
(0000000008.551400) vcan0 010#094A0000FFF6F555
(0000000008.556600) vcan0 011#03E8FFF605680000
(0000000008.561800) vcan0 012#FFF700FAFEEFFFFF
(0000000008.563300) vcan0 2D0#0010000000100000
(0000000008.565000) vcan0 2D2#0010000000100000
(0000000008.567000) vcan0 013#008F000000141EFC
(0000000008.572300) vcan0 014#FBFA6C
(0000000008.586000) vcan0 2D0#0010000000100000
(0000000008.588300) vcan0 2D2#0010000000100000
(0000000008.603800) vcan0 010#094A0000FFF6F555
(0000000008.609100) vcan0 011#03E8FFF605680000
(0000000008.609400) vcan0 2D0#0010000000100000
(0000000008.611100) vcan0 2D2#0010000000100000
(0000000008.614300) vcan0 012#FFF700FAFEEFFFFF
(0000000008.619600) vcan0 013#008F000000141EFC
(0000000008.624800) vcan0 014#FBFA6C
(0000000008.632300) vcan0 2D0#0010000000100000
(0000000008.634700) vcan0 2D2#0010000000100000
(0000000008.651200) vcan0 2D0#0010000000100000
(0000000008.652900) vcan0 2D2#0010000000100000
(0000000008.656300) vcan0 010#094A0000FFF6F555
(0000000008.661500) vcan0 011#03E8FFF605680000
(0000000008.666800) vcan0 012#FFF700FAFEEFFFFF
(0000000008.672000) vcan0 013#008F000000141EFC
(0000000008.674400) vcan0 2D0#0010000000100000
(0000000008.677200) vcan0 014#FBFA6C
(0000000008.679400) vcan0 2D2#0010000000100000
(0000000008.699500) vcan0 2D0#0010000000100000
(0000000008.701600) vcan0 2D2#0010000000100000
(0000000008.708800) vcan0 010#094A0000FFF6F555
(0000000008.714000) vcan0 011#03E8FFF605680000
(0000000008.719300) vcan0 012#FFF700FAFEEFFFFF
(0000000008.724500) vcan0 013#008F000000141EFC
(0000000008.725900) vcan0 2D0#0010000000100000
(0000000008.728300) vcan0 2D2#0010000000100000
(0000000008.729700) vcan0 014#FBFA6C
(0000000008.747200) vcan0 2D0#0010000000100000
(0000000008.751000) vcan0 2D2#0010000000100000
(0000000008.761200) vcan0 010#094A0000FFF6F555
(0000000008.766600) vcan0 011#03E8FFF605680000
(0000000008.771700) vcan0 012#FFF700FAFEEFFFFF
(0000000008.773800) vcan0 2D0#0010000000100000
(0000000008.777000) vcan0 013#008F000000141EFC
(0000000008.778600) vcan0 2D2#0010000000100000
(0000000008.782200) vcan0 014#FBFA6C
(0000000008.798600) vcan0 2D0#0010000000100000
(0000000008.800700) vcan0 2D2#0010000000100000
(0000000008.813700) vcan0 010#094A0000FFF6F555
(0000000008.819000) vcan0 011#03E8FFF605680000
(0000000008.820500) vcan0 2D0#0010000000100000
(0000000008.822600) vcan0 2D2#0010000000100000
(0000000008.824200) vcan0 012#FFF700FAFEEFFFFF
(0000000008.829500) vcan0 013#008F000000141EFC
(0000000008.834700) vcan0 014#FBFA6C
(0000000008.841800) vcan0 2D0#0010000000100000
(0000000008.843900) vcan0 2D2#0010000000100000
(0000000008.861800) vcan0 2D0#0010000000100000
(0000000008.863900) vcan0 2D2#0010000000100000
(0000000008.866200) vcan0 010#094A0000FFF6F555
(0000000008.871500) vcan0 011#03E8FFF605680000
(0000000008.876700) vcan0 012#FFF700FAFEEFFFFF
(0000000008.881900) vcan0 013#008F000000141EFC
(0000000008.883000) vcan0 2D0#0010000000100000
(0000000008.885800) vcan0 2D2#0010000000100000
(0000000008.887100) vcan0 014#FBFA6C
(0000000008.903100) vcan0 2D0#0010000000100000
(0000000008.905100) vcan0 2D2#0010000000100000
(0000000008.918700) vcan0 010#094A0000FFF6F555
(0000000008.923900) vcan0 011#03E8FFF605690000
(0000000008.925400) vcan0 2D0#0010000000100000
(0000000008.927400) vcan0 2D2#0010000000100000
(0000000008.929200) vcan0 012#FFF700FAFEEFFFFF
(0000000008.934400) vcan0 013#008F000000141EFC
(0000000008.939600) vcan0 014#FBFA6D
(0000000008.947200) vcan0 2D0#0010000000100000
(0000000008.949800) vcan0 2D2#0010000000100000
(0000000008.967300) vcan0 2D0#0010000000100000
(0000000008.970000) vcan0 2D2#0010000000100000
(0000000008.971200) vcan0 010#094A0000FFF6F555
(0000000008.976500) vcan0 011#03E8FFF605680000
(0000000008.981700) vcan0 012#FFF700FAFEEFFFFF
(0000000008.986900) vcan0 013#008F000000141EFC
(0000000008.987600) vcan0 2D0#0010000000100000
(0000000008.990600) vcan0 2D2#0010000000100000
(0000000008.992100) vcan0 014#FBFA6C
(0000000009.010200) vcan0 2D0#0010000000100000
(0000000009.015100) vcan0 2D2#0010000000100000
(0000000009.023600) vcan0 010#094A0000FFF6F555
(0000000009.028800) vcan0 011#03E8FFF605680000
(0000000009.034100) vcan0 012#FFF700FAFEEFFFFF
(0000000009.034500) vcan0 2D0#0010000000100000
(0000000009.036200) vcan0 2D2#0010000000100000
(0000000009.039400) vcan0 013#008F000000141EFC
(0000000009.044500) vcan0 014#FBFA6C
(0000000009.057100) vcan0 2D0#0010000000100000
(0000000009.059600) vcan0 2D2#0010000000100000
(0000000009.076100) vcan0 010#094A0000FFF6F555
(0000000009.077300) vcan0 2D0#0010000000100000
(0000000009.080300) vcan0 2D2#0010000000100000
(0000000009.081400) vcan0 011#03E8FFF605680000
(0000000009.086600) vcan0 012#FFF700FAFEEFFFFF
(0000000009.091800) vcan0 013#008F000000141EFC
(0000000009.097000) vcan0 014#FBFA6C
(0000000009.099500) vcan0 2D0#0010000000100000
(0000000009.101200) vcan0 2D2#0010000000100000
(0000000009.119600) vcan0 2D0#0010000000100000
(0000000009.122200) vcan0 2D2#0010000000100000
(0000000009.128600) vcan0 010#094A0000FFF6F555
(0000000009.133800) vcan0 011#03E8FFF605680000
(0000000009.139100) vcan0 012#FFF700FAFEEFFFFF
(0000000009.139300) vcan0 2D0#0010000000100000
(0000000009.142000) vcan0 2D2#0010000000100000
(0000000009.144400) vcan0 013#008F000000141EFC
(0000000009.149600) vcan0 014#FBFA6C
(0000000009.162200) vcan0 2D0#0010000000100000
(0000000009.167100) vcan0 2D2#0010000000100000
(0000000009.181100) vcan0 010#094A0000FFF6F555
(0000000009.186400) vcan0 011#03E8FFF605680000
(0000000009.186500) vcan0 2D0#0010000000100000
(0000000009.188600) vcan0 2D2#0010000000100000
(0000000009.191500) vcan0 012#FFF700FAFEEFFFFF
(0000000009.196800) vcan0 013#008F000000141EFC
(0000000009.202000) vcan0 014#FBFA6C
(0000000009.209100) vcan0 2D0#0010000000100000
(0000000009.210800) vcan0 2D2#0010000000100000
(0000000009.228600) vcan0 2D0#0010000000100000
(0000000009.231100) vcan0 2D2#0010000000100000
(0000000009.233500) vcan0 010#094A0000FFF6F555
(0000000009.238800) vcan0 011#03E8FFF605680000
(0000000009.244000) vcan0 012#FFF700FAFEEFFFFF
(0000000009.249300) vcan0 013#008F000000141EFC
(0000000009.251700) vcan0 2D0#0010000000100000
(0000000009.254400) vcan0 014#FBFA6C
(0000000009.254700) vcan0 2D2#0010000000100000
(0000000009.278700) vcan0 2D0#0010000000100000
(0000000009.281900) vcan0 2D2#0010000000100000
(0000000009.286000) vcan0 010#094A0000FFF6F555
(0000000009.291300) vcan0 011#03E8FFF605680000
(0000000009.296500) vcan0 012#FFF700FAFEEFFFFF
(0000000009.301700) vcan0 013#008F000000141EFC
(0000000009.303200) vcan0 2D0#0010000000100000
(0000000009.305000) vcan0 2D2#0010000000100000
(0000000009.307000) vcan0 014#FBFA6C
(0000000009.323200) vcan0 2D0#0010000000100000
(0000000009.324900) vcan0 2D2#0010000000100000
(0000000009.338500) vcan0 010#094A0000FFF6F555
(0000000009.343700) vcan0 011#03E8FFF605680000
(0000000009.344500) vcan0 2D0#0010000000100000
(0000000009.347300) vcan0 2D2#0010000000100000
(0000000009.349000) vcan0 012#FFF700FAFEEFFFFF
(0000000009.354200) vcan0 013#008F000000141EFC
(0000000009.359400) vcan0 014#FBFA6C
(0000000009.366500) vcan0 2D0#0010000000100000
(0000000009.369100) vcan0 2D2#0010000000100000
(0000000009.386800) vcan0 2D0#0010000000100000
(0000000009.389600) vcan0 2D2#0010000000100000
(0000000009.391000) vcan0 010#094A0000FFF6F555
(0000000009.396300) vcan0 011#03E8FFF605680000
(0000000009.401500) vcan0 012#FFF700FAFEEFFFFF
(0000000009.406700) vcan0 013#008F000000141EFC
(0000000009.408600) vcan0 2D0#0010000000100000
(0000000009.411400) vcan0 2D2#0010000000100000
(0000000009.411900) vcan0 014#FBFA6C
(0000000009.428800) vcan0 2D0#0010000000100000
(0000000009.431600) vcan0 2D2#0010000000100000
(0000000009.443400) vcan0 010#094A0000FFF6F555
(0000000009.448700) vcan0 011#03E8FFF605680000
(0000000009.451700) vcan0 2D0#0010000000100000
(0000000009.454000) vcan0 012#FFF700FAFEEFFFFF
(0000000009.456800) vcan0 2D2#0010000000100000
(0000000009.459200) vcan0 013#008F000000141EFC
(0000000009.464400) vcan0 014#FBFA6C
(0000000009.476100) vcan0 2D0#0010000000100000
(0000000009.478200) vcan0 2D2#0010000000100000
(0000000009.495900) vcan0 010#094A0000FFF6F555
(0000000009.496300) vcan0 2D0#0010000000100000
(0000000009.498500) vcan0 2D2#0010000000100000
(0000000009.501200) vcan0 011#03E8FFF605680000
(0000000009.506400) vcan0 012#FFF700FAFEEFFFFF
(0000000009.511600) vcan0 013#008F000000141EFC
(0000000009.516900) vcan0 014#FBFA6C
(0000000009.518700) vcan0 2D0#0010000000100000
(0000000009.520700) vcan0 2D2#0010000000100000
(0000000009.538400) vcan0 2D0#0010000000100000
(0000000009.540200) vcan0 2D2#0010000000100000
(0000000009.548400) vcan0 010#094A0000FFF6F555
(0000000009.553600) vcan0 011#03E8FFF605680000
(0000000009.558900) vcan0 012#FFF700FAFEEFFFFF
(0000000009.559400) vcan0 2D0#0010000000100000
(0000000009.561800) vcan0 2D2#0010000000100000
(0000000009.564300) vcan0 013#008F000000141EFC
(0000000009.569300) vcan0 014#FBFA6C
(0000000009.581100) vcan0 2D0#0010000000100000
(0000000009.584200) vcan0 2D2#0010000000100000
(0000000009.600900) vcan0 010#09480000FFF6F555
(0000000009.601600) vcan0 2D0#0010000000100000
(0000000009.603400) vcan0 2D2#0010000000100000
(0000000009.606200) vcan0 011#03E8FFF605680000
(0000000009.611400) vcan0 012#FFF700FAFEEFFFFF
(0000000009.616600) vcan0 013#008F000000141EFC
(0000000009.621800) vcan0 014#FBFA6A
(0000000009.622800) vcan0 2D0#0010000000100000
(0000000009.625300) vcan0 2D2#0010000000100000
(0000000009.644700) vcan0 2D0#0010000000100000
(0000000009.649600) vcan0 2D2#0010000000100000
(0000000009.653400) vcan0 010#0AD90000FFF6F555
(0000000009.658500) vcan0 011#03E8FFF605680000
(0000000009.663800) vcan0 012#FFF700FAFEEFFFFF
(0000000009.669100) vcan0 013#00A3000000181EFC
(0000000009.669400) vcan0 2D0#0010000000100000
(0000000009.671100) vcan0 2D2#0010000000100000
(0000000009.674200) vcan0 014#FBFA14
(0000000009.691500) vcan0 2D0#0010000000100000
(0000000009.694300) vcan0 2D2#0010000000100000
(0000000009.705800) vcan0 010#0AD90000FFF6F555
(0000000009.711200) vcan0 011#03E8FFF605680000
(0000000009.712000) vcan0 2D0#0010000000100000
(0000000009.714800) vcan0 2D2#0010000000100000
(0000000009.716400) vcan0 012#FFF700FAFEEFFFFF
(0000000009.721600) vcan0 013#00A3000000181EFC
(0000000009.726800) vcan0 014#FBFA14
(0000000009.739100) vcan0 2D0#0010000000100000
(0000000009.742200) vcan0 2D2#0010000000100000
(0000000009.758300) vcan0 010#0AD70000FFF6F555
(0000000009.759300) vcan0 2D0#0010000000100000
(0000000009.761400) vcan0 2D2#0010000000100000
(0000000009.763600) vcan0 011#03E8FFF605680000
(0000000009.768900) vcan0 012#FFF700FAFEEFFFFF
(0000000009.774200) vcan0 013#00A3000000181EFC
(0000000009.779300) vcan0 014#FBFA12
(0000000009.781500) vcan0 2D0#0010000000100000
(0000000009.783600) vcan0 2D2#0010000000100000
(0000000009.800800) vcan0 2D0#0010000000100000
(0000000009.803000) vcan0 2D2#0010000000100000
(0000000009.810800) vcan0 010#0AD90000FFF6F555
(0000000009.816100) vcan0 011#03E8FFF605690000
(0000000009.821200) vcan0 012#FFF700FAFEEFFFFF
(0000000009.822900) vcan0 2D0#0010000000100000
(0000000009.824700) vcan0 2D2#0010000000100000
(0000000009.826500) vcan0 013#00A3000000181EFC
(0000000009.831700) vcan0 014#FBFA15
(0000000009.844800) vcan0 2D0#0010000000100000
(0000000009.847700) vcan0 2D2#0010000000100000
(0000000009.863300) vcan0 010#0AD90000FFF6F555
(0000000009.868500) vcan0 011#03E8FFF605680000
(0000000009.872800) vcan0 2D0#0010000000100000
(0000000009.873800) vcan0 012#FFF700FAFEEFFFFF
(0000000009.875300) vcan0 2D2#0010000000100000
(0000000009.879000) vcan0 013#00A3000000181EFC
(0000000009.884200) vcan0 014#FBFA14
(0000000009.895700) vcan0 2D0#0010000000100000
(0000000009.897600) vcan0 2D2#0010000000100000
(0000000009.915800) vcan0 010#0AD90000FFF6F555
(0000000009.917000) vcan0 2D0#0010000000100000
(0000000009.918800) vcan0 2D2#0010000000100000
(0000000009.921100) vcan0 011#03E8FFF605680000
(0000000009.926300) vcan0 012#FFF700FAFEEFFFFF
(0000000009.931500) vcan0 013#00A3000000181EFC
(0000000009.936700) vcan0 014#FBFA14
(0000000009.937100) vcan0 2D0#0010000000100000
(0000000009.938800) vcan0 2D2#0010000000100000
(0000000009.958200) vcan0 2D0#0010000000100000
(0000000009.960800) vcan0 2D2#0010000000100000
(0000000009.968200) vcan0 010#0AD90000FFF6F555
(0000000009.973400) vcan0 011#03E8FFF605690000
(0000000009.978700) vcan0 012#FFF700FAFEEFFFFF
(0000000009.980300) vcan0 2D0#0010000000100000
(0000000009.982800) vcan0 2D2#0010000000100000
(0000000009.984100) vcan0 013#00A3000000181EFC
(0000000009.989200) vcan0 014#FBFA15
(0000000010.000700) vcan0 2D0#0010000000100000
(0000000010.003400) vcan0 2D2#0010000000100000
(0000000010.020700) vcan0 010#0AD90000FFF6F555
(0000000010.021800) vcan0 2D0#0010000000100000
(0000000010.024200) vcan0 2D2#0010000000100000
(0000000010.026000) vcan0 011#03E8FFF605680000
(0000000010.031200) vcan0 012#FFF700FAFEEFFFFF
(0000000010.036400) vcan0 013#00A3000000181EFC
(0000000010.041600) vcan0 014#FBFA14
(0000000010.043400) vcan0 2D0#0010000000100000
(0000000010.045100) vcan0 2D2#0010000000100000
(0000000010.065100) vcan0 2D0#0010000000100000
(0000000010.069900) vcan0 2D2#0010000000100000
(0000000010.073200) vcan0 010#0AD90000FFF6F555
(0000000010.078400) vcan0 011#03E8FFF605680000
(0000000010.083700) vcan0 012#FFF700FAFEEFFFFF
(0000000010.088900) vcan0 013#00A3000000181EFC
(0000000010.089700) vcan0 2D0#0010000000100000
(0000000010.091400) vcan0 2D2#0010000000100000
(0000000010.094000) vcan0 014#FBFA14
(0000000010.110300) vcan0 2D0#0010000000100000
(0000000010.112000) vcan0 2D2#0010000000100000
(0000000010.125600) vcan0 010#0AD90000FFF6F555
(0000000010.131000) vcan0 011#03E8FFF605680000
(0000000010.132200) vcan0 2D0#0010000000100000
(0000000010.134200) vcan0 2D2#0010000000100000
(0000000010.136200) vcan0 012#FFF700FAFEEFFFFF
(0000000010.141400) vcan0 013#00A3000000181EFC
(0000000010.146500) vcan0 014#FBFA14
(0000000010.153700) vcan0 2D0#0010000000100000
(0000000010.155500) vcan0 2D2#0010000000100000
(0000000010.173800) vcan0 2D0#0010000000100000
(0000000010.175500) vcan0 2D2#0010000000100000
(0000000010.178100) vcan0 010#0AD90000FFF6F555
(0000000010.183400) vcan0 011#03E8FFF605680000
(0000000010.188700) vcan0 012#FFF700FAFEEFFFFF
(0000000010.193900) vcan0 013#00A3000000181EFC
(0000000010.194900) vcan0 2D0#0010000000100000
(0000000010.197600) vcan0 2D2#0010000000100000
(0000000010.199000) vcan0 014#FBFA14
(0000000010.215000) vcan0 2D0#0010000000100000
(0000000010.217000) vcan0 2D2#0010000000100000
(0000000010.230600) vcan0 010#0AD90000FFF6F555
(0000000010.235900) vcan0 011#03E8FFF605680000
(0000000010.237200) vcan0 2D0#0010000000100000
(0000000010.239900) vcan0 2D2#0010000000100000
(0000000010.241100) vcan0 012#FFF700FAFEEFFFFF
(0000000010.246300) vcan0 013#00A3000000181EFC
(0000000010.251500) vcan0 014#FBFA14
(0000000010.257100) vcan0 2D0#0010000000100000
(0000000010.260100) vcan0 2D2#0010000000100000
(0000000010.278300) vcan0 2D0#0010000000100000
(0000000010.281400) vcan0 2D2#0010000000100000
(0000000010.283100) vcan0 010#0C6B0000FFF6F555
(0000000010.288300) vcan0 011#03E8FFF605680000
(0000000010.293600) vcan0 012#FFF700FAFEEFFFFF
(0000000010.298900) vcan0 013#00AA0000001C1EFC
(0000000010.302800) vcan0 2D0#0010000000100000
(0000000010.304000) vcan0 014#FBFAB3
(0000000010.306100) vcan0 2D2#0010000000100000
(0000000010.326300) vcan0 2D0#0010000000100000
(0000000010.331400) vcan0 2D2#0010000000100000
(0000000010.335600) vcan0 010#0C6B0000FFF6F555
(0000000010.340900) vcan0 011#03E8FFF605680000
(0000000010.346000) vcan0 012#FFF700FAFEEFFFFF
(0000000010.351300) vcan0 013#00AA0000001C1EFC
(0000000010.353200) vcan0 2D0#0010000000100000
(0000000010.355400) vcan0 2D2#0010000000100000
(0000000010.356500) vcan0 014#FBFAB3
(0000000010.373600) vcan0 2D0#0010000000100000
(0000000010.376600) vcan0 2D2#0010000000100000
(0000000010.388100) vcan0 010#0C6B0000FFF6F555
(0000000010.393300) vcan0 011#03E8FFF605680000
(0000000010.395300) vcan0 2D0#0010000000100000
(0000000010.397200) vcan0 2D2#0010000000100000
(0000000010.398600) vcan0 012#FFF700FAFEEFFFFF
(0000000010.403900) vcan0 013#00AA0000001C1EFC
(0000000010.409000) vcan0 014#FBFAB3
(0000000010.414500) vcan0 2D0#0010000000100000
(0000000010.416500) vcan0 2D2#0010000000100000
(0000000010.435400) vcan0 2D0#0010000000100000
(0000000010.437400) vcan0 2D2#0010000000100000
(0000000010.440500) vcan0 010#0C6B0000FFF6F555
(0000000010.445800) vcan0 011#03E8FFF605680000
(0000000010.451000) vcan0 012#FFF700FAFEEFFFFF
(0000000010.456200) vcan0 013#00AA0000001C1EFC
(0000000010.457900) vcan0 2D0#0010000000100000
(0000000010.460800) vcan0 2D2#0010000000100000
(0000000010.461400) vcan0 014#FBFAB3
(0000000010.479600) vcan0 2D0#0010000000100000
(0000000010.485300) vcan0 2D2#0010000000100000
(0000000010.493000) vcan0 010#0C6B0000FFF6F555
(0000000010.498200) vcan0 011#03E8FFF605690000
(0000000010.503500) vcan0 012#FFF700FAFEEFFFFF
(0000000010.505800) vcan0 2D0#0010000000100000
(0000000010.508800) vcan0 013#00AA0000001C1EFC
(0000000010.509400) vcan0 2D2#0010000000100000
(0000000010.513900) vcan0 014#FBFAB4
(0000000010.530600) vcan0 2D0#0010000000100000
(0000000010.532500) vcan0 2D2#0010000000100000
(0000000010.545400) vcan0 010#0C6B0000FFF6F555
(0000000010.550800) vcan0 011#03E8FFF605690000
(0000000010.552200) vcan0 2D0#0010000000100000
(0000000010.555200) vcan0 2D2#0010000000100000
(0000000010.556000) vcan0 012#FFF700FAFEEFFFFF
(0000000010.561200) vcan0 013#00AA0000001C1EFC
(0000000010.566400) vcan0 014#FBFAB4
(0000000010.574500) vcan0 2D0#0010000000100000
(0000000010.577400) vcan0 2D2#0010000000100000
(0000000010.598000) vcan0 010#0C6B0000FFF6F555
(0000000010.599700) vcan0 2D0#0010000000100000
(0000000010.601500) vcan0 2D2#0010000000100000
(0000000010.603200) vcan0 011#03E8FFF605680000
(0000000010.608500) vcan0 012#FFF700FAFEEFFFFF
(0000000010.613700) vcan0 013#00AA0000001C1EFC
(0000000010.618900) vcan0 014#FBFAB3
(0000000010.619900) vcan0 2D0#0010000000100000
(0000000010.621900) vcan0 2D2#0010000000100000
(0000000010.640400) vcan0 2D0#0010000000100000
(0000000010.642700) vcan0 2D2#0010000000100000
(0000000010.650500) vcan0 010#0C6B0000FFF6F555
(0000000010.655700) vcan0 011#03E8FFF605680000
(0000000010.661000) vcan0 012#FFF700FAFEEFFFFF
(0000000010.661800) vcan0 2D0#0010000000100000
(0000000010.664100) vcan0 2D2#0010000000100000
(0000000010.666100) vcan0 013#00AA0000001C1EFC
(0000000010.671500) vcan0 014#FBFAB3
(0000000010.682600) vcan0 2D0#0010000000100000
(0000000010.684800) vcan0 2D2#0010000000100000
(0000000010.703000) vcan0 010#0C6B0000FFF6F555
(0000000010.704100) vcan0 2D0#0010000000100000
(0000000010.706200) vcan0 2D2#0010000000100000
(0000000010.708200) vcan0 011#03E8FFF605690000
(0000000010.713400) vcan0 012#FFF700FAFEEFFFFF
(0000000010.718700) vcan0 013#00AA0000001C1EFC
(0000000010.723800) vcan0 014#FBFAB4
(0000000010.724600) vcan0 2D0#0010000000100000
(0000000010.726900) vcan0 2D2#0010000000100000
(0000000010.751300) vcan0 2D0#0010000000100000
(0000000010.754300) vcan0 2D2#0010000000100000
(0000000010.755400) vcan0 010#0DFB0000FFF6F555
(0000000010.760700) vcan0 011#03E8FFF605680000
(0000000010.765900) vcan0 012#FFF700FAFEEFFFFF
(0000000010.771100) vcan0 013#00BA000000201EFC
(0000000010.771200) vcan0 2D0#0010000000100000
(0000000010.773100) vcan0 2D2#0010000000100000
(0000000010.776300) vcan0 014#FBFA58
(0000000010.793700) vcan0 2D0#0010000000100000
(0000000010.795600) vcan0 2D2#0010000000100000
(0000000010.807900) vcan0 010#0DFB0000FFF6F555
(0000000010.813100) vcan0 011#03E8FFF605680000
(0000000010.814000) vcan0 2D0#0010000000100000
(0000000010.816100) vcan0 2D2#0010000000100000
(0000000010.818300) vcan0 012#FFF700FAFEEFFFFF
(0000000010.823700) vcan0 013#00BA000000201EFC
(0000000010.828800) vcan0 014#FBFA58
(0000000010.835200) vcan0 2D0#0010000000100000
(0000000010.837400) vcan0 2D2#0010000000100000
(0000000010.855700) vcan0 2D0#0010000000100000
(0000000010.857900) vcan0 2D2#0010000000100000
(0000000010.860300) vcan0 010#0DFB0000FFF6F555
(0000000010.865600) vcan0 011#03E8FFF605680000
(0000000010.870800) vcan0 012#FFF700FAFEEFFFFF
(0000000010.876100) vcan0 013#00BA000000201EFC
(0000000010.877000) vcan0 2D0#0010000000100000
(0000000010.879200) vcan0 2D2#0010000000100000
(0000000010.881200) vcan0 014#FBFA58
(0000000010.897600) vcan0 2D0#0010000000100000
(0000000010.900600) vcan0 2D2#0010000000100000
(0000000010.912900) vcan0 010#0DFB0000FFF6F555
(0000000010.918100) vcan0 011#03E8FFF605680000
(0000000010.919300) vcan0 2D0#0010000000100000
(0000000010.921300) vcan0 2D2#0010000000100000
(0000000010.923300) vcan0 012#FFF700FAFEEFFFFF
(0000000010.928600) vcan0 013#00BA000000201EFC
(0000000010.933700) vcan0 014#FBFA58
(0000000010.940600) vcan0 2D0#0010000000100000
(0000000010.942600) vcan0 2D2#0010000000100000
(0000000010.961100) vcan0 2D0#0010000000100000
(0000000010.963300) vcan0 2D2#0010000000100000
(0000000010.965400) vcan0 010#0DFB0000FFF6F555
(0000000010.970600) vcan0 011#03E8FFF605680000
(0000000010.975800) vcan0 012#FFF700FAFEEFFFFF
(0000000010.981000) vcan0 013#00BA000000201EFC
(0000000010.982600) vcan0 2D0#0010000000100000
(0000000010.985200) vcan0 2D2#0010000000100000
(0000000010.986300) vcan0 014#FBFA58
(0000000011.003200) vcan0 2D0#0010000000100000
(0000000011.006200) vcan0 2D2#0010000000100000
(0000000011.017800) vcan0 010#0DFB0000FFF6F555
(0000000011.023000) vcan0 011#03E8FFF605680000
(0000000011.024600) vcan0 2D0#0010000000100000
(0000000011.027400) vcan0 2D2#0010000000100000
(0000000011.028200) vcan0 012#FFF700FAFEEFFFFF
(0000000011.033500) vcan0 013#00BA000000201EFC
(0000000011.038700) vcan0 014#FBFA58
(0000000011.044300) vcan0 2D0#0010000000100000
(0000000011.046100) vcan0 2D2#0010000000100000
(0000000011.067500) vcan0 2D0#0010000000100000
(0000000011.070200) vcan0 010#0DFB0000FFF6F555
(0000000011.072800) vcan0 2D2#0010000000100000
(0000000011.075600) vcan0 011#03E8FFF605680000
(0000000011.080700) vcan0 012#FFF700FAFEEFFFFF
(0000000011.085900) vcan0 013#00BA000000201EFC
(0000000011.091100) vcan0 014#FBFA58
(0000000011.092500) vcan0 2D0#0010000000100000
(0000000011.094500) vcan0 2D2#0010000000100000
(0000000011.113400) vcan0 2D0#0010000000100000
(0000000011.115500) vcan0 2D2#0010000000100000
(0000000011.122700) vcan0 010#0DFB0000FFF6F555
(0000000011.127900) vcan0 011#03E8FFF605690000
(0000000011.133200) vcan0 012#FFF700FAFEEFFFFF
(0000000011.134000) vcan0 2D0#0010000000100000
(0000000011.135900) vcan0 2D2#0010000000100000
(0000000011.138500) vcan0 013#00BA000000201EFC
(0000000011.143600) vcan0 014#FBFA59
(0000000011.155200) vcan0 2D0#0010000000100000
(0000000011.158200) vcan0 2D2#0010000000100000
(0000000011.175200) vcan0 010#0DFB0000FFF6F555
(0000000011.175800) vcan0 2D0#0010000000100000
(0000000011.178800) vcan0 2D2#0010000000100000
(0000000011.180500) vcan0 011#03E8FFF605690000
(0000000011.185700) vcan0 012#FFF700FAFEEFFFFF
(0000000011.190900) vcan0 013#00BA000000201EFC
(0000000011.196200) vcan0 014#FBFA59
(0000000011.197100) vcan0 2D0#0010000000100000
(0000000011.200100) vcan0 2D2#0010000000100000
(0000000011.218100) vcan0 2D0#0010000000100000
(0000000011.221200) vcan0 2D2#0010000000100000
(0000000011.227700) vcan0 010#0F8C0000FFF6F555
(0000000011.233000) vcan0 011#03E8FFF605680000
(0000000011.238200) vcan0 012#FFF700FAFEEFFFFF
(0000000011.238700) vcan0 2D0#0010000000100000
(0000000011.241800) vcan0 2D2#0010000000100000
(0000000011.243500) vcan0 013#00CA000000251EFC
(0000000011.248600) vcan0 014#FBFA00
(0000000011.260300) vcan0 2D0#0010000000100000
(0000000011.263400) vcan0 2D2#0010000000100000
(0000000011.280200) vcan0 010#0F8C0000FFF6F555
(0000000011.281600) vcan0 2D0#0010000000100000
(0000000011.284600) vcan0 2D2#0010000000100000
(0000000011.285400) vcan0 011#03E8FFF605680000
(0000000011.290700) vcan0 012#FFF700FAFEEFFFFF
(0000000011.295900) vcan0 013#00CA000000251EFC
(0000000011.301100) vcan0 014#FBFA00
(0000000011.303200) vcan0 2D0#0010000000100000
(0000000011.306000) vcan0 2D2#0010000000100000
(0000000011.323600) vcan0 2D0#0010000000100000
(0000000011.327400) vcan0 2D2#0010000000100000
(0000000011.332700) vcan0 010#0F8C0000FFF6F555
(0000000011.337800) vcan0 011#03E8FFF605680000
(0000000011.343200) vcan0 012#FFF700FAFEEFFFFF
(0000000011.345100) vcan0 2D0#0010000000100000
(0000000011.348000) vcan0 2D2#0010000000100000
(0000000011.348400) vcan0 013#00CA000000251EFC
(0000000011.353700) vcan0 014#FBFA00
(0000000011.366700) vcan0 2D0#0010000000100000
(0000000011.369700) vcan0 2D2#0010000000100000
(0000000011.385100) vcan0 010#0F8C0000FFF6F555
(0000000011.390400) vcan0 011#03E8FFF605680000
(0000000011.394900) vcan0 2D0#0010000000100000
(0000000011.395600) vcan0 012#FFF700FAFEEFFFFF
(0000000011.397500) vcan0 2D2#0010000000100000
(0000000011.400800) vcan0 013#00CA000000251EFC
(0000000011.406100) vcan0 014#FBFA00
(0000000011.416900) vcan0 2D0#0010000000100000
(0000000011.419100) vcan0 2D2#0010000000100000
(0000000011.437600) vcan0 010#0F8C0000FFF6F555
(0000000011.438300) vcan0 2D0#0010000000100000
(0000000011.440300) vcan0 2D2#0010000000100000
(0000000011.442900) vcan0 011#03E8FFF605680000
(0000000011.448100) vcan0 012#FFF700FAFEEFFFFF
(0000000011.453400) vcan0 013#00CA000000251EFC
(0000000011.458500) vcan0 014#FBFA00
(0000000011.459000) vcan0 2D0#0010000000100000
(0000000011.460900) vcan0 2D2#0010000000100000
(0000000011.480300) vcan0 2D0#0010000000100000
(0000000011.482300) vcan0 2D2#0010000000100000
(0000000011.490100) vcan0 010#0F8C0000FFF6F555
(0000000011.495400) vcan0 011#03E8FFF605680000
(0000000011.500600) vcan0 012#FFF700FAFEEFFFFF
(0000000011.500900) vcan0 2D0#0010000000100000
(0000000011.502800) vcan0 2D2#0010000000100000
(0000000011.505800) vcan0 013#00CA000000251EFC
(0000000011.511000) vcan0 014#FBFA00
(0000000011.522300) vcan0 2D0#0010000000100000
(0000000011.524200) vcan0 2D2#0010000000100000
(0000000011.542500) vcan0 010#0F8C0000FFF6F555
(0000000011.544300) vcan0 2D0#0010000000100000
(0000000011.546200) vcan0 2D2#0010000000100000
(0000000011.547800) vcan0 011#03E8FFF605690000
(0000000011.553000) vcan0 012#FFF700FAFEEFFFFF
(0000000011.558300) vcan0 013#00CA000000251EFC
(0000000011.563500) vcan0 014#FBFA01
(0000000011.566500) vcan0 2D0#0010000000100000
(0000000011.569900) vcan0 2D2#0010000000100000
(0000000011.591200) vcan0 2D0#0010000000100000
(0000000011.593000) vcan0 2D2#0010000000100000
(0000000011.595000) vcan0 010#05770000FFF6F555
(0000000011.600300) vcan0 011#03E8FFF605680000
(0000000011.605500) vcan0 012#FFF700FAFEEFFFFF
(0000000011.610700) vcan0 013#00BA000000201EFC
(0000000011.611900) vcan0 2D0#0010000000100000
(0000000011.613800) vcan0 2D2#0010000000100000
(0000000011.615900) vcan0 014#FBFACC
(0000000011.634300) vcan0 2D0#0010000000100000
