(1735329625.329586) can0 039#002A
(1735329625.332184) can0 136#000200000000002A
(1735329625.332204) can0 13A#44003100000000A4
(1735329625.332546) can0 13F#0000000000000023
(1735329625.332667) can0 158#0000000000000028
(1735329625.333012) can0 17C#0000000010000021
(1735329625.333143) can0 1DC#02000039
(1735329625.334104) can0 164#2400006917000000
(1735329625.337670) can0 18E#00007A
(1735329625.342067) can0 136#0002000000000039
(1735329625.342217) can0 13A#44003100000000B3
(1735329625.342476) can0 13F#0000000000000032
(1735329625.342727) can0 158#0000000000000037
(1735329625.343005) can0 17C#0000000010000030
(1735329625.343238) can0 1A4#0000000000000036
(1735329625.343466) can0 1B0#00000000000075
(1735329625.343731) can0 1D0#000000000000000A
(1735329625.344036) can0 294#048C00026445002A
(1735329625.344272) can0 164#240000691700001F
(1735329625.347868) can0 18E#00004D
(1735329625.350586) can0 039#0039
(1735329625.352006) can0 136#000200000000000C
(1735329625.352252) can0 13A#4400310000000086
(1735329625.352510) can0 13F#0000000000000005
(1735329625.352766) can0 158#000000000000000A
(1735329625.353012) can0 17C#0000000010000003
(1735329625.353217) can0 1DC#0200000C
(1735329625.353343) can0 320#000003
(1735329625.353549) can0 324#674D055000000E09
(1735329625.353737) can0 37C#0000000002
(1735329625.354090) can0 164#240000691700002E
(1735329625.357848) can0 18E#00005C
(1735329625.362011) can0 136#000200000000001B
(1735329625.362247) can0 13A#4400310000000095
(1735329625.362484) can0 13F#0000000000000014
(1735329625.362733) can0 158#0000000000000019
(1735329625.362975) can0 17C#0000000010000012
(1735329625.363217) can0 1A4#0000000000000009
(1735329625.363478) can0 1B0#00000000000048
(1735329625.363566) can0 039#000C
(1735329625.363859) can0 1D0#000000000000000A
(1735329625.364277) can0 164#240000691700003D
(1735329625.367860) can0 18E#00006B
(1735329625.372195) can0 136#000200000000002A
(1735329625.372209) can0 13A#44003100000000A4
(1735329625.372472) can0 13F#0000000000000023
(1735329625.372741) can0 158#0000000000000028
(1735329625.372987) can0 17C#0000000010000021
(1735329625.373224) can0 1DC#0200001B
(1735329625.374119) can0 164#2400006917000000
(1735329625.378043) can0 18E#00007A
(1735329625.378434) can0 039#001B
(1735329625.382271) can0 136#0002000000000039
(1735329625.382285) can0 13A#44003100000000B3
(1735329625.382478) can0 13F#0000000000000032
(1735329625.382733) can0 158#0000000000000037
(1735329625.383002) can0 17C#0000000010000030
(1735329625.383236) can0 1A4#0000000000000018
(1735329625.383472) can0 1B0#00000000000057
(1735329625.383739) can0 1D0#000000000000000A
(1735329625.384157) can0 294#048C000264450039
(1735329625.384328) can0 164#240000691700001F
(1735329625.388167) can0 18E#00004D
(1735329625.392266) can0 136#000200000000000C
(1735329625.392280) can0 039#002A
(1735329625.392316) can0 13A#4400310000000086
(1735329625.392657) can0 13F#0000000000000005
(1735329625.392882) can0 158#000000000000000A
(1735329625.393115) can0 17C#0000000010000003
(1735329625.393310) can0 1DC#0200002A
(1735329625.394146) can0 164#240000691700002E
(1735329625.398089) can0 18E#00005C
(1735329625.402317) can0 136#000200000000001B
(1735329625.402332) can0 13A#4400310000000095
(1735329625.402481) can0 13F#0000000000000014
(1735329625.402738) can0 158#0000000000000019
(1735329625.402983) can0 17C#0000000010000012
(1735329625.403221) can0 1A4#0000000000000027
(1735329625.403481) can0 1B0#00000000000066
(1735329625.403720) can0 1D0#000000000000000A
(1735329625.404176) can0 164#240000691700003D
(1735329625.404558) can0 039#0039
(1735329625.408208) can0 18E#00006B
(1735329625.412012) can0 136#000200000000002A
(1735329625.412220) can0 13A#44003100000000A4
(1735329625.412475) can0 13F#0000000000000023
(1735329625.412754) can0 158#0000000000000028
(1735329625.412959) can0 17C#0000000010000021
(1735329625.413141) can0 1DC#02000039
(1735329625.413272) can0 305#8E19
(1735329625.414116) can0 164#2400006917000000
(1735329625.418251) can0 18E#00007A
(1735329625.419703) can0 039#000C
(1735329625.422294) can0 136#0002000000000039
(1735329625.422308) can0 13A#44003100000000B3
(1735329625.422484) can0 13F#0000000000000032
(1735329625.422701) can0 158#0000000000000037
(1735329625.422996) can0 17C#0000000010000030
(1735329625.423187) can0 1A4#0000000000000036
(1735329625.423483) can0 309#00000000000000B1
(1735329625.423671) can0 1B0#00000000000075
(1735329625.423971) can0 1D0#000000000000000A
(1735329625.424232) can0 294#048C00026445000C
(1735329625.424457) can0 164#240000691700001F
(1735329625.427890) can0 18E#00004D
(1735329625.431973) can0 136#000200000000000C
(1735329625.432203) can0 13A#4400310000000086
(1735329625.432448) can0 13F#0000000000000005
(1735329625.432693) can0 158#000000000000000A
(1735329625.432943) can0 17C#0000000010000003
(1735329625.433154) can0 1DC#0200000C
(1735329625.434258) can0 164#240000691700002E
(1735329625.434379) can0 039#001B
(1735329625.437975) can0 18E#00005C
(1735329625.442030) can0 136#000200000000001B
(1735329625.442232) can0 13A#4400310000000095
(1735329625.442488) can0 13F#0000000000000014
(1735329625.442757) can0 158#0000000000000019
(1735329625.442972) can0 17C#0000000010000012
(1735329625.443228) can0 1A4#0000000000000009
(1735329625.443432) can0 1B0#00000000000048
(1735329625.443728) can0 1D0#000000000000000A
(1735329625.444035) can0 164#240000691700003D
(1735329625.447922) can0 18E#00006B
(1735329625.452073) can0 136#000200000000002A
(1735329625.452262) can0 13A#44003100000000A4
(1735329625.452492) can0 13F#0000000000000023
(1735329625.452767) can0 158#0000000000000028
(1735329625.453002) can0 17C#0000000010000021
(1735329625.453233) can0 1DC#0200001B
(1735329625.453365) can0 320#000012
(1735329625.453531) can0 324#674D056400000E13
(1735329625.453746) can0 37C#0000000011
(1735329625.453989) can0 40C#0231353336483732
(1735329625.454133) can0 039#002A
(1735329625.454369) can0 164#2400006917000000
(1735329625.454460) can0 454#32F53F
(1735329625.454757) can0 465#8EC847532F3431
(1735329625.458134) can0 18E#00007A
(1735329625.462358) can0 136#0002000000000039
(1735329625.462372) can0 13A#44003100000000B3
(1735329625.462447) can0 13F#0000000000000032
(1735329625.462727) can0 158#0000000000000037
(1735329625.462970) can0 17C#0000000010000030
(1735329625.463236) can0 1A4#0000000000000018
(1735329625.463495) can0 1B0#00000000000057
(1735329625.463741) can0 1D0#000000000000000A
(1735329625.464258) can0 294#048C00026445001B
(1735329625.464301) can0 164#240000691700001F
(1735329625.467753) can0 039#0039
(1735329625.467835) can0 18E#00004D
(1735329625.472205) can0 136#000200000000000C
(1735329625.472220) can0 13A#4400310000000086
(1735329625.472509) can0 13F#0000000000000005
(1735329625.472769) can0 158#000000000000000A
(1735329625.472980) can0 17C#0000000010000003
(1735329625.473238) can0 1DC#0200002A
(1735329625.474167) can0 164#240000691700002E
(1735329625.477974) can0 18E#00005C
(1735329625.481643) can0 039#000C
(1735329625.482005) can0 136#000200000000001B
(1735329625.482234) can0 13A#4400310000000095
(1735329625.482465) can0 13F#0000000000000014
(1735329625.482725) can0 158#0000000000000019
(1735329625.482969) can0 17C#0000000010000012
(1735329625.483235) can0 1A4#0000000000000027
(1735329625.483461) can0 1B0#00000000000066
(1735329625.483846) can0 1D0#000000000000000A
(1735329625.484143) can0 164#240000691700003D
(1735329625.487923) can0 18E#00006B
(1735329625.492361) can0 136#000200000000002A
(1735329625.492401) can0 13A#44003100000000A4
(1735329625.492465) can0 13F#0000000000000023
(1735329625.492678) can0 158#0000000000000028
(1735329625.493023) can0 17C#0000000010000021
(1735329625.493152) can0 1DC#02000039
(1735329625.494245) can0 164#2400006917000000
(1735329625.496731) can0 039#001B
(1735329625.498092) can0 18E#00007A
(1735329625.502041) can0 136#0002000000000039
(1735329625.502232) can0 13A#44003100000000B3
(1735329625.502486) can0 13F#0000000000000032
(1735329625.502725) can0 158#0000000000000037
(1735329625.502983) can0 17C#0000000010000030
(1735329625.503240) can0 1A4#0000000000000036
(1735329625.503460) can0 1B0#00000000000075
(1735329625.503715) can0 1D0#000000000000000A
(1735329625.504533) can0 294#048C00026445002A
(1735329625.504544) can0 164#240000691700001F
(1735329625.507978) can0 18E#00004D
(1735329625.512188) can0 136#000200000000000C
(1735329625.512201) can0 13A#4400310000000086
(1735329625.512490) can0 13F#0000000000000005
(1735329625.512751) can0 158#000000000000000A
(1735329625.513005) can0 17C#0000000010000003
(1735329625.513149) can0 1DC#0200000C
(1735329625.514199) can0 164#240000691700002E
(1735329625.516897) can0 039#002A
(1735329625.517516) can0 305#8E28
(1735329625.518002) can0 18E#00005C
(1735329625.522327) can0 136#000200000000001B
(1735329625.522342) can0 13A#4400310000000095
(1735329625.522490) can0 13F#0000000000000014
(1735329625.522733) can0 158#0000000000000019
(1735329625.522981) can0 17C#0000000010000012
(1735329625.523239) can0 1A4#0000000000000009
(1735329625.523460) can0 309#0000000000000084
(1735329625.523722) can0 1B0#00000000000048
(1735329625.523945) can0 1D0#000000000000000A
(1735329625.524247) can0 164#240000691700003D
(1735329625.527880) can0 18E#00006B
(1735329625.531264) can0 039#0039
(1735329625.532184) can0 136#000200000000002A
(1735329625.532195) can0 13A#44003100000000A4
(1735329625.532541) can0 13F#0000000000000023
(1735329625.532737) can0 158#0000000000000028
(1735329625.532980) can0 17C#0000000010000021
(1735329625.533166) can0 1DC#0200001B
(1735329625.534199) can0 164#2400006917000000
(1735329625.538060) can0 18E#00007A
(1735329625.542329) can0 136#0002000000000039
(1735329625.542344) can0 13A#44003100000000B3
(1735329625.542493) can0 13F#0000000000000032
(1735329625.542731) can0 158#0000000000000037
(1735329625.542986) can0 17C#0000000010000030
(1735329625.543245) can0 1A4#0000000000000018
(1735329625.543496) can0 1B0#00000000000057
(1735329625.543765) can0 1D0#000000000000000A
(1735329625.544252) can0 294#048C000264450039
(1735329625.544321) can0 164#240000691700001F
(1735329625.545427) can0 039#000C
(1735329625.548185) can0 18E#00004D
(1735329625.552263) can0 136#000200000000000C
(1735329625.552278) can0 13A#4400310000000086
(1735329625.552499) can0 13F#0000000000000005
(1735329625.552749) can0 158#000000000000000A
(1735329625.553026) can0 17C#0000000010000003
(1735329625.553166) can0 1DC#0200002A
(1735329625.553322) can0 320#000021
(1735329625.553550) can0 324#674D057800000E2D
(1735329625.553753) can0 37C#0000000020
(1735329625.554135) can0 164#240000691700002E
(1735329625.558167) can0 18E#00005C
(1735329625.559569) can0 039#001B
(1735329625.562314) can0 136#000200000000001B
(1735329625.562329) can0 13A#4400310000000095
(1735329625.562421) can0 13F#0000000000000014
(1735329625.562684) can0 158#0000000000000019
(1735329625.563029) can0 17C#0000000010000012
(1735329625.563262) can0 1A4#0000000000000027
(1735329625.563443) can0 1B0#00000000000066
(1735329625.563740) can0 1D0#000000000000000A
(1735329625.564196) can0 164#240000691700003D
(1735329625.567968) can0 18E#00006B
(1735329625.572050) can0 136#000200000000002A
(1735329625.572246) can0 13A#44003100000000A4
(1735329625.572475) can0 13F#0000000000000023
(1735329625.572626) can0 039#002A
(1735329625.572868) can0 158#0000000000000028
(1735329625.573123) can0 17C#0000000010000021
(1735329625.573295) can0 1DC#02000039
(1735329625.574599) can0 164#2400006917000000
(1735329625.578095) can0 18E#00007A
(1735329625.582050) can0 136#0002000000000039
(1735329625.582248) can0 13A#44003100000000B3
(1735329625.582501) can0 13F#0000000000000032
(1735329625.582751) can0 158#0000000000000037
(1735329625.582989) can0 17C#0000000010000030
(1735329625.583255) can0 1A4#0000000000000036
(1735329625.583468) can0 1B0#00000000000075
(1735329625.583732) can0 1D0#000000000000000A
(1735329625.584054) can0 294#048C00026445000C
(1735329625.584391) can0 164#240000691700001F
(1735329625.586745) can0 039#0039
(1735329625.587975) can0 18E#00004D
(1735329625.592195) can0 136#000200000000000C
(1735329625.592210) can0 13A#4400310000000086
(1735329625.592478) can0 13F#0000000000000005
(1735329625.592753) can0 158#000000000000000A
(1735329625.592986) can0 17C#0000000010000003
(1735329625.593146) can0 1DC#0200000C
(1735329625.594173) can0 164#240000691700002E
(1735329625.598160) can0 18E#00005C
(1735329625.600604) can0 039#000C
(1735329625.602241) can0 136#000200000000001B
(1735329625.602255) can0 13A#4400310000000095
(1735329625.602480) can0 13F#0000000000000014
(1735329625.602739) can0 158#0000000000000019
(1735329625.603004) can0 17C#0000000010000012
(1735329625.603248) can0 1A4#0000000000000009
(1735329625.603457) can0 1B0#00000000000048
(1735329625.603764) can0 1D0#000000000000000A
(1735329625.604137) can0 164#240000691700003D
(1735329625.608255) can0 18E#00006B
(1735329625.612255) can0 136#000200000000002A
(1735329625.612270) can0 13A#44003100000000A4
(1735329625.612485) can0 13F#0000000000000023
(1735329625.612750) can0 158#0000000000000028
(1735329625.613001) can0 17C#0000000010000021
(1735329625.613151) can0 1DC#0200001B
(1735329625.614190) can0 164#2400006917000000
(1735329625.618116) can0 18E#00007A
(1735329625.621254) can0 428#06010000EAEB11
(1735329625.621269) can0 42A#0017
(1735329625.621479) can0 039#001B
(1735329625.622129) can0 136#0002000000000039
(1735329625.622211) can0 13A#44003100000000B3
(1735329625.622501) can0 13F#0000000000000032
(1735329625.622742) can0 158#0000000000000037
(1735329625.622995) can0 17C#0000000010000030
(1735329625.623257) can0 1A4#0000000000000018
(1735329625.623305) can0 305#8E37
(1735329625.623716) can0 1B0#00000000000057
(1735329625.623799) can0 309#0000000000000093
(1735329625.624223) can0 1D0#000000000000000A
(1735329625.624291) can0 294#048C00026445001B
(1735329625.624558) can0 164#240000691700001F
(1735329625.628236) can0 18E#00004D
(1735329625.631966) can0 136#000200000000000C
(1735329625.632206) can0 13A#4400310000000086
(1735329625.632531) can0 13F#0000000000000005
(1735329625.632741) can0 158#000000000000000A
(1735329625.632998) can0 17C#0000000010000003
(1735329625.633156) can0 1DC#0200002A
(1735329625.634173) can0 164#240000691700002E
(1735329625.637979) can0 18E#00005C
(1735329625.639732) can0 039#002A
(1735329625.642210) can0 136#000200000000001B
(1735329625.642224) can0 13A#4400310000000095
(1735329625.642477) can0 13F#0000000000000014
(1735329625.642770) can0 158#0000000000000019
(1735329625.642939) can0 17C#0000000010000012
(1735329625.643234) can0 1A4#0000000000000027
(1735329625.643413) can0 1B0#00000000000066
(1735329625.643735) can0 1D0#000000000000000A
(1735329625.644585) can0 164#240000691700003D
(1735329625.648272) can0 18E#00006B
(1735329625.652371) can0 136#000200000000002A
(1735329625.652386) can0 13A#44003100000000A4
(1735329625.652528) can0 13F#0000000000000023
(1735329625.652746) can0 158#0000000000000028
(1735329625.652995) can0 17C#0000000010000021
(1735329625.653149) can0 1DC#02000039
(1735329625.653301) can0 320#000030
(1735329625.653556) can0 324#674D058C00000E37
(1735329625.653735) can0 37C#000000003F
(1735329625.654277) can0 164#2400006917000000
(1735329625.658186) can0 18E#00007A
(1735329625.658200) can0 039#0039
(1735329625.662234) can0 136#0002000000000039
(1735329625.662248) can0 13A#44003100000000B3
(1735329625.662488) can0 13F#0000000000000032
(1735329625.662767) can0 158#0000000000000037
(1735329625.662976) can0 17C#0000000010000030
(1735329625.663265) can0 1A4#0000000000000036
(1735329625.663465) can0 1B0#00000000000075
(1735329625.663755) can0 1D0#000000000000000A
(1735329625.664184) can0 294#048C00026445002A
(1735329625.664357) can0 164#240000691700001F
(1735329625.668217) can0 18E#00004D
(1735329625.672367) can0 136#000200000000000C
(1735329625.672382) can0 13A#4400310000000086
(1735329625.672443) can0 13F#0000000000000005
(1735329625.672614) can0 039#000C
(1735329625.672871) can0 158#000000000000000A
(1735329625.673111) can0 17C#0000000010000003
(1735329625.673289) can0 1DC#0200000C
(1735329625.674244) can0 164#240000691700002E
(1735329625.678258) can0 18E#00005C
(1735329625.682262) can0 136#000200000000001B
(1735329625.682276) can0 13A#4400310000000095
(1735329625.682477) can0 13F#0000000000000014
(1735329625.682738) can0 158#0000000000000019
(1735329625.682985) can0 17C#0000000010000012
(1735329625.683266) can0 1A4#0000000000000009
(1735329625.683467) can0 1B0#00000000000048
(1735329625.683726) can0 1D0#000000000000000A
(1735329625.684150) can0 164#240000691700003D
(1735329625.686741) can0 039#001B
(1735329625.688045) can0 18E#00006B
(1735329625.692306) can0 136#000200000000002A
(1735329625.692321) can0 13A#44003100000000A4
(1735329625.692494) can0 13F#0000000000000023
(1735329625.692724) can0 158#0000000000000028
(1735329625.692984) can0 17C#0000000010000021
(1735329625.693134) can0 1DC#0200001B
(1735329625.694356) can0 164#2400006917000000
(1735329625.698270) can0 18E#00007A
(1735329625.699824) can0 039#002A
(1735329625.701996) can0 136#0002000000000039
(1735329625.702261) can0 13A#44003100000000B3
(1735329625.702497) can0 13F#0000000000000032
(1735329625.702739) can0 158#0000000000000037
(1735329625.702990) can0 17C#0000000010000030
(1735329625.703269) can0 1A4#0000000000000018
(1735329625.703474) can0 1B0#00000000000057
(1735329625.703741) can0 1D0#000000000000000A
(1735329625.704190) can0 294#048C000264450039
(1735329625.704362) can0 164#240000691700001F
(1735329625.708156) can0 18E#00004D
(1735329625.712154) can0 136#000200000000000C
(1735329625.712222) can0 13A#4400310000000086
(1735329625.712501) can0 13F#0000000000000005
(1735329625.712743) can0 158#000000000000000A
(1735329625.712937) can0 17C#0000000010000003
(1735329625.713130) can0 1DC#0200002A
(1735329625.713488) can0 039#0039
(1735329625.714353) can0 164#240000691700002E
(1735329625.718069) can0 18E#00005C
(1735329625.722041) can0 136#000200000000001B
(1735329625.722259) can0 13A#4400310000000095
(1735329625.722498) can0 13F#0000000000000014
(1735329625.722727) can0 158#0000000000000019
(1735329625.722981) can0 17C#0000000010000012
(1735329625.723265) can0 1A4#0000000000000027
(1735329625.723465) can0 1B0#00000000000066
(1735329625.723720) can0 1D0#000000000000000A
(1735329625.724173) can0 309#00000000000000A2
(1735329625.724311) can0 164#240000691700003D
(1735329625.728013) can0 18E#00006B
(1735329625.728049) can0 039#000C
(1735329625.728596) can0 305#8E0A
(1735329625.732242) can0 136#000200000000002A
(1735329625.732256) can0 13A#44003100000000A4
(1735329625.732496) can0 13F#0000000000000023
(1735329625.732724) can0 158#0000000000000028
(1735329625.732981) can0 17C#0000000010000021
(1735329625.733156) can0 1DC#02000039
(1735329625.734199) can0 164#2400006917000000
(1735329625.738186) can0 18E#00007A
(1735329625.742350) can0 136#0002000000000039
(1735329625.742364) can0 13A#44003100000000B3
(1735329625.742425) can0 13F#0000000000000032
(1735329625.742629) can0 039#001B
(1735329625.742860) can0 158#0000000000000037
(1735329625.743118) can0 17C#0000000010000030
(1735329625.743377) can0 1A4#0000000000000036
(1735329625.743604) can0 1B0#00000000000075
(1735329625.743870) can0 1D0#000000000000000A
(1735329625.744140) can0 294#048C00026445000C
(1735329625.744367) can0 164#240000691700001F
(1735329625.748273) can0 18E#00004D
(1735329625.752352) can0 136#000200000000000C
(1735329625.752367) can0 13A#4400310000000086
(1735329625.752500) can0 13F#0000000000000005
(1735329625.752776) can0 158#000000000000000A
(1735329625.753005) can0 17C#0000000010000003
(1735329625.753185) can0 1DC#0200000C
(1735329625.753315) can0 320#000003
(1735329625.753690) can0 324#674D05A000000E04
(1735329625.753732) can0 37C#0000000002
(1735329625.754005) can0 40C#0330393434330002
(1735329625.754270) can0 164#240000691700002E
(1735329625.754390) can0 454#32F502
(1735329625.754605) can0 465#8EC847532F3404
(1735329625.756812) can0 039#002A
(1735329625.758169) can0 18E#00005C
(1735329625.762298) can0 136#000200000000001B
(1735329625.762312) can0 13A#4400310000000095
(1735329625.762476) can0 13F#0000000000000014
(1735329625.762733) can0 158#0000000000000019
(1735329625.762980) can0 17C#0000000010000012
(1735329625.763279) can0 1A4#0000000000000009
(1735329625.763452) can0 1B0#00000000000048
(1735329625.763849) can0 1D0#000000000000000A
(1735329625.764137) can0 164#240000691700003D
(1735329625.768285) can0 18E#00006B
(1735329625.771364) can0 039#0039
(1735329625.772192) can0 136#000200000000002A
(1735329625.772221) can0 13A#44003100000000A4
(1735329625.772468) can0 13F#0000000000000023
(1735329625.772739) can0 158#0000000000000028
(1735329625.772981) can0 17C#0000000010000021
(1735329625.773132) can0 1DC#0200001B
(1735329625.774191) can0 164#2400006917000000
(1735329625.778189) can0 18E#00007A
(1735329625.782192) can0 136#0002000000000039
(1735329625.782233) can0 13A#44003100000000B3
(1735329625.782475) can0 13F#0000000000000032
(1735329625.782676) can0 158#0000000000000037
(1735329625.782952) can0 17C#0000000010000030
(1735329625.783272) can0 1A4#0000000000000018
(1735329625.783481) can0 1B0#00000000000057
(1735329625.783743) can0 1D0#000000000000000A
(1735329625.783940) can0 039#000C
(1735329625.784506) can0 294#048C00026445001B
(1735329625.784545) can0 164#240000691700001F
(1735329625.788179) can0 18E#00004D
(1735329625.792348) can0 136#000200000000000C
(1735329625.792362) can0 13A#4400310000000086
(1735329625.792439) can0 13F#0000000000000005
(1735329625.792740) can0 158#000000000000000A
(1735329625.792986) can0 17C#0000000010000003
(1735329625.793174) can0 1DC#0200002A
(1735329625.794112) can0 164#240000691700002E
(1735329625.797605) can0 039#001B
(1735329625.797932) can0 18E#00005C
(1735329625.802051) can0 136#000200000000001B
(1735329625.802274) can0 13A#4400310000000095
(1735329625.802481) can0 13F#0000000000000014
(1735329625.802755) can0 158#0000000000000019
(1735329625.802992) can0 17C#0000000010000012
(1735329625.803285) can0 1A4#0000000000000027
(1735329625.803459) can0 1B0#00000000000066
(1735329625.803736) can0 1D0#000000000000000A
(1735329625.804229) can0 164#240000691700003D
(1735329625.808237) can0 18E#00006B
(1735329625.811876) can0 039#002A
(1735329625.812026) can0 136#000200000000002A
(1735329625.812398) can0 13A#44003100000000A4
(1735329625.812441) can0 13F#0000000000000023
(1735329625.812735) can0 158#0000000000000028
(1735329625.812975) can0 17C#0000000010000021
(1735329625.813154) can0 1DC#02000039
(1735329625.814121) can0 164#2400006917000000
(1735329625.818216) can0 18E#00007A
(1735329625.822061) can0 136#0002000000000039
(1735329625.822278) can0 13A#44003100000000B3
(1735329625.822485) can0 13F#0000000000000032
(1735329625.822747) can0 158#0000000000000037
(1735329625.822989) can0 17C#0000000010000030
(1735329625.823284) can0 1A4#0000000000000036
(1735329625.823495) can0 1B0#00000000000075
(1735329625.823743) can0 1D0#000000000000000A
(1735329625.824144) can0 309#00000000000000B1
(1735329625.824405) can0 294#048C00026445002A
(1735329625.824477) can0 039#0039
(1735329625.824785) can0 164#240000691700001F
(1735329625.828172) can0 18E#00004D
(1735329625.832211) can0 136#000200000000000C
(1735329625.832253) can0 13A#4400310000000086
(1735329625.832480) can0 13F#0000000000000005
(1735329625.832736) can0 158#000000000000000A
(1735329625.832990) can0 17C#0000000010000003
(1735329625.833146) can0 1DC#0200000C
(1735329625.833274) can0 305#8E19
(1735329625.834191) can0 164#240000691700002E
(1735329625.838037) can0 18E#00005C
(1735329625.839731) can0 039#000C
(1735329625.842256) can0 136#000200000000001B
(1735329625.842270) can0 13A#4400310000000095
(1735329625.842497) can0 13F#0000000000000014
(1735329625.842739) can0 158#0000000000000019
(1735329625.842978) can0 17C#0000000010000012
(1735329625.843288) can0 1A4#0000000000000009
(1735329625.843463) can0 1B0#00000000000048
(1735329625.843715) can0 1D0#000000000000000A
(1735329625.844212) can0 164#240000691700003D
(1735329625.848010) can0 18E#00006B
(1735329625.852059) can0 136#000200000000002A
(1735329625.852252) can0 13A#44003100000000A4
(1735329625.852432) can0 13F#0000000000000023
(1735329625.852698) can0 158#0000000000000028
(1735329625.853006) can0 17C#0000000010000021
(1735329625.853148) can0 1DC#0200001B
(1735329625.853301) can0 320#000012
(1735329625.853550) can0 324#674D05B400000E1E
(1735329625.853686) can0 039#001B
(1735329625.853814) can0 37C#0000000011
(1735329625.854401) can0 164#2400006917000000
(1735329625.858264) can0 18E#00007A
(1735329625.862366) can0 136#0002000000000039
(1735329625.862380) can0 13A#44003100000000B3
(1735329625.862442) can0 13F#0000000000000032
(1735329625.862724) can0 158#0000000000000037
(1735329625.862984) can0 17C#0000000010000030
(1735329625.863246) can0 1A4#0000000000000018
(1735329625.863489) can0 1B0#00000000000057
(1735329625.863775) can0 1D0#000000000000000A
(1735329625.864117) can0 294#048C000264450039
(1735329625.864380) can0 164#240000691700001F
(1735329625.867615) can0 039#002A
(1735329625.867941) can0 18E#00004D
(1735329625.872206) can0 136#000200000000000C
(1735329625.872247) can0 13A#4400310000000086
(1735329625.872525) can0 13F#0000000000000005
(1735329625.872768) can0 158#000000000000000A
(1735329625.872999) can0 17C#0000000010000003
(1735329625.873156) can0 1DC#0200002A
(1735329625.874222) can0 164#240000691700002E
(1735329625.878177) can0 18E#00005C
(1735329625.881739) can0 039#0039
(1735329625.881991) can0 136#000200000000001B
(1735329625.882294) can0 13A#4400310000000095
(1735329625.882470) can0 13F#0000000000000014
(1735329625.882839) can0 158#0000000000000019
(1735329625.882989) can0 17C#0000000010000012
(1735329625.883285) can0 1A4#0000000000000027
(1735329625.883476) can0 1B0#00000000000066
(1735329625.883756) can0 1D0#000000000000000A
(1735329625.884238) can0 164#240000691700003D
(1735329625.887910) can0 18E#00006B
(1735329625.892368) can0 136#000200000000002A
(1735329625.892382) can0 13A#44003100000000A4
(1735329625.892421) can0 13F#0000000000000023
(1735329625.892732) can0 158#0000000000000028
(1735329625.892995) can0 17C#0000000010000021
(1735329625.893159) can0 1DC#02000039
(1735329625.894260) can0 164#2400006917000000
(1735329625.895140) can0 039#000C
(1735329625.898288) can0 18E#00007A
(1735329625.902156) can0 136#0002000000000039
(1735329625.902306) can0 13A#44003100000000B3
(1735329625.902439) can0 13F#0000000000000032
(1735329625.902791) can0 158#0000000000000037
(1735329625.902988) can0 17C#0000000010000030
(1735329625.903300) can0 1A4#0000000000000036
(1735329625.903458) can0 1B0#00000000000075
(1735329625.903718) can0 1D0#000000000000000A
(1735329625.904214) can0 294#048C00026445000C
(1735329625.904368) can0 164#240000691700001F
(1735329625.908130) can0 18E#00004D
(1735329625.908144) can0 039#001B
(1735329625.912084) can0 136#000200000000000C
(1735329625.912290) can0 13A#4400310000000086
(1735329625.912494) can0 13F#0000000000000005
(1735329625.912765) can0 158#000000000000000A
(1735329625.912979) can0 17C#0000000010000003
(1735329625.913163) can0 1DC#0200000C
(1735329625.914199) can0 164#240000691700002E
(1735329625.918267) can0 18E#00005C
(1735329625.921361) can0 428#06010000EAEB20
(1735329625.921376) can0 42A#0026
(1735329625.921951) can0 136#000200000000001B
(1735329625.922299) can0 13A#4400310000000095
(1735329625.922498) can0 13F#0000000000000014
(1735329625.922752) can0 158#0000000000000019
(1735329625.922897) can0 039#002A
(1735329625.923134) can0 17C#0000000010000012
(1735329625.923376) can0 1A4#0000000000000009
(1735329625.923601) can0 1B0#00000000000048
(1735329625.923877) can0 1D0#000000000000000A
(1735329625.924643) can0 309#0000000000000084
(1735329625.924657) can0 164#240000691700003D
(1735329625.928272) can0 18E#00006B
(1735329625.932351) can0 136#000200000000002A
(1735329625.932366) can0 13A#44003100000000A4
(1735329625.932510) can0 13F#0000000000000023
(1735329625.932789) can0 158#0000000000000028
(1735329625.932992) can0 17C#0000000010000021
(1735329625.933171) can0 1DC#0200001B
(1735329625.934184) can0 164#2400006917000000
(1735329625.936740) can0 039#0039
(1735329625.937488) can0 305#8E28
(1735329625.937946) can0 18E#00007A
(1735329625.942048) can0 136#0002000000000039
(1735329625.942292) can0 13A#44003100000000B3
(1735329625.942473) can0 13F#0000000000000032
(1735329625.942768) can0 158#0000000000000037
(1735329625.942984) can0 17C#0000000010000030
(1735329625.943292) can0 1A4#0000000000000018
(1735329625.943481) can0 1B0#00000000000057
(1735329625.943880) can0 1D0#000000000000000A
(1735329625.944164) can0 294#048C00026445001B
(1735329625.944421) can0 164#240000691700001F
(1735329625.947952) can0 18E#00004D
(1735329625.950642) can0 039#000C
(1735329625.952009) can0 136#000200000000000C
(1735329625.952298) can0 13A#4400310000000086
(1735329625.952476) can0 13F#0000000000000005
(1735329625.952714) can0 158#000000000000000A
(1735329625.953010) can0 17C#0000000010000003
(1735329625.953168) can0 1DC#0200002A
(1735329625.953324) can0 320#000021
(1735329625.953496) can0 324#674D05C800000E28
(1735329625.953766) can0 37C#0000000020
(1735329625.954188) can0 164#240000691700002E
(1735329625.958042) can0 18E#00005C
(1735329625.962012) can0 136#000200000000001B
(1735329625.962315) can0 13A#4400310000000095
(1735329625.962479) can0 13F#0000000000000014
(1735329625.962748) can0 158#0000000000000019
(1735329625.962984) can0 17C#0000000010000012
(1735329625.963295) can0 1A4#0000000000000027
(1735329625.963554) can0 1B0#00000000000066
(1735329625.963816) can0 1D0#000000000000000A
(1735329625.964190) can0 164#240000691700003D
(1735329625.966137) can0 039#001B
(1735329625.967961) can0 18E#00006B
(1735329625.972014) can0 136#000200000000002A
(1735329625.972304) can0 13A#44003100000000A4
(1735329625.972477) can0 13F#0000000000000023
(1735329625.972737) can0 158#0000000000000028
(1735329625.972983) can0 17C#0000000010000021
(1735329625.973141) can0 1DC#02000039
(1735329625.974169) can0 164#2400006917000000
(1735329625.978133) can0 18E#00007A
(1735329625.980649) can0 039#002A
(1735329625.982129) can0 136#0002000000000039
(1735329625.982171) can0 13A#44003100000000B3
(1735329625.982494) can0 13F#0000000000000032
(1735329625.982728) can0 158#0000000000000037
(1735329625.982988) can0 17C#0000000010000030
(1735329625.983297) can0 1A4#0000000000000036
(1735329625.983518) can0 1B0#00000000000075
(1735329625.983877) can0 1D0#000000000000000A
(1735329625.984168) can0 294#048C00026445002A
(1735329625.984409) can0 164#240000691700001F
(1735329625.988279) can0 18E#00004D
(1735329625.992379) can0 136#000200000000000C
(1735329625.992393) can0 13A#4400310000000086
(1735329625.992447) can0 13F#0000000000000005
(1735329625.992705) can0 158#000000000000000A
(1735329625.992855) can0 039#0039
(1735329625.993169) can0 17C#0000000010000003
(1735329625.993302) can0 1DC#0200000C
(1735329625.994603) can0 164#240000691700002E
(1735329625.998142) can0 18E#00005C
(1735329626.002197) can0 136#000200000000001B
(1735329626.002258) can0 13A#4400310000000095
(1735329626.002482) can0 13F#0000000000000014
(1735329626.002752) can0 158#0000000000000019
(1735329626.002924) can0 17C#0000000010000012
(1735329626.003300) can0 1A4#0000000000000009
(1735329626.003486) can0 1B0#00000000000048
(1735329626.003902) can0 1D0#000000000000000A
(1735329626.004180) can0 164#240000691700003D
(1735329626.005658) can0 039#000C
(1735329626.007952) can0 18E#00006B
(1735329626.012346) can0 136#000200000000002A
(1735329626.012360) can0 13A#44003100000000A4
(1735329626.012505) can0 13F#0000000000000023
(1735329626.012763) can0 158#0000000000000028
(1735329626.012992) can0 17C#0000000010000021
(1735329626.013150) can0 1DC#0200001B
(1735329626.014265) can0 164#2400006917000000
(1735329626.018309) can0 18E#00007A
(1735329626.019889) can0 039#001B
(1735329626.022061) can0 136#0002000000000039
(1735329626.022303) can0 13A#44003100000000B3
(1735329626.022485) can0 13F#0000000000000032
(1735329626.022760) can0 158#0000000000000037
(1735329626.022992) can0 17C#0000000010000030
(1735329626.023311) can0 1A4#0000000000000018
(1735329626.023514) can0 1B0#00000000000057
(1735329626.023880) can0 1D0#000000000000000A
(1735329626.024169) can0 309#0000000000000093
(1735329626.024410) can0 294#048C000264450039
(1735329626.024637) can0 164#240000691700001F
(1735329626.028197) can0 18E#00004D
(1735329626.032251) can0 136#000200000000000C
(1735329626.032267) can0 13A#4400310000000086
(1735329626.032509) can0 13F#0000000000000005
(1735329626.032751) can0 158#000000000000000A
(1735329626.033004) can0 17C#0000000010000003
(1735329626.033149) can0 1DC#0200002A
(1735329626.033602) can0 039#002A
(1735329626.034341) can0 164#240000691700002E
(1735329626.038036) can0 18E#00005C
(1735329626.041733) can0 305#8E37
(1735329626.042020) can0 136#000200000000001B
(1735329626.042305) can0 13A#4400310000000095
(1735329626.042463) can0 13F#0000000000000014
(1735329626.042728) can0 158#0000000000000019
(1735329626.042976) can0 17C#0000000010000012
(1735329626.043306) can0 1A4#0000000000000027
(1735329626.043556) can0 1B0#00000000000066
(1735329626.043822) can0 1D0#000000000000000A
(1735329626.044272) can0 164#240000691700003D
(1735329626.048025) can0 18E#00006B
(1735329626.048640) can0 039#0039
(1735329626.052327) can0 136#000200000000002A
(1735329626.052341) can0 13A#44003100000000A4
(1735329626.052513) can0 13F#0000000000000023
(1735329626.052876) can0 158#0000000000000028
(1735329626.052958) can0 17C#0000000010000021
(1735329626.053181) can0 1DC#02000039
(1735329626.053334) can0 320#000030
(1735329626.053575) can0 324#674D05DC00000E32
(1735329626.053768) can0 37C#000000003F
(1735329626.054024) can0 40C#0000000004000013
(1735329626.054310) can0 164#2400006917000000
(1735329626.054441) can0 454#32F511
(1735329626.054618) can0 465#8EC847532F3413
(1735329626.058266) can0 18E#00007A
(1735329626.062065) can0 136#0002000000000039
(1735329626.062270) can0 13A#44003100000000B3
(1735329626.062440) can0 13F#0000000000000032
(1735329626.062864) can0 158#0000000000000037
(1735329626.063013) can0 17C#0000000010000030
(1735329626.063088) can0 039#000C
(1735329626.063410) can0 1A4#0000000000000036
(1735329626.063628) can0 1B0#00000000000075
(1735329626.063894) can0 1D0#000000000000000A
(1735329626.064592) can0 294#048C00026445000C
(1735329626.064655) can0 164#240000691700001F
(1735329626.068208) can0 18E#00004D
(1735329626.072006) can0 136#000200000000000C
(1735329626.072313) can0 13A#4400310000000086
(1735329626.072432) can0 13F#0000000000000005
(1735329626.072712) can0 158#000000000000000A
(1735329626.072997) can0 17C#0000000010000003
(1735329626.073153) can0 1DC#0200000C
(1735329626.074270) can0 164#240000691700002E
(1735329626.076860) can0 039#001B
(1735329626.078149) can0 18E#00005C
(1735329626.082349) can0 136#000200000000001B
(1735329626.082363) can0 13A#4400310000000095
(1735329626.082425) can0 13F#0000000000000014
(1735329626.082724) can0 158#0000000000000019
(1735329626.082981) can0 17C#0000000010000012
(1735329626.083381) can0 1A4#0000000000000009
(1735329626.083561) can0 1B0#00000000000048
(1735329626.083855) can0 1D0#000000000000000A
(1735329626.084262) can0 164#240000691700003D
(1735329626.088233) can0 18E#00006B
(1735329626.089802) can0 039#002A
(1735329626.092207) can0 136#000200000000002A
(1735329626.092269) can0 13A#44003100000000A4
(1735329626.092470) can0 13F#0000000000000023
(1735329626.092743) can0 158#0000000000000028
(1735329626.092974) can0 17C#0000000010000021
(1735329626.093154) can0 1DC#0200001B
(1735329626.094274) can0 164#2400006917000000
(1735329626.098116) can0 18E#00007A
(1735329626.102040) can0 136#0002000000000039
(1735329626.102230) can0 13A#44003100000000B3
(1735329626.102501) can0 13F#0000000000000032
(1735329626.102719) can0 158#0000000000000037
(1735329626.102990) can0 17C#0000000010000030
(1735329626.103560) can0 1A4#0000000000000018
(1735329626.103571) can0 1B0#00000000000057
(1735329626.103723) can0 039#0039
(1735329626.104020) can0 1D0#000000000000000A
(1735329626.104227) can0 294#048C00026445001B
(1735329626.104469) can0 164#240000691700001F
(1735329626.107940) can0 18E#00004D
(1735329626.112041) can0 136#000200000000000C
(1735329626.112235) can0 13A#4400310000000086
(1735329626.112503) can0 13F#0000000000000005
(1735329626.112746) can0 158#000000000000000A
(1735329626.113001) can0 17C#0000000010000003
(1735329626.113154) can0 1DC#0200002A
(1735329626.114258) can0 164#240000691700002E
(1735329626.116731) can0 039#000C
(1735329626.118047) can0 18E#00005C
(1735329626.122297) can0 136#000200000000001B
(1735329626.122311) can0 13A#4400310000000095
(1735329626.122493) can0 13F#0000000000000014
(1735329626.122752) can0 158#0000000000000019
(1735329626.122985) can0 17C#0000000010000012
(1735329626.123387) can0 1A4#0000000000000027
(1735329626.123595) can0 1B0#00000000000066
(1735329626.123861) can0 1D0#000000000000000A
(1735329626.124238) can0 309#00000000000000A2
(1735329626.124444) can0 164#240000691700003D
(1735329626.128243) can0 18E#00006B
(1735329626.130653) can0 039#001B
(1735329626.132009) can0 136#000200000000002A
(1735329626.132318) can0 13A#44003100000000A4
(1735329626.132498) can0 13F#0000000000000023
(1735329626.132749) can0 158#0000000000000028
(1735329626.132998) can0 17C#0000000010000021
(1735329626.133165) can0 1DC#02000039
(1735329626.134730) can0 164#2400006917000000
(1735329626.138245) can0 18E#00007A
(1735329626.142350) can0 136#0002000000000039
(1735329626.142364) can0 13A#44003100000000B3
(1735329626.142506) can0 13F#0000000000000032
(1735329626.142782) can0 158#0000000000000037
(1735329626.142981) can0 17C#0000000010000030
(1735329626.143299) can0 1A4#0000000000000036
(1735329626.143549) can0 1B0#00000000000075
(1735329626.143798) can0 1D0#000000000000000A
(1735329626.144225) can0 294#048C00026445002A
(1735329626.144448) can0 164#240000691700001F
(1735329626.145620) can0 039#002A
(1735329626.146190) can0 305#8E0A
(1735329626.148213) can0 18E#00004D
(1735329626.152071) can0 136#000200000000000C
(1735329626.152325) can0 13A#4400310000000086
(1735329626.152449) can0 13F#0000000000000005
(1735329626.152737) can0 158#000000000000000A
(1735329626.152988) can0 17C#0000000010000003
(1735329626.153161) can0 1DC#0200000C
(1735329626.153314) can0 320#000003
(1735329626.153495) can0 324#674D05F000000E0F
(1735329626.153699) can0 37C#0000000002
(1735329626.154129) can0 164#240000691700002E
(1735329626.157994) can0 18E#00005C
(1735329626.159673) can0 039#0039
(1735329626.161972) can0 136#000200000000001B
(1735329626.162201) can0 13A#4400310000000095
(1735329626.162448) can0 13F#0000000000000014
(1735329626.162701) can0 158#0000000000000019
(1735329626.162921) can0 17C#0000000010000012
(1735329626.163373) can0 1A4#0000000000000009
(1735329626.163609) can0 1B0#00000000000048
(1735329626.163856) can0 1D0#000000000000000A
(1735329626.164162) can0 164#240000691700003D
(1735329626.167983) can0 18E#00006B
(1735329626.172092) can0 136#000200000000002A
(1735329626.172361) can0 13A#44003100000000A4
(1735329626.172415) can0 13F#0000000000000023
(1735329626.172814) can0 158#0000000000000028
(1735329626.173002) can0 17C#0000000010000021
(1735329626.173145) can0 1DC#0200001B
(1735329626.174381) can0 164#2400006917000000
(1735329626.174386) can0 039#000C
(1735329626.177984) can0 18E#00007A
(1735329626.181995) can0 136#0002000000000039
(1735329626.182335) can0 13A#44003100000000B3
(1735329626.182412) can0 13F#0000000000000032
(1735329626.182825) can0 158#0000000000000037
(1735329626.182961) can0 17C#0000000010000030
(1735329626.183650) can0 1A4#0000000000000018
(1735329626.183658) can0 1B0#00000000000057
(1735329626.183951) can0 1D0#000000000000000A
(1735329626.184223) can0 294#048C000264450039
(1735329626.184568) can0 164#240000691700001F
(1735329626.187712) can0 039#001B
(1735329626.188087) can0 18E#00004D
(1735329626.192372) can0 136#000200000000000C
(1735329626.192381) can0 13A#4400310000000086
(1735329626.192482) can0 13F#0000000000000005
(1735329626.192925) can0 158#000000000000000A
(1735329626.192935) can0 17C#0000000010000003
(1735329626.193184) can0 1DC#0200002A
(1735329626.194170) can0 164#240000691700002E
(1735329626.198089) can0 18E#00005C
(1735329626.200571) can0 039#002A
(1735329626.202265) can0 136#000200000000001B
(1735329626.202275) can0 13A#4400310000000095
(1735329626.202471) can0 13F#0000000000000014
(1735329626.202897) can0 158#0000000000000019
(1735329626.202947) can0 17C#0000000010000012
(1735329626.203583) can0 1A4#0000000000000027
(1735329626.203590) can0 1B0#00000000000066
(1735329626.204002) can0 1D0#000000000000000A
(1735329626.204603) can0 164#240000691700003D
(1735329626.208186) can0 18E#00006B
(1735329626.211965) can0 136#000200000000002A
(1735329626.212184) can0 13A#44003100000000A4
(1735329626.212570) can0 13F#0000000000000023
(1735329626.212737) can0 158#0000000000000028
(1735329626.212990) can0 17C#0000000010000021
(1735329626.213144) can0 1DC#02000039
(1735329626.214237) can0 164#2400006917000000
(1735329626.214378) can0 039#0039
(1735329626.218345) can0 18E#00007A
(1735329626.221404) can0 428#06010000EAEB3F
(1735329626.221418) can0 42A#0035
(1735329626.222146) can0 136#0002000000000039
(1735329626.222192) can0 13A#44003100000000B3
(1735329626.222456) can0 13F#0000000000000032
(1735329626.222733) can0 158#0000000000000037
(1735329626.222992) can0 17C#0000000010000030
(1735329626.223572) can0 1A4#0000000000000036
(1735329626.223596) can0 1B0#00000000000075
(1735329626.223959) can0 1D0#000000000000000A
(1735329626.224203) can0 309#00000000000000B1
(1735329626.224375) can0 294#048C00026445000C
(1735329626.224637) can0 164#240000691700001F
(1735329626.228137) can0 18E#00004D
(1735329626.228643) can0 039#000C
(1735329626.232058) can0 136#000200000000000C
(1735329626.232247) can0 13A#4400310000000086
(1735329626.232485) can0 13F#0000000000000005
(1735329626.232749) can0 158#000000000000000A
(1735329626.232989) can0 17C#0000000010000003
(1735329626.233166) can0 1DC#0200000C
(1735329626.234271) can0 164#240000691700002E
(1735329626.238256) can0 18E#00005C
(1735329626.242332) can0 136#000200000000001B
(1735329626.242346) can0 13A#4400310000000095
(1735329626.242489) can0 13F#0000000000000014
(1735329626.242743) can0 158#0000000000000019
(1735329626.242881) can0 039#001B
(1735329626.243111) can0 17C#0000000010000012
(1735329626.243400) can0 1A4#0000000000000009
(1735329626.243614) can0 1B0#00000000000048
(1735329626.243874) can0 1D0#000000000000000A
(1735329626.244263) can0 164#240000691700003D
(1735329626.248232) can0 18E#00006B
(1735329626.250635) can0 305#8E19
(1735329626.252284) can0 136#000200000000002A
(1735329626.252298) can0 13A#44003100000000A4
(1735329626.252458) can0 13F#0000000000000023
(1735329626.252846) can0 158#0000000000000028
(1735329626.253003) can0 17C#0000000010000021
(1735329626.253162) can0 1DC#0200001B
(1735329626.253332) can0 320#000012
(1735329626.253508) can0 324#674D060400000E18
(1735329626.253877) can0 37C#0000000011
(1735329626.254257) can0 164#2400006917000000
(1735329626.256744) can0 039#002A
(1735329626.258172) can0 18E#00007A
(1735329626.262348) can0 136#0002000000000039
(1735329626.262362) can0 13A#44003100000000B3
(1735329626.262507) can0 13F#0000000000000032
(1735329626.262739) can0 158#0000000000000037
(1735329626.262995) can0 17C#0000000010000030
(1735329626.263390) can0 1A4#0000000000000018
(1735329626.263662) can0 1B0#00000000000057
(1735329626.263879) can0 1D0#000000000000000A
(1735329626.264242) can0 294#048C00026445001B
(1735329626.264460) can0 164#240000691700001F
(1735329626.268166) can0 18E#00004D
(1735329626.270633) can0 039#0039
(1735329626.272265) can0 136#000200000000000C
(1735329626.272280) can0 13A#4400310000000086
(1735329626.272486) can0 13F#0000000000000005
(1735329626.272757) can0 158#000000000000000A
(1735329626.272994) can0 17C#0000000010000003
(1735329626.273174) can0 1DC#0200002A
(1735329626.274693) can0 164#240000691700002E
(1735329626.278140) can0 18E#00005C
(1735329626.282170) can0 136#000200000000001B
(1735329626.282314) can0 13A#4400310000000095
(1735329626.282439) can0 13F#0000000000000014
(1735329626.282762) can0 158#0000000000000019
(1735329626.282972) can0 17C#0000000010000012
(1735329626.283665) can0 1A4#0000000000000027
(1735329626.283681) can0 1B0#00000000000066
(1735329626.283825) can0 039#000C
(1735329626.284038) can0 1D0#000000000000000A
(1735329626.284356) can0 164#240000691700003D
(1735329626.288075) can0 18E#00006B
(1735329626.292340) can0 136#000200000000002A
(1735329626.292354) can0 13A#44003100000000A4
(1735329626.292497) can0 13F#0000000000000023
(1735329626.292765) can0 158#0000000000000028
(1735329626.292975) can0 17C#0000000010000021
(1735329626.293156) can0 1DC#02000039
(1735329626.294278) can0 164#2400006917000000
(1735329626.298208) can0 18E#00007A
(1735329626.298607) can0 039#001B
(1735329626.302141) can0 136#0002000000000039
(1735329626.302210) can0 13A#44003100000000B3
(1735329626.302540) can0 13F#0000000000000032
(1735329626.302723) can0 158#0000000000000037
(1735329626.302983) can0 17C#0000000010000030
(1735329626.303593) can0 1A4#0000000000000036
(1735329626.303623) can0 1B0#00000000000075
(1735329626.303971) can0 1D0#000000000000000A
(1735329626.304216) can0 294#048C00026445002A
(1735329626.304474) can0 164#240000691700001F
(1735329626.308149) can0 18E#00004D
(1735329626.311670) can0 039#002A
(1735329626.312007) can0 136#000200000000000C
(1735329626.312251) can0 13A#4400310000000086
(1735329626.312495) can0 13F#0000000000000005
(1735329626.312879) can0 158#000000000000000A
(1735329626.312925) can0 17C#0000000010000003
(1735329626.313111) can0 1DC#0200000C
(1735329626.314190) can0 164#240000691700002E
(1735329626.318178) can0 18E#00005C
(1735329626.322050) can0 136#000200000000001B
(1735329626.322241) can0 13A#4400310000000095
(1735329626.322494) can0 13F#0000000000000014
(1735329626.322735) can0 158#0000000000000019
(1735329626.322975) can0 17C#0000000010000012
(1735329626.323529) can0 1A4#0000000000000009
(1735329626.323662) can0 1B0#00000000000048
(1735329626.323935) can0 1D0#000000000000000A
(1735329626.324263) can0 309#0000000000000084
(1735329626.324468) can0 164#240000691700003D
(1735329626.328021) can0 18E#00006B
(1735329626.330674) can0 039#0039
(1735329626.332178) can0 136#000200000000002A
(1735329626.332189) can0 13A#44003100000000A4
(1735329626.332488) can0 13F#0000000000000023
(1735329626.332695) can0 158#0000000000000028
(1735329626.332977) can0 17C#0000000010000021
(1735329626.333160) can0 1DC#0200001B
(1735329626.334273) can0 164#2400006917000000
(1735329626.338030) can0 18E#00007A
(1735329626.342005) can0 136#0002000000000039
(1735329626.342223) can0 13A#44003100000000B3
(1735329626.342552) can0 13F#0000000000000032
(1735329626.342739) can0 158#0000000000000037
(1735329626.343021) can0 17C#0000000010000030
(1735329626.343596) can0 1A4#0000000000000018
(1735329626.343631) can0 1B0#00000000000057
(1735329626.343952) can0 1D0#000000000000000A
(1735329626.344601) can0 294#048C000264450039
(1735329626.344612) can0 164#240000691700001F
(1735329626.344768) can0 039#000C
(1735329626.347979) can0 18E#00004D
(1735329626.351974) can0 136#000200000000000C
(1735329626.352202) can0 13A#4400310000000086
(1735329626.352538) can0 13F#0000000000000005
(1735329626.352752) can0 158#000000000000000A
(1735329626.353018) can0 17C#0000000010000003
(1735329626.353162) can0 1DC#0200002A
(1735329626.353345) can0 320#000021
(1735329626.353585) can0 324#674D061800000E22
(1735329626.353759) can0 37C#0000000020
(1735329626.353891) can0 305#8E28
(1735329626.354127) can0 40C#013248474647322F
(1735329626.354386) can0 164#240000691700002E
(1735329626.354514) can0 454#32F520
(1735329626.354716) can0 465#8EC847532F3422
(1735329626.358331) can0 18E#00005C
(1735329626.360920) can0 039#001B
(1735329626.362254) can0 136#000200000000001B
(1735329626.362269) can0 13A#4400310000000095
(1735329626.362501) can0 13F#0000000000000014
(1735329626.362685) can0 158#0000000000000019
(1735329626.362936) can0 17C#0000000010000012
(1735329626.363434) can0 1A4#0000000000000027
(1735329626.363719) can0 1B0#00000000000066
(1735329626.363985) can0 1D0#000000000000000A
(1735329626.364232) can0 164#240000691700003D
(1735329626.368027) can0 18E#00006B
(1735329626.372051) can0 136#000200000000002A
(1735329626.372239) can0 13A#44003100000000A4
(1735329626.372475) can0 13F#0000000000000023
(1735329626.372737) can0 158#0000000000000028
(1735329626.372984) can0 17C#0000000010000021
(1735329626.373140) can0 1DC#02000039
(1735329626.374278) can0 164#2400006917000000
(1735329626.375631) can0 039#002A
(1735329626.378275) can0 18E#00007A
(1735329626.382261) can0 136#0002000000000039
(1735329626.382275) can0 13A#44003100000000B3
(1735329626.382469) can0 13F#0000000000000032
(1735329626.382738) can0 158#0000000000000037
(1735329626.382994) can0 17C#0000000010000030
(1735329626.383529) can0 1A4#0000000000000036
(1735329626.383682) can0 1B0#00000000000075
(1735329626.383955) can0 1D0#000000000000000A
(1735329626.384227) can0 294#048C00026445000C
(1735329626.384473) can0 164#240000691700001F
(1735329626.388028) can0 18E#00004D
(1735329626.392053) can0 136#000200000000000C
(1735329626.392244) can0 13A#4400310000000086
(1735329626.392475) can0 13F#0000000000000005
(1735329626.392742) can0 158#000000000000000A
(1735329626.392986) can0 17C#0000000010000003
(1735329626.393145) can0 1DC#0200000C
(1735329626.394255) can0 164#240000691700002E
(1735329626.394681) can0 039#0039
(1735329626.398171) can0 18E#00005C
(1735329626.402337) can0 136#000200000000001B
(1735329626.402351) can0 13A#4400310000000095
(1735329626.402483) can0 13F#0000000000000014
(1735329626.402735) can0 158#0000000000000019
(1735329626.402986) can0 17C#0000000010000012
(1735329626.403582) can0 1A4#0000000000000009
(1735329626.403702) can0 1B0#00000000000048
(1735329626.403959) can0 1D0#000000000000000A
(1735329626.404241) can0 164#240000691700003D
(1735329626.408366) can0 18E#00006B
(1735329626.412097) can0 136#000200000000002A
(1735329626.412257) can0 13A#44003100000000A4
(1735329626.412498) can0 13F#0000000000000023
(1735329626.412731) can0 158#0000000000000028
(1735329626.412990) can0 17C#0000000010000021
(1735329626.413140) can0 1DC#0200001B
(1735329626.413680) can0 039#000C
(1735329626.414462) can0 164#2400006917000000
(1735329626.418329) can0 18E#00007A
(1735329626.422057) can0 136#0002000000000039
(1735329626.422223) can0 13A#44003100000000B3
(1735329626.422480) can0 13F#0000000000000032
(1735329626.422753) can0 158#0000000000000037
(1735329626.422990) can0 17C#0000000010000030
(1735329626.423597) can0 1A4#0000000000000018
(1735329626.423677) can0 1B0#00000000000057
(1735329626.424024) can0 1D0#000000000000000A
(1735329626.424221) can0 309#0000000000000093
(1735329626.424449) can0 294#048C00026445001B
(1735329626.424669) can0 164#240000691700001F
(1735329626.426350) can0 039#001B
(1735329626.428155) can0 18E#00004D
(1735329626.432191) can0 136#000200000000000C
(1735329626.432206) can0 13A#4400310000000086
(1735329626.432499) can0 13F#0000000000000005
(1735329626.432725) can0 158#000000000000000A
(1735329626.432953) can0 17C#0000000010000003
(1735329626.433099) can0 1DC#0200002A
(1735329626.434287) can0 164#240000691700002E
(1735329626.438318) can0 18E#00005C
(1735329626.439985) can0 039#002A
(1735329626.442319) can0 136#000200000000001B
(1735329626.442333) can0 13A#4400310000000095
(1735329626.442485) can0 13F#0000000000000014
(1735329626.442761) can0 158#0000000000000019
(1735329626.442992) can0 17C#0000000010000012
(1735329626.443582) can0 1A4#0000000000000027
(1735329626.443708) can0 1B0#00000000000066
(1735329626.443986) can0 1D0#000000000000000A
(1735329626.444227) can0 164#240000691700003D
(1735329626.448258) can0 18E#00006B
(1735329626.452202) can0 136#000200000000002A
(1735329626.452216) can0 13A#44003100000000A4
(1735329626.452506) can0 13F#0000000000000023
(1735329626.452755) can0 158#0000000000000028
(1735329626.452996) can0 17C#0000000010000021
(1735329626.453151) can0 1DC#02000039
(1735329626.453351) can0 320#000030
(1735329626.453523) can0 324#674D062C00000E3C
(1735329626.453703) can0 039#0039
(1735329626.453871) can0 37C#000000003F
(1735329626.454243) can0 164#2400006917000000
(1735329626.458138) can0 18E#00007A
(1735329626.460389) can0 305#8E37
(1735329626.462264) can0 136#0002000000000039
(1735329626.462278) can0 13A#44003100000000B3
(1735329626.462487) can0 13F#0000000000000032
(1735329626.462737) can0 158#0000000000000037
(1735329626.463003) can0 17C#0000000010000030
(1735329626.463583) can0 1A4#0000000000000036
(1735329626.463749) can0 1B0#00000000000075
(1735329626.464006) can0 1D0#000000000000000A
(1735329626.464241) can0 294#048C00026445002A
(1735329626.464480) can0 164#240000691700001F
(1735329626.468041) can0 18E#00004D
(1735329626.472063) can0 136#000200000000000C
(1735329626.472255) can0 13A#4400310000000086
(1735329626.472388) can0 039#000C
(1735329626.472658) can0 13F#0000000000000005
(1735329626.472890) can0 158#000000000000000A
(1735329626.473128) can0 17C#0000000010000003
(1735329626.473281) can0 1DC#0200000C
(1735329626.474229) can0 164#240000691700002E
(1735329626.478149) can0 18E#00005C
(1735329626.482299) can0 136#000200000000001B
(1735329626.482313) can0 13A#4400310000000095
(1735329626.482489) can0 13F#0000000000000014
(1735329626.482760) can0 158#0000000000000019
(1735329626.482973) can0 17C#0000000010000012
(1735329626.483675) can0 1A4#0000000000000009
(1735329626.483711) can0 1B0#00000000000048
(1735329626.483992) can0 1D0#000000000000000A
(1735329626.484586) can0 164#240000691700003D
(1735329626.485304) can0 039#001B
(1735329626.488359) can0 18E#00006B
(1735329626.492250) can0 136#000200000000002A
(1735329626.492264) can0 13A#44003100000000A4
(1735329626.492490) can0 13F#0000000000000023
(1735329626.492757) can0 158#0000000000000028
(1735329626.492975) can0 17C#0000000010000021
(1735329626.493153) can0 1DC#0200001B
(1735329626.494387) can0 164#2400006917000000
(1735329626.498362) can0 18E#00007A
(1735329626.498671) can0 039#002A
(1735329626.502327) can0 136#0002000000000039
(1735329626.502341) can0 13A#44003100000000B3
(1735329626.502434) can0 13F#0000000000000032
(1735329626.502714) can0 158#0000000000000037
(1735329626.502977) can0 17C#0000000010000030
(1735329626.503606) can0 1A4#0000000000000018
(1735329626.503748) can0 1B0#00000000000057
(1735329626.504045) can0 1D0#000000000000000A
(1735329626.504244) can0 294#048C000264450039
(1735329626.504491) can0 164#240000691700001F
(1735329626.508239) can0 18E#00004D
(1735329626.512042) can0 136#000200000000000C
(1735329626.512225) can0 13A#4400310000000086
(1735329626.512502) can0 13F#0000000000000005
(1735329626.512755) can0 158#000000000000000A
(1735329626.512981) can0 17C#0000000010000003
(1735329626.513156) can0 1DC#0200002A
(1735329626.514199) can0 164#240000691700002E
(1735329626.517759) can0 039#0039
(1735329626.517998) can0 18E#00005C
(1735329626.521247) can0 428#06010000EAEB02
(1735329626.521324) can0 42A#0008
(1735329626.522144) can0 136#000200000000001B
(1735329626.522186) can0 13A#4400310000000095
(1735329626.522483) can0 13F#0000000000000014
(1735329626.522731) can0 158#0000000000000019
(1735329626.523000) can0 17C#0000000010000012
(1735329626.523605) can0 1A4#0000000000000027
(1735329626.523748) can0 1B0#00000000000066
(1735329626.524012) can0 1D0#000000000000000A
(1735329626.524186) can0 309#00000000000000A2
(1735329626.524447) can0 164#240000691700003D
(1735329626.527936) can0 18E#00006B
(1735329626.532353) can0 136#000200000000002A
(1735329626.532367) can0 13A#44003100000000A4
(1735329626.532373) can0 039#000C
(1735329626.532618) can0 13F#0000000000000023
(1735329626.532858) can0 158#0000000000000028
(1735329626.533111) can0 17C#0000000010000021
(1735329626.533284) can0 1DC#02000039
(1735329626.534239) can0 164#2400006917000000
(1735329626.538051) can0 18E#00007A
(1735329626.542244) can0 136#0002000000000039
(1735329626.542258) can0 13A#44003100000000B3
(1735329626.542488) can0 13F#0000000000000032
(1735329626.542754) can0 158#0000000000000037
(1735329626.542996) can0 17C#0000000010000030
(1735329626.543602) can0 1A4#0000000000000036
(1735329626.543749) can0 1B0#00000000000075
(1735329626.544068) can0 1D0#000000000000000A
(1735329626.544268) can0 294#048C00026445000C
(1735329626.544507) can0 164#240000691700001F
(1735329626.547709) can0 039#001B
(1735329626.547959) can0 18E#00004D
(1735329626.551999) can0 136#000200000000000C
(1735329626.552247) can0 13A#4400310000000086
(1735329626.552493) can0 13F#0000000000000005
(1735329626.552755) can0 158#000000000000000A
(1735329626.553016) can0 17C#0000000010000003
(1735329626.553170) can0 1DC#0200000C
(1735329626.553373) can0 320#000003
(1735329626.553577) can0 324#674D064000000E09
(1735329626.553757) can0 37C#0000000002
(1735329626.554570) can0 164#240000691700002E
(1735329626.558306) can0 18E#00005C
(1735329626.561737) can0 039#002A
(1735329626.562010) can0 136#000200000000001B
(1735329626.562230) can0 13A#4400310000000095
(1735329626.562474) can0 13F#0000000000000014
(1735329626.562735) can0 158#0000000000000019
(1735329626.562998) can0 17C#0000000010000012
(1735329626.563563) can0 1A4#0000000000000009
(1735329626.563818) can0 1B0#00000000000048
(1735329626.564041) can0 1D0#000000000000000A
(1735329626.564231) can0 164#240000691700003D
(1735329626.568156) can0 18E#00006B
(1735329626.568725) can0 305#8E0A
(1735329626.571963) can0 136#000200000000002A
(1735329626.572210) can0 13A#44003100000000A4
(1735329626.572424) can0 13F#0000000000000023
(1735329626.572839) can0 158#0000000000000028
(1735329626.572989) can0 17C#0000000010000021
(1735329626.573141) can0 1DC#0200001B
(1735329626.574359) can0 164#2400006917000000
(1735329626.575804) can0 039#0039
(1735329626.578292) can0 18E#00007A
(1735329626.582241) can0 136#0002000000000039
(1735329626.582257) can0 13A#44003100000000B3
(1735329626.582476) can0 13F#0000000000000032
(1735329626.582725) can0 158#0000000000000037
(1735329626.582987) can0 17C#0000000010000030
(1735329626.583502) can0 1A4#0000000000000018
(1735329626.583761) can0 1B0#00000000000057
(1735329626.584050) can0 1D0#000000000000000A
(1735329626.584288) can0 294#048C00026445001B
(1735329626.584573) can0 164#240000691700001F
(1735329626.588276) can0 18E#00004D
(1735329626.589756) can0 039#000C
(1735329626.592097) can0 136#000200000000000C
(1735329626.592254) can0 13A#4400310000000086
(1735329626.592574) can0 13F#0000000000000005
(1735329626.592730) can0 158#000000000000000A
(1735329626.593004) can0 17C#0000000010000003
(1735329626.593165) can0 1DC#0200002A
(1735329626.594308) can0 164#240000691700002E
(1735329626.598300) can0 18E#00005C
(1735329626.602252) can0 136#000200000000001B
(1735329626.602266) can0 13A#4400310000000095
(1735329626.602472) can0 13F#0000000000000014
(1735329626.602739) can0 158#0000000000000019
(1735329626.602994) can0 17C#0000000010000012
(1735329626.603595) can0 1A4#0000000000000027
(1735329626.603624) can0 039#001B
(1735329626.604012) can0 1B0#00000000000066
(1735329626.604182) can0 1D0#000000000000000A
(1735329626.604437) can0 164#240000691700003D
(1735329626.608241) can0 18E#00006B
(1735329626.612255) can0 136#000200000000002A
(1735329626.612270) can0 13A#44003100000000A4
(1735329626.612473) can0 13F#0000000000000023
(1735329626.612743) can0 158#0000000000000028
(1735329626.612987) can0 17C#0000000010000021
(1735329626.613163) can0 1DC#02000039
(1735329626.614337) can0 164#2400006917000000
(1735329626.616808) can0 039#002A
(1735329626.618229) can0 18E#00007A
(1735329626.622150) can0 136#0002000000000039
(1735329626.622196) can0 13A#44003100000000B3
(1735329626.622481) can0 13F#0000000000000032
(1735329626.622741) can0 158#0000000000000037
(1735329626.622997) can0 17C#0000000010000030
(1735329626.623615) can0 1A4#0000000000000036
(1735329626.623794) can0 1B0#00000000000075
(1735329626.624052) can0 1D0#000000000000000A
(1735329626.624602) can0 309#00000000000000B1
(1735329626.624674) can0 294#048C00026445002A
(1735329626.624994) can0 164#240000691700001F
(1735329626.628057) can0 18E#00004D
(1735329626.631002) can0 039#0039
(1735329626.632284) can0 136#000200000000000C
(1735329626.632298) can0 13A#4400310000000086
(1735329626.632501) can0 13F#0000000000000005
(1735329626.632746) can0 158#000000000000000A
(1735329626.632991) can0 17C#0000000010000003
(1735329626.633142) can0 1DC#0200000C
(1735329626.635465) can0 164#240000691700002E
(1735329626.638351) can0 18E#00005C
(1735329626.641964) can0 136#000200000000001B
(1735329626.642247) can0 13A#4400310000000095
(1735329626.642491) can0 13F#0000000000000014
(1735329626.642755) can0 158#0000000000000019
(1735329626.642994) can0 17C#0000000010000012
(1735329626.643622) can0 1A4#0000000000000009
(1735329626.643780) can0 1B0#00000000000048
(1735329626.644058) can0 1D0#000000000000000A
(1735329626.645595) can0 164#240000691700003D
(1735329626.645606) can0 039#000C
(1735329626.648258) can0 18E#00006B
(1735329626.652260) can0 136#000200000000002A
(1735329626.652274) can0 13A#44003100000000A4
(1735329626.652510) can0 13F#0000000000000023
(1735329626.652740) can0 158#0000000000000028
(1735329626.652979) can0 17C#0000000010000021
(1735329626.653118) can0 1DC#0200001B
(1735329626.653340) can0 320#000012
(1735329626.653573) can0 324#674D065400000E13
(1735329626.653769) can0 37C#0000000011
(1735329626.653974) can0 40C#0231353336483732
(1735329626.654133) can0 454#32F53F
(1735329626.654380) can0 465#8EC847532F3431
(1735329626.655208) can0 164#2400006917000000
(1735329626.658351) can0 18E#00007A
(1735329626.658780) can0 039#001B
(1735329626.662319) can0 136#0002000000000039
(1735329626.662334) can0 13A#44003100000000B3
(1735329626.662487) can0 13F#0000000000000032
(1735329626.662703) can0 158#0000000000000037
(1735329626.663018) can0 17C#0000000010000030
(1735329626.663622) can0 1A4#0000000000000018
(1735329626.663854) can0 1B0#00000000000057
(1735329626.664096) can0 1D0#000000000000000A
(1735329626.664412) can0 294#048C000264450039
(1735329626.665264) can0 164#240000691700001F
(1735329626.668205) can0 18E#00004D
(1735329626.672068) can0 136#000200000000000C
(1735329626.672228) can0 13A#4400310000000086
(1735329626.672547) can0 13F#0000000000000005
(1735329626.672739) can0 158#000000000000000A
(1735329626.673000) can0 17C#0000000010000003
(1735329626.673166) can0 1DC#0200002A
(1735329626.674681) can0 039#002A
(1735329626.675270) can0 164#240000691700002E
(1735329626.675415) can0 305#8E19
(1735329626.678264) can0 18E#00005C
(1735329626.682149) can0 136#000200000000001B
(1735329626.682194) can0 13A#4400310000000095
(1735329626.682488) can0 13F#0000000000000014
(1735329626.682761) can0 158#0000000000000019
(1735329626.682974) can0 17C#0000000010000012
(1735329626.683626) can0 1A4#0000000000000027
(1735329626.683798) can0 1B0#00000000000066
(1735329626.684055) can0 1D0#000000000000000A
(1735329626.685276) can0 164#240000691700003D
(1735329626.688223) can0 18E#00006B
(1735329626.688237) can0 039#0039
(1735329626.692147) can0 136#000200000000002A
(1735329626.692192) can0 13A#44003100000000A4
(1735329626.692489) can0 13F#0000000000000023
(1735329626.692757) can0 158#0000000000000028
(1735329626.692974) can0 17C#0000000010000021
(1735329626.693154) can0 1DC#02000039
(1735329626.695444) can0 164#2400006917000000
(1735329626.698118) can0 18E#00007A
(1735329626.700770) can0 039#000C
(1735329626.702180) can0 136#0002000000000039
(1735329626.702222) can0 13A#44003100000000B3
(1735329626.702491) can0 13F#0000000000000032
(1735329626.702753) can0 158#0000000000000037
(1735329626.702997) can0 17C#0000000010000030
(1735329626.703765) can0 1A4#0000000000000036
(1735329626.703780) can0 1B0#00000000000075
(1735329626.704019) can0 1D0#000000000000000A
(1735329626.704284) can0 294#048C00026445000C
(1735329626.705309) can0 164#240000691800001E
(1735329626.708333) can0 18E#00004D
(1735329626.712157) can0 136#000200000000000C
(1735329626.712203) can0 13A#4400310000000086
(1735329626.712492) can0 13F#0000000000000005
(1735329626.712742) can0 158#000000000000000A
(1735329626.712997) can0 17C#0000000010000003
(1735329626.713156) can0 1DC#0200000C
(1735329626.715747) can0 164#240000691700002E
(1735329626.715762) can0 039#001B
(1735329626.718212) can0 18E#00005C
(1735329626.722192) can0 136#000200000000001B
(1735329626.722206) can0 13A#4400310000000095
(1735329626.722498) can0 13F#0000000000000014
(1735329626.722673) can0 158#0000000000000019
(1735329626.722938) can0 17C#0000000010000012
(1735329626.723620) can0 1A4#0000000000000009
(1735329626.723787) can0 1B0#00000000000048
(1735329626.724046) can0 1D0#000000000000000A
(1735329626.724306) can0 309#0000000000000084
(1735329626.725229) can0 164#240000691700003D
(1735329626.728361) can0 18E#00006B
(1735329626.730484) can0 039#002A
(1735329626.732275) can0 136#000200000000002A
(1735329626.732291) can0 13A#44003100000000A4
(1735329626.732497) can0 13F#0000000000000023
(1735329626.732747) can0 158#0000000000000028
(1735329626.732982) can0 17C#0000000010000021
(1735329626.733159) can0 1DC#0200001B
(1735329626.735331) can0 164#2400006917000000
(1735329626.738101) can0 18E#00007A
(1735329626.742238) can0 136#0002000000000039
(1735329626.742253) can0 13A#44003100000000B3
(1735329626.742471) can0 13F#0000000000000032
(1735329626.742737) can0 158#0000000000000037
(1735329626.742994) can0 17C#0000000010000030
(1735329626.743618) can0 1A4#0000000000000018
(1735329626.743786) can0 1B0#00000000000057
(1735329626.744036) can0 1D0#000000000000000A
(1735329626.744300) can0 294#048C00026445001B
(1735329626.744671) can0 039#0039
(1735329626.745287) can0 164#240000691700001F
(1735329626.748296) can0 18E#00004D
(1735329626.752249) can0 136#000200000000000C
(1735329626.752263) can0 13A#4400310000000086
(1735329626.752502) can0 13F#0000000000000005
(1735329626.752763) can0 158#000000000000000A
(1735329626.753015) can0 17C#0000000010000003
(1735329626.753173) can0 1DC#0200002A
(1735329626.753405) can0 320#000021
(1735329626.753496) can0 324#674D066800000E2D
(1735329626.753764) can0 37C#0000000020
(1735329626.755443) can0 164#240000691700002E
(1735329626.757804) can0 039#000C
(1735329626.757998) can0 18E#00005C
(1735329626.762336) can0 136#000200000000001B
(1735329626.762350) can0 13A#4400310000000095
(1735329626.762484) can0 13F#0000000000000014
(1735329626.762731) can0 158#0000000000000019
(1735329626.762992) can0 17C#0000000010000012
(1735329626.763627) can0 1A4#0000000000000027
(1735329626.763827) can0 1B0#00000000000066
(1735329626.764077) can0 1D0#000000000000000A
(1735329626.765432) can0 164#240000691700003D
(1735329626.768397) can0 18E#00006B
(1735329626.772052) can0 136#000200000000002A
(1735329626.772240) can0 13A#44003100000000A4
(1735329626.772505) can0 13F#0000000000000023
(1735329626.772758) can0 158#0000000000000028
(1735329626.772828) can0 039#001B
(1735329626.773155) can0 17C#0000000010000021
(1735329626.773284) can0 1DC#02000039
(1735329626.775445) can0 164#2400006917000000
(1735329626.778129) can0 18E#00007A
(1735329626.778823) can0 305#8E28
(1735329626.782283) can0 136#0002000000000039
(1735329626.782298) can0 13A#44003100000000B3
(1735329626.782503) can0 13F#0000000000000032
(1735329626.782754) can0 158#0000000000000037
(1735329626.782985) can0 17C#0000000010000030
(1735329626.783604) can0 1A4#0000000000000036
(1735329626.783812) can0 1B0#00000000000075
(1735329626.784080) can0 1D0#000000000000000A
(1735329626.784312) can0 294#048C00026445002A
(1735329626.785631) can0 164#240000691700001F
(1735329626.788163) can0 18E#00004D
(1735329626.792376) can0 136#000200000000000C
(1735329626.792391) can0 13A#4400310000000086
(1735329626.792445) can0 13F#0000000000000005
(1735329626.792703) can0 158#000000000000000A
(1735329626.792843) can0 039#002A
(1735329626.793163) can0 17C#0000000010000003
(1735329626.793310) can0 1DC#0200000C
(1735329626.795450) can0 164#240000691700002E
(1735329626.798223) can0 18E#00005C
(1735329626.802338) can0 136#000200000000001B
(1735329626.802352) can0 13A#4400310000000095
(1735329626.802497) can0 13F#0000000000000014
(1735329626.802738) can0 158#0000000000000019
(1735329626.802986) can0 17C#0000000010000012
(1735329626.803835) can0 1A4#0000000000000009
(1735329626.803850) can0 1B0#00000000000048
(1735329626.804064) can0 1D0#000000000000000A
(1735329626.805309) can0 164#240000691700003D
(1735329626.808249) can0 18E#00006B
(1735329626.812180) can0 136#000200000000002A
(1735329626.812218) can0 13A#44003100000000A4
(1735329626.812485) can0 13F#0000000000000023
(1735329626.812740) can0 158#0000000000000028
(1735329626.812877) can0 039#0039
(1735329626.813135) can0 17C#0000000010000021
(1735329626.813286) can0 1DC#0200001B
(1735329626.815287) can0 164#2400006917000000
(1735329626.818132) can0 18E#00007A
(1735329626.821285) can0 428#06010000EAEB11
(1735329626.821395) can0 42A#2015
(1735329626.822147) can0 136#0002000000000039
(1735329626.822192) can0 13A#44003100000000B3
(1735329626.822506) can0 13F#0000000000000032
(1735329626.822750) can0 158#0000000000000037
(1735329626.822991) can0 17C#0000000010000030
(1735329626.823630) can0 1A4#0000000000000018
(1735329626.823818) can0 1B0#00000000000057
(1735329626.824098) can0 1D0#000000000000000A
(1735329626.824329) can0 309#0000000000000093
(1735329626.824502) can0 294#048C000264450039
(1735329626.825464) can0 164#240000691700001F
(1735329626.825783) can0 039#000C
(1735329626.827819) can0 18E#00004D
(1735329626.832366) can0 136#000200000000000C
(1735329626.832381) can0 13A#4400310000000086
(1735329626.832523) can0 13F#0000000000000005
(1735329626.832741) can0 158#000000000000000A
(1735329626.833000) can0 17C#0000000010000003
(1735329626.833146) can0 1DC#0200002A
(1735329626.835485) can0 164#240000691700002E
(1735329626.838374) can0 18E#00005C
(1735329626.842058) can0 039#001B
(1735329626.842073) can0 136#000200000000001B
(1735329626.842231) can0 13A#4400310000000095
(1735329626.842594) can0 13F#0000000000000014
(1735329626.842750) can0 158#0000000000000019
(1735329626.842937) can0 17C#0000000010000012
(1735329626.843622) can0 1A4#0000000000000027
(1735329626.843825) can0 1B0#00000000000066
(1735329626.844098) can0 1D0#000000000000000A
(1735329626.845442) can0 164#240000691700003D
(1735329626.848334) can0 18E#00006B
(1735329626.852262) can0 136#000200000000002A
(1735329626.852276) can0 13A#44003100000000A4
(1735329626.852492) can0 13F#0000000000000023
(1735329626.852753) can0 158#0000000000000028
(1735329626.853006) can0 17C#0000000010000021
(1735329626.853157) can0 1DC#02000039
(1735329626.853314) can0 320#000030
(1735329626.853561) can0 324#674D067C00000E37
(1735329626.853742) can0 37C#000000003F
(1735329626.854765) can0 039#002A
(1735329626.855593) can0 164#2400006917000000
(1735329626.858183) can0 18E#00007A
(1735329626.862027) can0 136#0002000000000039
(1735329626.862202) can0 13A#44003100000000B3
(1735329626.862480) can0 13F#0000000000000032
(1735329626.862776) can0 158#0000000000000037
(1735329626.862968) can0 17C#0000000010000030
(1735329626.863613) can0 1A4#0000000000000036
(1735329626.863877) can0 1B0#00000000000075
(1735329626.864126) can0 1D0#000000000000000A
(1735329626.864419) can0 294#048C00026445000C
(1735329626.865247) can0 164#240000691700001F
(1735329626.868377) can0 18E#00004D
(1735329626.868966) can0 039#0039
(1735329626.872340) can0 136#000200000000000C
(1735329626.872355) can0 13A#4400310000000086
(1735329626.872429) can0 13F#0000000000000005
(1735329626.872852) can0 158#000000000000000A
(1735329626.872938) can0 17C#0000000010000003
(1735329626.873208) can0 1DC#0200000C
(1735329626.875346) can0 164#240000691700002E
(1735329626.878353) can0 18E#00005C
(1735329626.882365) can0 136#000200000000001B
(1735329626.882380) can0 13A#4400310000000095
(1735329626.882429) can0 13F#0000000000000014
(1735329626.882722) can0 158#0000000000000019
(1735329626.882796) can0 039#000C
(1735329626.883166) can0 17C#0000000010000012
(1735329626.883270) can0 305#8E37
(1735329626.883613) can0 1A4#0000000000000009
(1735329626.883845) can0 1B0#00000000000048
(1735329626.884100) can0 1D0#000000000000000A
(1735329626.885414) can0 164#240000691700003D
(1735329626.888396) can0 18E#00006B
(1735329626.892363) can0 136#000200000000002A
(1735329626.892377) can0 13A#44003100000000A4
(1735329626.892435) can0 13F#0000000000000023
(1735329626.892766) can0 158#0000000000000028
(1735329626.892931) can0 17C#0000000010000021
(1735329626.893280) can0 1DC#0200001B
(1735329626.895586) can0 164#2400006917000000
(1735329626.895742) can0 039#001B
(1735329626.898066) can0 18E#00007A
(1735329626.902348) can0 136#0002000000000039
(1735329626.902363) can0 13A#44003100000000B3
(1735329626.902443) can0 13F#0000000000000032
(1735329626.902757) can0 158#0000000000000037
(1735329626.903005) can0 17C#0000000010000030
(1735329626.903652) can0 1A4#0000000000000018
(1735329626.903867) can0 1B0#00000000000057
(1735329626.904125) can0 1D0#000000000000000A
(1735329626.904568) can0 294#048C00026445001B
(1735329626.905421) can0 164#240000691700001F
(1735329626.908385) can0 18E#00004D
(1735329626.912270) can0 136#000200000000000C
(1735329626.912284) can0 13A#4400310000000086
(1735329626.912476) can0 13F#00000000FEC0000C
(1735329626.912742) can0 158#000000000000000A
(1735329626.913000) can0 17C#0000002010000001
(1735329626.913120) can0 1DC#02002028
(1735329626.915505) can0 164#240000691700002E
(1735329626.915773) can0 039#002A
(1735329626.918347) can0 18E#00005C
(1735329626.922245) can0 136#000200000000001B
(1735329626.922259) can0 13A#4400310000000095
(1735329626.922430) can0 13F#0000000000000014
(1735329626.922751) can0 158#0000000000000019
(1735329626.922995) can0 17C#0000002010000010
(1735329626.923643) can0 1A4#0000000000000027
(1735329626.923845) can0 1B0#00000000000066
(1735329626.924132) can0 1D0#000000000000000A
(1735329626.924425) can0 309#00000000000000A2
(1735329626.925667) can0 164#240000691700003D
(1735329626.928158) can0 18E#00006B
(1735329626.929996) can0 039#0039
(1735329626.931976) can0 136#000200000000002A
(1735329626.932252) can0 13A#44003100000000A4
(1735329626.932456) can0 13F#0000000000000023
(1735329626.932753) can0 158#0000000000000028
(1735329626.932995) can0 17C#000000201000002F
(1735329626.933086) can0 1DC#02002037
(1735329626.935496) can0 164#2400006917000000
(1735329626.938379) can0 18E#00007A
(1735329626.942356) can0 136#0002000000000039
(1735329626.942371) can0 13A#44003100000000B3
(1735329626.942451) can0 13F#0000000000000032
(1735329626.942760) can0 158#0000000000000037
(1735329626.942987) can0 17C#000000201000003E
(1735329626.943604) can0 1A4#0000000000000036
(1735329626.943812) can0 1B0#00000000000075
(1735329626.944209) can0 1D0#000000000000000A
(1735329626.944426) can0 294#048C00026445002A
(1735329626.944915) can0 039#000C
(1735329626.945404) can0 164#240000691700001F
(1735329626.948353) can0 18E#00004D
(1735329626.952380) can0 136#000200000000000C
(1735329626.952396) can0 13A#4400310000000086
(1735329626.952475) can0 13F#0000000000000005
(1735329626.952760) can0 158#000000000000000A
(1735329626.953013) can0 17C#0000002010000001
(1735329626.953146) can0 1DC#0200200A
(1735329626.953346) can0 320#000003
(1735329626.953553) can0 324#674D069000000E04
(1735329626.953799) can0 37C#0000000002
(1735329626.953965) can0 40C#0330393434330002
(1735329626.954168) can0 454#32F502
(1735329626.954302) can0 465#8EC847532F3404
(1735329626.955310) can0 164#240000691700002E
(1735329626.958364) can0 18E#00005C
(1735329626.958827) can0 039#001B
(1735329626.962329) can0 136#000200000000001B
(1735329626.962343) can0 13A#4400310000000095
(1735329626.962440) can0 13F#0000000000000014
(1735329626.962843) can0 158#0000000000000019
(1735329626.962926) can0 17C#0000002000000011
(1735329626.963920) can0 1A4#0000000000000009
(1735329626.963935) can0 1B0#00000000000048
(1735329626.964105) can0 1D0#000000000000000A
(1735329626.965460) can0 164#240000691700003D
(1735329626.968376) can0 18E#00006B
(1735329626.972344) can0 136#000200000000002A
(1735329626.972358) can0 13A#44003100000000A4
(1735329626.972444) can0 13F#0000000000000023
(1735329626.972766) can0 158#0000000000000028
(1735329626.972828) can0 039#002A
(1735329626.973186) can0 17C#0000002000000020
(1735329626.973301) can0 1DC#02002019
(1735329626.975491) can0 164#2400006917000000
(1735329626.978391) can0 18E#00007A
(1735329626.982345) can0 136#0002000000000039
(1735329626.982359) can0 13A#44003100000000B3
(1735329626.982436) can0 13F#0000000000000032
(1735329626.982745) can0 158#0000000000000037
(1735329626.982989) can0 17C#000000200000003F
(1735329626.983907) can0 1A4#0000000000000018
(1735329626.983921) can0 1B0#00000000000057
(1735329626.984146) can0 1D0#000000000000000A
(1735329626.984431) can0 294#048C000264450039
(1735329626.985277) can0 164#240000691700001F
(1735329626.985863) can0 039#0039
(1735329626.986467) can0 305#8E0A
(1735329626.988335) can0 18E#00004D
(1735329626.992280) can0 136#000200000000000C
(1735329626.992295) can0 13A#4400310000000086
(1735329626.992484) can0 13F#0000000000000005
(1735329626.992862) can0 158#000000000000000A
(1735329626.993010) can0 17C#0000002000000002
(1735329626.993173) can0 1DC#02002028
(1735329626.995816) can0 164#240000691700002E
(1735329626.998394) can0 18E#00005C
(1735329626.999976) can0 039#000C
(1735329627.002030) can0 136#000200000000001B
(1735329627.002193) can0 13A#4400310000000095
(1735329627.002625) can0 13F#0000000000000014
(1735329627.002700) can0 158#0000000000000019
(1735329627.002991) can0 17C#0000002000000011
(1735329627.003668) can0 1A4#0000000000000027
(1735329627.003912) can0 1B0#00000000000066
(1735329627.004143) can0 1D0#000000000000000A
(1735329627.005324) can0 164#240000691700003D
(1735329627.008391) can0 18E#00006B
(1735329627.012348) can0 136#000200000000002A
(1735329627.012363) can0 13A#44003100000000A4
(1735329627.012432) can0 13F#0000000000000023
(1735329627.012736) can0 158#0000000000000028
(1735329627.012993) can0 17C#0000002000000020
(1735329627.013152) can0 1DC#02002037
(1735329627.015504) can0 164#2400006917000000
(1735329627.018439) can0 18E#00007A
(1735329627.019804) can0 039#001B
(1735329627.022319) can0 136#0002000000000039
(1735329627.022335) can0 13A#44003100000000B3
(1735329627.022516) can0 13F#0000000000000032
(1735329627.022741) can0 158#0000000000000037
(1735329627.023025) can0 17C#000000200000003F
(1735329627.023929) can0 1A4#0000000000000036
(1735329627.023944) can0 1B0#00000000000075
(1735329627.024171) can0 1D0#000000000000000A
(1735329627.024430) can0 309#00000000000000B1
(1735329627.024645) can0 294#048C00026445000C
(1735329627.025313) can0 164#240000691700001F
(1735329627.028374) can0 18E#00004D
(1735329627.032359) can0 136#000200000000000C
(1735329627.032373) can0 13A#4400310000000086
(1735329627.032435) can0 13F#0000000000000005
(1735329627.032745) can0 158#000000000000000A
(1735329627.033037) can0 17C#0000002000000002
(1735329627.033167) can0 1DC#0200200A
(1735329627.033763) can0 039#002A
(1735329627.035479) can0 164#240000691700002E
(1735329627.038072) can0 18E#00005C
(1735329627.042336) can0 136#000200000000001B
(1735329627.042350) can0 13A#4400310000000095
(1735329627.042484) can0 13F#0000000000000014
(1735329627.042741) can0 158#0000000000000019
(1735329627.043000) can0 17C#0000002000000011
(1735329627.043924) can0 1A4#0000000000000009
(1735329627.043939) can0 1B0#00000000000048
(1735329627.044175) can0 1D0#000000000000000A
(1735329627.045428) can0 164#240000691700003D
(1735329627.048103) can0 18E#00006B
(1735329627.049926) can0 039#0039
(1735329627.052322) can0 136#000200000000002A
(1735329627.052336) can0 13A#44003100000000A4
(1735329627.052457) can0 13F#0000000000000023
(1735329627.052750) can0 158#0000000000000028
(1735329627.052994) can0 17C#0000002000000020
(1735329627.053174) can0 1DC#02002019
(1735329627.053332) can0 320#000012
(1735329627.053565) can0 324#674D06A400000E1E
(1735329627.053766) can0 37C#0000000011
(1735329627.055503) can0 164#2400006917000000
(1735329627.058411) can0 18E#00007A
(1735329627.062306) can0 136#0002000000000039
(1735329627.062320) can0 13A#44003100000000B3
(1735329627.062482) can0 13F#0000000000000032
(1735329627.062760) can0 158#0000000000000037
(1735329627.063007) can0 17C#000000200000003F
(1735329627.063712) can0 1A4#0000000000000018
(1735329627.063843) can0 039#000C
(1735329627.064091) can0 1B0#00000000000057
(1735329627.064321) can0 294#048C00026445001B
(1735329627.064557) can0 1D0#000000000000000A
(1735329627.065567) can0 164#240000691700001F
(1735329627.068401) can0 18E#00004D
(1735329627.072025) can0 136#000200000000000C
(1735329627.072232) can0 13A#4400310000000086
(1735329627.072485) can0 13F#0000000000000005
(1735329627.072745) can0 158#000000000000000A
(1735329627.072999) can0 17C#0000002000000002
(1735329627.073168) can0 1DC#02002028
(1735329627.075512) can0 164#240000691700002E
(1735329627.078386) can0 18E#00005C
(1735329627.082339) can0 136#000200000000001B
(1735329627.082353) can0 13A#4400310000000095
(1735329627.082494) can0 13F#0000000000000014
(1735329627.082715) can0 158#0000000000000019
(1735329627.082980) can0 17C#0000002000000011
(1735329627.083695) can0 1A4#0000000000000027
(1735329627.083819) can0 039#001B
(1735329627.084185) can0 1B0#00000000000066
(1735329627.084268) can0 1D0#000000000000000A
(1735329627.085279) can0 164#240000691700003D
(1735329627.088408) can0 18E#00006B
(1735329627.091061) can0 305#8E19
(1735329627.092259) can0 136#000200000000002A
(1735329627.092273) can0 13A#44003100000000A4
(1735329627.092490) can0 13F#00000000FAC4002A
(1735329627.092734) can0 158#0000000000000028
(1735329627.092993) can0 17C#000000A600000022
(1735329627.093136) can0 1DC#0200A639
(1735329627.095397) can0 164#2400006917000000
(1735329627.097083) can0 039#002A
(1735329627.098361) can0 18E#00007A
(1735329627.102072) can0 136#0002000000000039
(1735329627.102238) can0 13A#44003100000000B3
(1735329627.102569) can0 13F#0000000000000032
(1735329627.102745) can0 158#0000000000000037
(1735329627.103005) can0 17C#000000A600000031
(1735329627.103696) can0 1A4#0000000000000036
(1735329627.103926) can0 1B0#00000000000075
(1735329627.104195) can0 1D0#000000000000000A
(1735329627.104465) can0 294#048C00026445002A
(1735329627.105342) can0 164#240000691700001F
(1735329627.108188) can0 18E#00004D
(1735329627.111058) can0 039#0039
(1735329627.112257) can0 136#000200000000000C
(1735329627.112272) can0 13A#4400310000000086
(1735329627.112499) can0 13F#0000000000000005
(1735329627.112751) can0 158#000000000000000A
(1735329627.112991) can0 17C#000000A600000004
(1735329627.113149) can0 1DC#0200A60C
(1735329627.115525) can0 164#240000691700002E
(1735329627.118080) can0 18E#00005C
(1735329627.121562) can0 428#06010000EAEB20
(1735329627.121577) can0 42A#0026
(1735329627.122194) can0 136#000200000000001B
(1735329627.122208) can0 13A#4400310000000095
(1735329627.122502) can0 13F#0000000000000014
(1735329627.122775) can0 158#0000000000000019
(1735329627.122986) can0 17C#000000A600000013
(1735329627.123744) can0 1A4#0000000000000009
(1735329627.123932) can0 1B0#00000000000048
(1735329627.124339) can0 1D0#000000000000000A
(1735329627.124387) can0 309#0000000000000084
(1735329627.124972) can0 039#000C
(1735329627.125330) can0 164#240000691700003D
(1735329627.128425) can0 18E#00006B
(1735329627.132082) can0 136#000200000000002A
(1735329627.132244) can0 13A#44003100000000A4
(1735329627.132543) can0 13F#0000000000000023
(1735329627.132746) can0 158#0000000000000028
(1735329627.133013) can0 17C#000000A600000022
(1735329627.133162) can0 1DC#0200A61B
(1735329627.135584) can0 164#2400006917000000
(1735329627.138377) can0 18E#00007A
(1735329627.142266) can0 136#0002000000000039
(1735329627.142281) can0 13A#44003100000000B3
(1735329627.142483) can0 13F#0000000000000032
(1735329627.142761) can0 158#0000000000000037
(1735329627.142994) can0 17C#000000A600000031
(1735329627.143688) can0 1A4#0000000000000018
(1735329627.143958) can0 1B0#00000000000057
(1735329627.144231) can0 1D0#000000000000000A
(1735329627.144451) can0 294#048C000264450039
(1735329627.145342) can0 164#240000691800001E
(1735329627.145722) can0 039#001B
(1735329627.148038) can0 18E#00004D
(1735329627.152004) can0 136#000200000000000C
(1735329627.152257) can0 13A#4400310000000086
(1735329627.152509) can0 13F#0000000000000005
(1735329627.152759) can0 158#000000000000000A
(1735329627.153026) can0 17C#000000A600000004
(1735329627.153172) can0 1DC#0200A62A
(1735329627.153324) can0 320#000021
(1735329627.153493) can0 324#674D06B800000E28
(1735329627.153697) can0 37C#0000000020
(1735329627.155508) can0 164#240000691700002E
(1735329627.158387) can0 18E#00005C
(1735329627.158820) can0 039#002A
(1735329627.162336) can0 136#000200000000001B
(1735329627.162350) can0 13A#4400310000000095
(1735329627.162483) can0 13F#0000000000000014
(1735329627.162739) can0 158#0000000000000019
(1735329627.162986) can0 17C#000000A600000013
(1735329627.163722) can0 1A4#0000000000000027
(1735329627.163981) can0 1B0#00000000000066
(1735329627.164234) can0 1D0#000000000000000A
(1735329627.165369) can0 164#240000691700003D
(1735329627.168217) can0 18E#00006B
(1735329627.172303) can0 136#000200000000002A
(1735329627.172318) can0 13A#44003100000000A4
(1735329627.172482) can0 13F#0000000000000023
(1735329627.172759) can0 158#0000000000000028
(1735329627.172992) can0 17C#000000A600000022
(1735329627.173149) can0 1DC#0200A639
(1735329627.173917) can0 039#0039
(1735329627.175475) can0 164#2400006917000000
(1735329627.178118) can0 18E#00007A
(1735329627.182018) can0 136#0002000000000039
(1735329627.182233) can0 13A#44003100000000B3
(1735329627.182503) can0 13F#0000000000000032
(1735329627.182766) can0 158#0000000000000037
(1735329627.182996) can0 17C#000000A600000031
(1735329627.183698) can0 1A4#0000000000000036
(1735329627.183968) can0 1B0#00000000000075
(1735329627.184209) can0 1D0#000000000000000A
(1735329627.184605) can0 294#048C00026445000C
(1735329627.185446) can0 164#240000691700001F
(1735329627.187928) can0 039#000C
(1735329627.188085) can0 18E#00004D
(1735329627.192353) can0 136#000200000000000C
(1735329627.192367) can0 13A#4400310000000086
(1735329627.192510) can0 13F#0000000000000005
(1735329627.192738) can0 158#000000000000000A
(1735329627.192984) can0 17C#000000A600000004
(1735329627.193142) can0 1DC#0200A60C
(1735329627.195058) can0 305#8E28
(1735329627.195350) can0 164#240000691700002E
(1735329627.198396) can0 18E#00005C
(1735329627.200883) can0 039#001B
(1735329627.202246) can0 136#000200000000001B
(1735329627.202261) can0 13A#4400310000000095
(1735329627.202480) can0 13F#0000000000000014
(1735329627.202733) can0 158#0000000000000019
(1735329627.202989) can0 17C#000000A600000013
(1735329627.203749) can0 1A4#0000000000000009
(1735329627.203959) can0 1B0#00000000000048
(1735329627.204271) can0 1D0#000000000000000A
(1735329627.205680) can0 164#240000691700003D
(1735329627.208413) can0 18E#00006B
(1735329627.212201) can0 136#000200000000002A
(1735329627.212215) can0 13A#44003100000000A4
(1735329627.212482) can0 13F#0000000000000023
(1735329627.212747) can0 158#0000000000000028
(1735329627.212988) can0 17C#000000A600000022
(1735329627.213148) can0 1DC#0200A61B
(1735329627.215518) can0 164#2400006917000000
(1735329627.215756) can0 039#002A
(1735329627.218302) can0 18E#00007A
(1735329627.222257) can0 136#0002000000000039
(1735329627.222272) can0 13A#44003100000000B3
(1735329627.222489) can0 13F#0000000000000032
(1735329627.222764) can0 158#0000000000000037
(1735329627.222975) can0 17C#000000A600000031
(1735329627.223768) can0 1A4#0000000000000018
(1735329627.223985) can0 1B0#00000000000057
(1735329627.224240) can0 1D0#000000000000000A
(1735329627.224484) can0 309#0000000000000093
(1735329627.224739) can0 294#048C00026445001B
(1735329627.225375) can0 164#240000691700001F
(1735329627.228271) can0 18E#00004D
(1735329627.229848) can0 039#0039
(1735329627.232195) can0 136#000200000000000C
(1735329627.232206) can0 13A#4400310000000086
(1735329627.232478) can0 13F#0000000000000005
(1735329627.232742) can0 158#000000000000000A
(1735329627.232989) can0 17C#000000A600000004
(1735329627.233141) can0 1DC#0200A62A
(1735329627.235375) can0 164#240000691700002E
(1735329627.238388) can0 18E#00005C
(1735329627.242360) can0 136#000200000000001B
(1735329627.242374) can0 13A#4400310000000095
(1735329627.242436) can0 13F#00000000FE5C0016
(1735329627.242762) can0 158#0000000000000019
(1735329627.242997) can0 17C#000000D000000016
(1735329627.243757) can0 1A4#0000000000000027
(1735329627.244004) can0 1B0#00000000000066
(1735329627.244247) can0 1D0#000000000000000A
(1735329627.245362) can0 164#240000691700003D
(1735329627.248431) can0 18E#00006B
(1735329627.250007) can0 039#000C
(1735329627.252339) can0 136#000200000000002A
(1735329627.252353) can0 13A#44003100000000A4
(1735329627.252514) can0 13F#0000000000000023
(1735329627.252793) can0 158#0000000000000028
(1735329627.253014) can0 17C#000000D000000025
(1735329627.253169) can0 1DC#0200D03C
(1735329627.253340) can0 320#000030
(1735329627.253556) can0 324#674D06CC00000E32
(1735329627.253734) can0 37C#000000003F
(1735329627.253996) can0 40C#0000000004000013
(1735329627.254141) can0 454#32F511
(1735329627.254345) can0 465#8EC847532F3413
(1735329627.255338) can0 164#2400006917000000
(1735329627.258226) can0 18E#00007A
(1735329627.262360) can0 136#0002000000000039
(1735329627.262375) can0 13A#44003100000000B3
(1735329627.262434) can0 13F#0000000000000032
(1735329627.262747) can0 158#0000000000000037
(1735329627.262883) can0 039#001B
(1735329627.263135) can0 17C#000000D000000034
(1735329627.263763) can0 1A4#0000000000000036
(1735329627.264009) can0 1B0#00000000000075
(1735329627.264270) can0 1D0#000000000000000A
(1735329627.264526) can0 294#048C00026445002A
(1735329627.265486) can0 164#240000691700001F
(1735329627.268437) can0 18E#00004D
(1735329627.272118) can0 136#000200000000000C
(1735329627.272202) can0 13A#4400310000000086
(1735329627.272518) can0 13F#0000000000000005
(1735329627.272744) can0 158#000000000000000A
(1735329627.273015) can0 17C#000000D000000007
(1735329627.273153) can0 1DC#0200D00F
(1735329627.275847) can0 164#240000691700002E
(1735329627.278406) can0 18E#00005C
(1735329627.278919) can0 039#002A
(1735329627.282209) can0 136#000200000000001B
(1735329627.282224) can0 13A#4400310000000095
(1735329627.282499) can0 13F#0000000000000014
(1735329627.282699) can0 158#0000000000000019
(1735329627.283013) can0 17C#000000D000000016
(1735329627.283769) can0 1A4#0000000000000009
(1735329627.284006) can0 1B0#00000000000048
(1735329627.284249) can0 1D0#000000000000000A
(1735329627.285384) can0 164#240000691700003D
(1735329627.288143) can0 18E#00006B
(1735329627.292073) can0 136#000200000000002A
(1735329627.292236) can0 13A#44003100000000A4
(1735329627.292485) can0 13F#0000000000000023
(1735329627.292748) can0 158#0000000000000028
(1735329627.292881) can0 039#0039
(1735329627.293132) can0 17C#000000D000000025
(1735329627.293289) can0 1DC#0200D01E
(1735329627.295505) can0 164#2400006917000000
(1735329627.298425) can0 18E#00007A
(1735329627.299525) can0 305#8E37
(1735329627.302076) can0 136#0002000000000039
(1735329627.302240) can0 13A#44003100000000B3
(1735329627.302534) can0 13F#0000000000000032
(1735329627.302730) can0 158#0000000000000037
(1735329627.302993) can0 17C#000000D000000034
(1735329627.303765) can0 1A4#0000000000000018
(1735329627.304006) can0 1B0#00000000000057
(1735329627.304284) can0 1D0#000000000000000A
(1735329627.304518) can0 294#048C000264450039
(1735329627.305455) can0 164#240000691700001F
(1735329627.305800) can0 039#000C
(1735329627.308293) can0 18E#00004D
(1735329627.312045) can0 136#000200000000000C
(1735329627.312235) can0 13A#4400310000000086
(1735329627.312494) can0 13F#0000000000000005
(1735329627.312766) can0 158#000000000000000A
(1735329627.312978) can0 17C#000000D000000007
(1735329627.313155) can0 1DC#0200D02D
(1735329627.315381) can0 164#240000691700002E
(1735329627.318270) can0 18E#00005C
(1735329627.319955) can0 039#001B
(1735329627.322046) can0 136#000200000000001B
(1735329627.322238) can0 13A#4400310000000095
(1735329627.322506) can0 13F#0000000000000014
(1735329627.322731) can0 158#0000000000000019
(1735329627.322923) can0 17C#000000D000000016
(1735329627.323912) can0 1A4#0000000000000027
(1735329627.323971) can0 1B0#00000000000066
(1735329627.324291) can0 1D0#000000000000000A
(1735329627.324586) can0 309#00000000000000A2
(1735329627.325519) can0 164#240000691700003D
(1735329627.328344) can0 18E#00006B
(1735329627.332197) can0 136#000200000000002A
(1735329627.332210) can0 13A#44003100000000A4
(1735329627.332498) can0 13F#0000000000000023
(1735329627.332712) can0 158#0000000000000028
(1735329627.332983) can0 17C#000000D000000025
(1735329627.333163) can0 1DC#0200D03C
(1735329627.333959) can0 039#002A
(1735329627.335502) can0 164#2400006917000000
(1735329627.338148) can0 18E#00007A
(1735329627.342299) can0 136#0002000000000039
(1735329627.342313) can0 13A#44003100000000B3
(1735329627.342479) can0 13F#0000000000000032
(1735329627.342758) can0 158#0000000000000037
(1735329627.342987) can0 17C#000000D000000034
(1735329627.343792) can0 1A4#0000000000000036
(1735329627.344019) can0 1B0#00000000000075
(1735329627.344303) can0 1D0#000000000000000A
(1735329627.344538) can0 294#048C00026445000C
(1735329627.345551) can0 164#240000691700001F
(1735329627.347486) can0 039#0039
(1735329627.348213) can0 18E#00004D
(1735329627.352286) can0 136#000200000000000C
(1735329627.352301) can0 13A#4400310000000086
(1735329627.352506) can0 13F#0000000000000005
(1735329627.352749) can0 158#000000000000000A
(1735329627.352939) can0 17C#000000D000000007
(1735329627.353122) can0 1DC#0200D00F
(1735329627.353325) can0 320#000003
(1735329627.353502) can0 324#674D06E000000E0F
(1735329627.353775) can0 37C#0000000002
(1735329627.355568) can0 164#240000691700002E
(1735329627.358443) can0 18E#00005C
(1735329627.361782) can0 039#000C
(1735329627.362054) can0 136#000200000000001B
(1735329627.362317) can0 13A#4400310000000095
(1735329627.362479) can0 13F#0000000000000014
(1735329627.362916) can0 158#0000000000000019
(1735329627.362991) can0 17C#000000D000000016
(1735329627.363848) can0 1A4#0000000000000009
(1735329627.364071) can0 1B0#00000000000048
(1735329627.364334) can0 1D0#000000000000000A
(1735329627.365310) can0 164#240000691700003D
(1735329627.368330) can0 18E#00006B
(1735329627.372252) can0 136#000200000000002A
(1735329627.372267) can0 13A#44003100000000A4
(1735329627.372507) can0 13F#00000000FF9C0020
(1735329627.372885) can0 158#0000000000000028
(1735329627.372935) can0 17C#000000DA0000002B
(1735329627.373146) can0 1DC#0200DA14
(1735329627.375426) can0 164#2400006917000000
(1735329627.376984) can0 039#001B
(1735329627.378318) can0 18E#00007A
(1735329627.382360) can0 136#0002000000000039
(1735329627.382375) can0 13A#44003100000000B3
(1735329627.382419) can0 13F#0000000000000032
(1735329627.382737) can0 158#0000000000000037
(1735329627.383008) can0 17C#000000DA0000003A
(1735329627.383945) can0 1A4#0000000000000018
(1735329627.383985) can0 1B0#00000000000057
(1735329627.384314) can0 1D0#000000000000000A
(1735329627.384539) can0 294#048C00026445001B
(1735329627.385384) can0 164#240000691700001F
(1735329627.388452) can0 18E#00004D
(1735329627.392359) can0 136#000200000000000C
(1735329627.392374) can0 13A#4400310000000086
(1735329627.392443) can0 13F#0000000000000005
(1735329627.392742) can0 158#000000000000000A
(1735329627.393005) can0 17C#000000DA0000000D
(1735329627.393175) can0 1DC#0200DA23
(1735329627.395576) can0 164#240000691700002E
(1735329627.396788) can0 039#002A
(1735329627.398377) can0 18E#00005C
(1735329627.402358) can0 136#000200000000001B
(1735329627.402373) can0 13A#4400310000000095
(1735329627.402442) can0 13F#0000000000000014
(1735329627.402742) can0 158#0000000000000019
(1735329627.403003) can0 17C#000000DA0000001C
(1735329627.403296) can0 305#8E0A
(1735329627.403980) can0 1A4#0000000000000027
(1735329627.404019) can0 1B0#00000000000066
(1735329627.404315) can0 1D0#000000000000000A
(1735329627.405384) can0 164#240000691700003D
(1735329627.408126) can0 18E#00006B
(1735329627.409913) can0 039#0039
(1735329627.412298) can0 136#000200000000002A
(1735329627.412314) can0 13A#44003100000000A4
(1735329627.412495) can0 13F#0000000000000023
(1735329627.412750) can0 158#0000000000000028
(1735329627.413001) can0 17C#000000DA0000002B
(1735329627.413158) can0 1DC#0200DA32
(1735329627.415935) can0 164#2400006917000000
(1735329627.418471) can0 18E#00007A
(1735329627.421493) can0 428#06010000EAEB3F
(1735329627.421508) can0 42A#0035
(1735329627.422130) can0 136#0002000000000039
(1735329627.422180) can0 13A#44003100000000B3
(1735329627.422488) can0 13F#0000000000000032
(1735329627.422746) can0 158#0000000000000037
(1735329627.423008) can0 17C#000000DA0000003A
(1735329627.423487) can0 039#000C
(1735329627.423973) can0 1A4#0000000000000036
(1735329627.424023) can0 1B0#00000000000075
(1735329627.424333) can0 1D0#000000000000000A
(1735329627.424512) can0 309#00000000000000B1
(1735329627.424919) can0 294#048C00026445002A
(1735329627.425422) can0 164#240000691700001F
(1735329627.428358) can0 18E#00004D
(1735329627.432207) can0 136#000200000000000C
(1735329627.432222) can0 13A#4400310000000086
(1735329627.432489) can0 13F#0000000000000005
(1735329627.432751) can0 158#000000000000000A
(1735329627.433023) can0 17C#000000DA0000000D
(1735329627.433160) can0 1DC#0200DA05
(1735329627.435545) can0 164#240000691700002E
(1735329627.437545) can0 039#001B
(1735329627.438394) can0 18E#00005C
(1735329627.442074) can0 136#000200000000001B
(1735329627.442258) can0 13A#4400310000000095
(1735329627.442493) can0 13F#0000000000000014
(1735329627.442747) can0 158#0000000000000019
(1735329627.442956) can0 17C#000000DA0000001C
(1735329627.443829) can0 1A4#0000000000000009
(1735329627.444090) can0 1B0#00000000000048
(1735329627.444350) can0 1D0#000000000000000A
(1735329627.445544) can0 164#240000691700003D
(1735329627.448165) can0 18E#00006B
(1735329627.450579) can0 039#002A
(1735329627.452172) can0 136#000200000000002A
(1735329627.452218) can0 13A#44003100000000A4
(1735329627.452522) can0 13F#0000000000000023
(1735329627.452745) can0 158#0000000000000028
(1735329627.453013) can0 17C#000000DA0000002B
(1735329627.453162) can0 1DC#0200DA14
(1735329627.453314) can0 320#000012
(1735329627.453550) can0 324#674D06F400000E19
(1735329627.453752) can0 37C#0000000011
(1735329627.455626) can0 164#2400006917000000
(1735329627.458455) can0 18E#00007A
(1735329627.462342) can0 136#0002000000000039
(1735329627.462357) can0 13A#44003100000000B3
(1735329627.462514) can0 13F#0000000000000032
(1735329627.462757) can0 158#0000000000000037
(1735329627.463022) can0 17C#000000DA0000003A
(1735329627.463860) can0 1A4#0000000000000018
(1735329627.464116) can0 1B0#00000000000057
(1735329627.464394) can0 1D0#000000000000000A
(1735329627.464621) can0 294#048C000264450039
(1735329627.465499) can0 164#240000691700001F
(1735329627.465829) can0 039#0039
(1735329627.468430) can0 18E#00004D
(1735329627.472369) can0 136#000200000000000C
(1735329627.472384) can0 13A#4400310000000086
(1735329627.472453) can0 13F#0000000000000005
(1735329627.472764) can0 158#000000000000000A
(1735329627.473003) can0 17C#000000DA0000000D
(1735329627.473159) can0 1DC#0200DA23
(1735329627.475575) can0 164#240000691700002E
(1735329627.478374) can0 18E#00005C
(1735329627.479862) can0 039#000C
(1735329627.482308) can0 136#000200000000001B
(1735329627.482323) can0 13A#4400310000000095
(1735329627.482495) can0 13F#0000000000000014
(1735329627.482755) can0 158#0000000000000019
(1735329627.482979) can0 17C#000000DA0000001C
(1735329627.483989) can0 1A4#0000000000000027
(1735329627.484031) can0 1B0#00000000000066
(1735329627.484355) can0 1D0#000000000000000A
(1735329627.485922) can0 164#240000691700003D
(1735329627.488444) can0 18E#00006B
(1735329627.492283) can0 136#000200000000002A
(1735329627.492298) can0 13A#44003100000000A4
(1735329627.492490) can0 13F#0000000000000023
(1735329627.492752) can0 158#0000000000000028
(1735329627.493007) can0 17C#000000DA0000002B
(1735329627.493155) can0 1DC#0200DA32
(1735329627.495428) can0 164#2400006917000000
(1735329627.498433) can0 18E#00007A
(1735329627.499862) can0 039#001B
(1735329627.502002) can0 136#0002000000000039
(1735329627.502277) can0 13A#44003100000000B3
(1735329627.502497) can0 13F#0000000000000032
(1735329627.502731) can0 158#0000000000000037
