(1735328454.951186) can0 1DC#0200000C
(1735328454.953775) can0 18E#00005C
(1735328454.955455) can0 164#240000691700003D
(1735328454.960063) can0 136#000200000000001B
(1735328454.960321) can0 13A#4200310000000097
(1735328454.960574) can0 13F#0000000000000014
(1735328454.960816) can0 158#0000000000000019
(1735328454.960883) can0 039#000C
(1735328454.961201) can0 17C#0000000010000012
(1735328454.963863) can0 18E#00006B
(1735328454.965469) can0 164#2400006917000000
(1735328454.968586) can0 1A4#0000000000000009
(1735328454.968833) can0 1B0#00000000000048
(1735328454.969088) can0 1D0#000000000000000A
(1735328454.970084) can0 136#000200000000002A
(1735328454.970324) can0 13A#42003100000000A6
(1735328454.970581) can0 13F#0000000000000023
(1735328454.970825) can0 158#0000000000000028
(1735328454.971050) can0 17C#0000000010000021
(1735328454.971187) can0 1DC#0200001B
(1735328454.971393) can0 320#000012
(1735328454.971623) can0 324#68500D3400000E19
(1735328454.971828) can0 37C#0000000011
(1735328454.973323) can0 305#8E19
(1735328454.973556) can0 294#048C00026445002A
(1735328454.973861) can0 18E#00007A
(1735328454.975457) can0 309#00000000000000B1
(1735328454.975704) can0 164#240000691700001F
(1735328454.980066) can0 136#0002000000000039
(1735328454.980297) can0 13A#42003100000000B5
(1735328454.980550) can0 13F#0000000000000032
(1735328454.980832) can0 158#0000000000000037
(1735328454.981047) can0 17C#0000000010000030
(1735328454.981792) can0 039#001B
(1735328454.984156) can0 18E#00004D
(1735328454.985469) can0 164#240000691700002E
(1735328454.988939) can0 1A4#0000000000000018
(1735328454.988949) can0 1B0#00000000000057
(1735328454.989092) can0 1D0#000000000000000A
(1735328454.990211) can0 136#000200000000000C
(1735328454.990286) can0 13A#4200310000000088
(1735328454.990542) can0 13F#0000000000000005
(1735328454.990765) can0 158#000000000000000A
(1735328454.991130) can0 17C#0000000010000003
(1735328454.991168) can0 1DC#0200002A
(1735328454.994005) can0 18E#00005C
(1735328454.996163) can0 164#240000691700003D
(1735328455.000519) can0 136#000200000000001B
(1735328455.000528) can0 13A#4200310000000097
(1735328455.000530) can0 13F#0000000000000014
(1735328455.001022) can0 158#0000000000000019
(1735328455.001027) can0 17C#0000000010000012
(1735328455.002973) can0 039#002A
(1735328455.003792) can0 18E#00006B
(1735328455.005486) can0 164#2400006917000000
(1735328455.008650) can0 1A4#0000000000000027
(1735328455.008879) can0 1B0#00000000000066
(1735328455.009297) can0 1D0#000000000000000A
(1735328455.010136) can0 136#000200000000002A
(1735328455.010318) can0 13A#42003100000000A6
(1735328455.010786) can0 13F#0000000000000023
(1735328455.010796) can0 158#0000000000000028
(1735328455.011308) can0 17C#0000000010000021
(1735328455.011317) can0 1DC#02000039
(1735328455.013582) can0 294#048C000264450039
(1735328455.013852) can0 18E#00007A
(1735328455.015876) can0 164#240000691700001F
(1735328455.016959) can0 039#0039
(1735328455.020474) can0 136#0002000000000039
(1735328455.020484) can0 13A#42003100000000B5
(1735328455.020503) can0 13F#0000000000000032
(1735328455.021112) can0 158#0000000000000037
(1735328455.021121) can0 17C#0000000010000030
(1735328455.024197) can0 18E#00004D
(1735328455.025506) can0 164#240000691700002E
(1735328455.028704) can0 1A4#0000000000000036
(1735328455.028846) can0 1B0#00000000000075
(1735328455.029090) can0 1D0#000000000000000A
(1735328455.030063) can0 136#000200000000000C
(1735328455.030369) can0 13A#4200310000000088
(1735328455.030580) can0 13F#0000000000000005
(1735328455.030854) can0 158#000000000000000A
(1735328455.030905) can0 039#000C
(1735328455.031323) can0 17C#0000000010000003
(1735328455.031355) can0 1DC#0200000C
(1735328455.034176) can0 18E#00005C
(1735328455.035841) can0 164#240000691700003D
(1735328455.040345) can0 136#000200000000001B
(1735328455.040359) can0 13A#4200310000000097
(1735328455.040566) can0 13F#0000000000000014
(1735328455.040844) can0 158#0000000000000019
(1735328455.041098) can0 17C#0000000010000012
(1735328455.044200) can0 18E#00006B
(1735328455.044741) can0 039#001B
(1735328455.045652) can0 164#2400006917000000
(1735328455.048866) can0 1A4#0000000000000009
(1735328455.048881) can0 1B0#00000000000048
(1735328455.049115) can0 1D0#000000000000000A
(1735328455.050066) can0 136#000200000000002A
(1735328455.050341) can0 13A#42003100000000A6
(1735328455.050607) can0 13F#0000000000000023
(1735328455.050834) can0 158#0000000000000028
(1735328455.051098) can0 17C#0000000010000021
(1735328455.051245) can0 1DC#0200001B
(1735328455.053516) can0 294#048C00026445000C
(1735328455.053863) can0 18E#00007A
(1735328455.055511) can0 164#240000691700001F
(1735328455.057050) can0 039#002A
(1735328455.060366) can0 136#0002000000000039
(1735328455.060383) can0 13A#42003100000000B5
(1735328455.060589) can0 13F#0000000000000032
(1735328455.060824) can0 158#0000000000000037
(1735328455.061096) can0 17C#0000000010000030
(1735328455.063869) can0 18E#00004D
(1735328455.065903) can0 164#240000691700002E
(1735328455.068864) can0 1A4#0000000000000018
(1735328455.068879) can0 1B0#00000000000057
(1735328455.069146) can0 1D0#000000000000000A
(1735328455.070127) can0 136#000200000000000C
(1735328455.070350) can0 13A#4200310000000088
(1735328455.070632) can0 13F#0000000000000005
(1735328455.070841) can0 158#000000000000000A
(1735328455.070975) can0 039#0039
(1735328455.071226) can0 17C#0000000010000003
(1735328455.071443) can0 1DC#0200002A
(1735328455.071577) can0 320#000021
(1735328455.071812) can0 324#68500D4800000E23
(1735328455.071976) can0 37C#0000000020
(1735328455.073881) can0 18E#00005C
(1735328455.074449) can0 428#06010000EAEB20
(1735328455.074599) can0 42A#0026
(1735328455.075495) can0 309#0000000000000084
(1735328455.075762) can0 164#240000691700003D
(1735328455.078084) can0 305#8E28
(1735328455.080303) can0 136#000200000000001B
(1735328455.080319) can0 13A#4200310000000097
(1735328455.080596) can0 13F#0000000000000014
(1735328455.080822) can0 158#0000000000000019
(1735328455.081088) can0 17C#0000000010000012
(1735328455.084123) can0 18E#00006B
(1735328455.085542) can0 164#2400006917000000
(1735328455.085864) can0 039#000C
(1735328455.088794) can0 1A4#0000000000000027
(1735328455.088845) can0 1B0#00000000000066
(1735328455.089164) can0 1D0#000000000000000A
(1735328455.090139) can0 136#000200000000002A
(1735328455.090366) can0 13A#42003100000000A6
(1735328455.090584) can0 13F#0000000000000023
(1735328455.090827) can0 158#0000000000000028
(1735328455.091095) can0 17C#0000000010000021
(1735328455.091255) can0 1DC#02000039
(1735328455.093723) can0 294#048C00026445001B
(1735328455.093878) can0 18E#00007A
(1735328455.095816) can0 164#240000691700001F
(1735328455.099134) can0 039#001B
(1735328455.100371) can0 136#0002000000000039
(1735328455.100386) can0 13A#42003100000000B5
(1735328455.100596) can0 13F#0000000000000032
(1735328455.100841) can0 158#0000000000000037
(1735328455.101118) can0 17C#0000000010000030
(1735328455.104177) can0 18E#00004D
(1735328455.105793) can0 164#240000691700002E
(1735328455.108664) can0 1A4#0000000000000036
(1735328455.108926) can0 1B0#00000000000075
(1735328455.109162) can0 1D0#000000000000000A
(1735328455.110138) can0 136#000200000000000C
(1735328455.110364) can0 13A#4200310000000088
(1735328455.110627) can0 13F#0000000000000005
(1735328455.110843) can0 158#000000000000000A
(1735328455.111092) can0 17C#0000000010000003
(1735328455.111273) can0 1DC#0200000C
(1735328455.113153) can0 039#002A
(1735328455.113869) can0 18E#00005C
(1735328455.115817) can0 164#240000691700003D
(1735328455.120464) can0 136#000200000000001B
(1735328455.120480) can0 13A#4200310000000097
(1735328455.120550) can0 13F#0000000000000014
(1735328455.120864) can0 158#0000000000000019
(1735328455.121093) can0 17C#0000000010000012
(1735328455.123922) can0 18E#00006B
(1735328455.125516) can0 164#2400006917000000
(1735328455.128803) can0 1A4#0000000000000009
(1735328455.128854) can0 1B0#00000000000048
(1735328455.129170) can0 1D0#000000000000000A
(1735328455.130125) can0 039#0039
(1735328455.130140) can0 136#000200000000002A
(1735328455.130365) can0 13A#42003100000000A6
(1735328455.130622) can0 13F#0000000000000023
(1735328455.130861) can0 158#0000000000000028
(1735328455.131091) can0 17C#0000000010000021
(1735328455.131213) can0 1DC#0200001B
(1735328455.133533) can0 294#048C00026445002A
(1735328455.133896) can0 18E#00007A
(1735328455.135840) can0 164#240000691700001F
(1735328455.140436) can0 136#0002000000000039
(1735328455.140452) can0 13A#42003100000000B5
(1735328455.140603) can0 13F#0000000000000032
(1735328455.140843) can0 158#0000000000000037
(1735328455.141098) can0 17C#0000000010000030
(1735328455.143150) can0 039#000C
(1735328455.144000) can0 18E#00004D
(1735328455.145494) can0 164#240000691700002E
(1735328455.148829) can0 1A4#0000000000000018
(1735328455.148905) can0 1B0#00000000000057
(1735328455.149210) can0 1D0#000000000000000A
(1735328455.150151) can0 136#000200000000000C
(1735328455.150346) can0 13A#4200310000000088
(1735328455.150623) can0 13F#00000000FE5C0007
(1735328455.150846) can0 158#000000000000000A
(1735328455.151110) can0 17C#0000002A10000007
(1735328455.151261) can0 1DC#02002A2E
(1735328455.154187) can0 18E#00005C
(1735328455.155814) can0 164#240000691700003D
(1735328455.160405) can0 136#000200000000001B
(1735328455.160421) can0 13A#4200310000000097
(1735328455.160591) can0 13F#0000000000000014
(1735328455.160994) can0 158#0000000000000019
(1735328455.161071) can0 17C#0000002A10000016
(1735328455.162097) can0 039#001B
(1735328455.163974) can0 18E#00006B
(1735328455.165832) can0 164#2400006917000000
(1735328455.168827) can0 1A4#0000000000000027
(1735328455.168882) can0 1B0#00000000000066
(1735328455.169193) can0 1D0#000000000000000A
(1735328455.170178) can0 136#000200000000002A
(1735328455.170376) can0 13A#42003100000000A6
(1735328455.170655) can0 13F#0000000000000023
(1735328455.170872) can0 158#0000000000000028
(1735328455.171138) can0 17C#0000002A10000025
(1735328455.171283) can0 1DC#02002A3D
(1735328455.171468) can0 320#000030
(1735328455.171668) can0 324#68500D5C00000E3D
(1735328455.171871) can0 37C#000000003F
(1735328455.172133) can0 40C#0000000004000013
(1735328455.172266) can0 454#32F511
(1735328455.172479) can0 465#8EC847532F3413
(1735328455.173572) can0 294#048C000264450039
(1735328455.173903) can0 18E#00007A
(1735328455.175559) can0 309#0000000000000093
(1735328455.175616) can0 039#002A
(1735328455.175909) can0 164#240000691700001F
(1735328455.180417) can0 136#0002000000000039
(1735328455.180437) can0 13A#42003100000000B5
(1735328455.180581) can0 13F#0000000000000032
(1735328455.180822) can0 158#0000000000000037
(1735328455.181118) can0 17C#0000002A10000034
(1735328455.182892) can0 305#8E37
(1735328455.183945) can0 18E#00004D
(1735328455.185538) can0 164#240000691700002E
(1735328455.188998) can0 1A4#0000000000000036
(1735328455.189009) can0 1B0#00000000000075
(1735328455.189212) can0 1D0#000000000000000A
(1735328455.190169) can0 039#0039
(1735328455.190184) can0 136#000200000000000C
(1735328455.190394) can0 13A#4200310000000088
(1735328455.190650) can0 13F#0000000000000005
(1735328455.190903) can0 158#000000000000000A
(1735328455.191133) can0 17C#0000002A10000007
(1735328455.191270) can0 1DC#02002A00
(1735328455.194152) can0 18E#00005C
(1735328455.195546) can0 164#240000691700003D
(1735328455.200426) can0 136#000200000000001B
(1735328455.200441) can0 13A#4200310000000097
(1735328455.200606) can0 13F#0000000000000014
(1735328455.200913) can0 158#0000000000000019
(1735328455.201106) can0 17C#0000002A10000016
(1735328455.203111) can0 039#000C
(1735328455.204096) can0 18E#00006B
(1735328455.205802) can0 164#2400006917000000
(1735328455.208875) can0 1A4#0000000000000009
(1735328455.208905) can0 1B0#00000000000048
(1735328455.209257) can0 1D0#000000000000000A
(1735328455.210172) can0 136#000200000000002A
(1735328455.210363) can0 13A#42003100000000A6
(1735328455.210646) can0 13F#0000000000000023
(1735328455.210863) can0 158#0000000000000028
(1735328455.211125) can0 17C#0000002A10000025
(1735328455.211275) can0 1DC#02002A1F
(1735328455.213573) can0 294#048C00026445000C
(1735328455.213917) can0 18E#00007A
(1735328455.215572) can0 164#240000691700001F
(1735328455.219070) can0 039#001B
(1735328455.220383) can0 136#0002000000000039
(1735328455.220399) can0 13A#42003100000000B5
(1735328455.220602) can0 13F#0000000000000032
(1735328455.220876) can0 158#0000000000000037
(1735328455.221101) can0 17C#0000002A10000034
(1735328455.224092) can0 18E#00004D
(1735328455.225547) can0 164#240000691800002D
(1735328455.228908) can0 1A4#0000000000000018
(1735328455.228955) can0 1B0#00000000000057
(1735328455.229266) can0 1D0#000000000000000A
(1735328455.230126) can0 136#000200000000000C
(1735328455.230393) can0 13A#4200310000000088
(1735328455.230614) can0 13F#0000000000000005
(1735328455.230877) can0 158#000000000000000A
(1735328455.231138) can0 17C#0000002A10000007
(1735328455.231283) can0 1DC#02002A2E
(1735328455.234187) can0 18E#00005C
(1735328455.234202) can0 039#002A
(1735328455.235830) can0 164#240000691700003D
(1735328455.240089) can0 136#000200000000001B
(1735328455.240357) can0 13A#4200310000000097
(1735328455.240607) can0 13F#0000000000000014
(1735328455.240839) can0 158#0000000000000019
(1735328455.241072) can0 17C#0000002A10000016
(1735328455.244179) can0 18E#00006B
(1735328455.245856) can0 164#2400006917000000
(1735328455.248998) can0 1A4#0000000000000027
(1735328455.249013) can0 1B0#00000000000066
(1735328455.249209) can0 1D0#000000000000000A
(1735328455.250081) can0 136#000200000000002A
(1735328455.250374) can0 13A#42003100000000A6
(1735328455.250637) can0 13F#0000000000000023
(1735328455.250900) can0 158#0000000000000028
(1735328455.251105) can0 17C#0000002A10000025
(1735328455.251261) can0 1DC#02002A3D
(1735328455.253152) can0 039#0039
(1735328455.253564) can0 294#048C00026445001B
(1735328455.253952) can0 18E#00007A
(1735328455.255695) can0 164#240000691700001F
(1735328455.260135) can0 136#0002000000000039
(1735328455.260378) can0 13A#42003100000000B5
(1735328455.260640) can0 13F#0000000000000032
(1735328455.260902) can0 158#0000000000000037
(1735328455.261114) can0 17C#0000002A10000034
(1735328455.263939) can0 18E#00004D
(1735328455.265824) can0 164#240000691700002E
(1735328455.269010) can0 1A4#0000000000000036
(1735328455.269025) can0 1B0#00000000000075
(1735328455.269235) can0 1D0#000000000000000A
(1735328455.270140) can0 136#000200000000000C
(1735328455.270397) can0 13A#4200310000000088
(1735328455.270654) can0 13F#0000000000000005
(1735328455.270909) can0 158#000000000000000A
(1735328455.271160) can0 17C#0000002A10000007
(1735328455.271293) can0 1DC#02002A00
(1735328455.271449) can0 320#000003
(1735328455.271703) can0 324#68500D7000000E0A
(1735328455.271877) can0 37C#0000000002
(1735328455.273079) can0 039#000C
(1735328455.273924) can0 18E#00005C
(1735328455.276169) can0 309#00000000000000A2
(1735328455.276184) can0 164#240000691700003D
(1735328455.280480) can0 136#000200000000001B
(1735328455.280495) can0 13A#4200310000000097
(1735328455.280643) can0 13F#0000000000000014
(1735328455.280908) can0 158#0000000000000019
(1735328455.281120) can0 17C#0000002A00000017
(1735328455.284003) can0 18E#00006B
(1735328455.285380) can0 305#8E0A
(1735328455.285596) can0 164#2400006917000000
(1735328455.289010) can0 1A4#0000000000000009
(1735328455.289026) can0 1B0#00000000000048
(1735328455.289265) can0 1D0#000000000000000A
(1735328455.290137) can0 136#000200000000002A
(1735328455.290375) can0 13A#42003100000000A6
(1735328455.290625) can0 13F#0000000000000023
(1735328455.290888) can0 158#0000000000000028
(1735328455.291134) can0 17C#0000002A00000026
(1735328455.291256) can0 1DC#02002A1F
(1735328455.293564) can0 294#048C00026445002A
(1735328455.293966) can0 18E#00007A
(1735328455.294020) can0 039#001B
(1735328455.295764) can0 164#240000691700001F
(1735328455.300475) can0 136#0002000000000039
(1735328455.300491) can0 13A#42003100000000B5
(1735328455.300638) can0 13F#0000000000000032
(1735328455.300909) can0 158#0000000000000037
(1735328455.301137) can0 17C#0000002A00000035
(1735328455.303977) can0 18E#00004D
(1735328455.305608) can0 164#240000691700002E
(1735328455.307475) can0 039#002A
(1735328455.308934) can0 1A4#0000000000000018
(1735328455.308981) can0 1B0#00000000000057
(1735328455.309278) can0 1D0#000000000000000A
(1735328455.310154) can0 136#000200000000000C
(1735328455.310378) can0 13A#4200310000000088
(1735328455.310640) can0 13F#00000000FA240006
(1735328455.310904) can0 158#000000000000000A
(1735328455.311126) can0 17C#000000C000000008
(1735328455.311312) can0 1DC#0200C02E
(1735328455.314197) can0 18E#00005C
(1735328455.315586) can0 164#240000691700003D
(1735328455.320342) can0 136#000200000000001B
(1735328455.320357) can0 13A#4200310000000097
(1735328455.320528) can0 039#0039
(1735328455.320907) can0 13F#0000000000000014
(1735328455.320960) can0 158#0000000000000019
(1735328455.321253) can0 17C#000000C000000017
(1735328455.323957) can0 18E#00006B
(1735328455.325736) can0 164#2400006917000000
(1735328455.328995) can0 1A4#0000000000000027
(1735328455.329010) can0 1B0#00000000000066
(1735328455.329283) can0 1D0#000000000000000A
(1735328455.330265) can0 136#000200000000002A
(1735328455.330355) can0 13A#42003100000000A6
(1735328455.330658) can0 13F#0000000000000023
(1735328455.330830) can0 158#0000000000000028
(1735328455.331160) can0 17C#000000C000000026
(1735328455.331274) can0 1DC#0200C03D
(1735328455.333586) can0 294#048C000264450039
(1735328455.334006) can0 18E#00007A
(1735328455.335623) can0 164#240000691700001F
(1735328455.335965) can0 039#000C
(1735328455.340326) can0 136#0002000000000039
(1735328455.340373) can0 13A#42003100000000B5
(1735328455.340626) can0 13F#0000000000000032
(1735328455.340879) can0 158#0000000000000037
(1735328455.341135) can0 17C#000000C000000035
(1735328455.344217) can0 18E#00004D
(1735328455.345784) can0 164#240000691700002E
(1735328455.348986) can0 1A4#0000000000000036
(1735328455.349044) can0 1B0#00000000000075
(1735328455.349268) can0 1D0#000000000000000A
(1735328455.350304) can0 136#000200000000000C
(1735328455.350357) can0 13A#4200310000000088
(1735328455.350643) can0 13F#0000000000000005
(1735328455.350910) can0 158#000000000000000A
(1735328455.351136) can0 17C#000000C000000008
(1735328455.351330) can0 1DC#0200C000
(1735328455.354253) can0 18E#00005C
(1735328455.354961) can0 039#001B
(1735328455.355786) can0 164#240000691700003D
(1735328455.360458) can0 136#000200000000001B
(1735328455.360473) can0 13A#4200310000000097
(1735328455.360627) can0 13F#0000000000000014
(1735328455.360923) can0 158#0000000000000019
(1735328455.361136) can0 17C#000000C000000017
(1735328455.364235) can0 18E#00006B
(1735328455.365892) can0 164#2400006917000000
(1735328455.369010) can0 1A4#0000000000000009
(1735328455.369026) can0 1B0#00000000000048
(1735328455.369313) can0 1D0#000000000000000A
(1735328455.370308) can0 136#000200000000002A
(1735328455.370352) can0 13A#42003100000000A6
(1735328455.370671) can0 13F#0000000000000023
(1735328455.370887) can0 158#0000000000000028
(1735328455.371171) can0 17C#000000C000000026
(1735328455.371324) can0 1DC#0200C01F
(1735328455.371484) can0 320#000012
(1735328455.371741) can0 324#68500D8400000E14
(1735328455.371896) can0 37C#0000000011
(1735328455.373959) can0 294#048C00026445000C
(1735328455.373974) can0 18E#00007A
(1735328455.374547) can0 428#06010000EAEB3F
(1735328455.374696) can0 42A#0035
(1735328455.374946) can0 039#002A
(1735328455.375583) can0 309#00000000000000B1
(1735328455.375846) can0 164#240000691700001F
(1735328455.380340) can0 136#0002000000000039
(1735328455.380356) can0 13A#42003100000000B5
(1735328455.380670) can0 13F#0000000000000032
(1735328455.380889) can0 158#0000000000000037
(1735328455.381151) can0 17C#000000C000000035
(1735328455.384065) can0 18E#00004D
(1735328455.385707) can0 164#240000691700002E
(1735328455.387948) can0 305#8E19
(1735328455.388804) can0 1A4#0000000000000018
(1735328455.389020) can0 1B0#00000000000057
(1735328455.389286) can0 1D0#000000000000000A
(1735328455.390221) can0 136#000200000000000C
(1735328455.390405) can0 13A#4200310000000088
(1735328455.390640) can0 13F#0000000000000005
(1735328455.390894) can0 158#000000000000000A
(1735328455.391125) can0 17C#000000C000000008
(1735328455.391315) can0 1DC#0200C02E
(1735328455.394240) can0 18E#00005C
(1735328455.395701) can0 164#240000691700003D
(1735328455.397164) can0 039#0039
(1735328455.400283) can0 136#000200000000001B
(1735328455.400347) can0 13A#4200310000000097
(1735328455.400609) can0 13F#0000000000000014
(1735328455.400902) can0 158#0000000000000019
(1735328455.401168) can0 17C#000000C000000017
(1735328455.404266) can0 18E#00006B
(1735328455.405791) can0 164#2400006917000000
(1735328455.408859) can0 1A4#0000000000000027
(1735328455.409074) can0 1B0#00000000000066
(1735328455.409278) can0 1D0#000000000000000A
(1735328455.410038) can0 039#000C
(1735328455.410155) can0 136#000200000000002A
(1735328455.410452) can0 13A#42003100000000A6
(1735328455.410715) can0 13F#0000000000000023
(1735328455.410979) can0 158#0000000000000028
(1735328455.411199) can0 17C#000000C000000026
(1735328455.411367) can0 1DC#0200C03D
(1735328455.413734) can0 294#048C00026445001B
(1735328455.413971) can0 18E#00007A
(1735328455.416162) can0 164#240000691700001F
(1735328455.420491) can0 136#0002000000000039
(1735328455.420508) can0 13A#42003100000000B5
(1735328455.420658) can0 13F#0000000000000032
(1735328455.420945) can0 158#0000000000000037
(1735328455.421141) can0 17C#000000C000000035
(1735328455.423957) can0 18E#00004D
(1735328455.424984) can0 039#001B
(1735328455.425611) can0 164#240000691700002E
(1735328455.428869) can0 1A4#0000000000000036
(1735328455.429026) can0 1B0#00000000000075
(1735328455.429294) can0 1D0#000000000000000A
(1735328455.430171) can0 136#000200000000000C
(1735328455.430402) can0 13A#4200310000000088
(1735328455.430656) can0 13F#0000000000000005
(1735328455.430853) can0 158#000000000000000A
(1735328455.431174) can0 17C#000000C000000008
(1735328455.431263) can0 1DC#0200C000
(1735328455.433998) can0 18E#00005C
(1735328455.435830) can0 164#240000691700003D
(1735328455.439330) can0 039#002A
(1735328455.440434) can0 136#000200000000001B
(1735328455.440449) can0 13A#4200310000000097
(1735328455.440654) can0 13F#0000000000000014
(1735328455.440883) can0 158#0000000000000019
(1735328455.441152) can0 17C#000000C000000017
(1735328455.444110) can0 18E#00006B
(1735328455.445879) can0 164#2400006917000000
(1735328455.448977) can0 1A4#0000000000000009
(1735328455.449069) can0 1B0#00000000000048
(1735328455.449374) can0 1D0#000000000000000A
(1735328455.450382) can0 136#000200000000002A
(1735328455.450391) can0 13A#42003100000000A6
(1735328455.450662) can0 13F#00000000FF24002F
(1735328455.450887) can0 158#0000000000000028
(1735328455.451148) can0 17C#000000D60000002F
(1735328455.451257) can0 1DC#0200D618
(1735328455.453673) can0 294#048C00026445002A
(1735328455.453942) can0 18E#00007A
(1735328455.455834) can0 164#240000691700001F
(1735328455.458947) can0 039#0039
(1735328455.460282) can0 136#0002000000000039
(1735328455.460335) can0 13A#42003100000000B5
(1735328455.460656) can0 13F#0000000000000032
(1735328455.460916) can0 158#0000000000000037
(1735328455.461172) can0 17C#000000D60000003E
(1735328455.464122) can0 18E#00004D
(1735328455.465815) can0 164#240000691700002E
(1735328455.469153) can0 1A4#0000000000000018
(1735328455.469168) can0 1B0#00000000000057
(1735328455.469376) can0 1D0#000000000000000A
(1735328455.470305) can0 136#000200000000000C
(1735328455.470382) can0 13A#4200310000000088
(1735328455.470649) can0 13F#0000000000000005
(1735328455.470915) can0 158#000000000000000A
(1735328455.471182) can0 17C#000000D600000001
(1735328455.471311) can0 1DC#0200D627
(1735328455.471510) can0 320#000021
(1735328455.471732) can0 324#68500D9800000E2E
(1735328455.471914) can0 37C#0000000020
(1735328455.472170) can0 40C#013248474647322F
(1735328455.472303) can0 454#32F520
(1735328455.472503) can0 465#8EC847532F3422
(1735328455.473959) can0 18E#00005C
(1735328455.475747) can0 309#0000000000000084
(1735328455.475897) can0 164#240000691700003D
(1735328455.479265) can0 039#000C
(1735328455.480294) can0 136#000200000000001B
(1735328455.480382) can0 13A#4200310000000097
(1735328455.480664) can0 13F#0000000000000014
(1735328455.480896) can0 158#0000000000000019
(1735328455.481155) can0 17C#000000D600000010
(1735328455.484241) can0 18E#00006B
(1735328455.485995) can0 164#2400006917000000
(1735328455.488958) can0 1A4#0000000000000027
(1735328455.489118) can0 1B0#00000000000066
(1735328455.489397) can0 1D0#000000000000000A
(1735328455.490307) can0 136#000200000000002A
(1735328455.490382) can0 13A#42003100000000A6
(1735328455.490694) can0 13F#0000000000000023
(1735328455.490909) can0 158#0000000000000028
(1735328455.491165) can0 17C#000000D60000002F
(1735328455.491350) can0 1DC#0200D636
(1735328455.493213) can0 039#001B
(1735328455.493590) can0 294#048C000264450039
(1735328455.493753) can0 305#8E28
(1735328455.494022) can0 18E#00007A
(1735328455.495766) can0 164#240000691700001F
(1735328455.500499) can0 136#0002000000000039
(1735328455.500515) can0 13A#42003100000000B5
(1735328455.500671) can0 13F#0000000000000032
(1735328455.500934) can0 158#0000000000000037
(1735328455.501166) can0 17C#000000D60000003E
(1735328455.504334) can0 18E#00004D
(1735328455.505768) can0 164#240000691700002E
(1735328455.508955) can0 1A4#0000000000000036
(1735328455.508996) can0 039#002A
(1735328455.509294) can0 1B0#00000000000075
(1735328455.509501) can0 1D0#000000000000000A
(1735328455.510292) can0 136#000200000000000C
(1735328455.510454) can0 13A#4200310000000088
(1735328455.510675) can0 13F#0000000000000005
(1735328455.510930) can0 158#000000000000000A
(1735328455.511157) can0 17C#000000D600000001
(1735328455.511341) can0 1DC#0200D609
(1735328455.513991) can0 18E#00005C
(1735328455.515810) can0 164#240000691700003D
(1735328455.520451) can0 136#000200000000001B
(1735328455.520466) can0 13A#4200310000000097
(1735328455.520653) can0 13F#0000000000000014
(1735328455.520954) can0 158#0000000000000019
(1735328455.521156) can0 17C#000000D600000010
(1735328455.523332) can0 039#0039
(1735328455.524008) can0 18E#00006B
(1735328455.525774) can0 164#2400006917000000
(1735328455.528902) can0 1A4#0000000000000009
(1735328455.529136) can0 1B0#00000000000048
(1735328455.529448) can0 1D0#000000000000000A
(1735328455.530309) can0 136#000200000000002A
(1735328455.530386) can0 13A#42003100000000A6
(1735328455.530788) can0 13F#0000000000000023
(1735328455.530942) can0 158#0000000000000028
(1735328455.531190) can0 17C#000000D60000002F
(1735328455.531287) can0 1DC#0200D618
(1735328455.533928) can0 294#048C00026445000C
(1735328455.533972) can0 18E#00007A
(1735328455.535661) can0 164#240000691700001F
(1735328455.535991) can0 039#000C
(1735328455.540453) can0 136#0002000000000039
(1735328455.540473) can0 13A#42003100000000B5
(1735328455.540630) can0 13F#0000000000000032
(1735328455.540872) can0 158#0000000000000037
(1735328455.541167) can0 17C#000000D60000003E
(1735328455.544282) can0 18E#00004D
(1735328455.545835) can0 164#240000691700002E
(1735328455.549103) can0 1A4#0000000000000018
(1735328455.549119) can0 039#001B
(1735328455.549281) can0 1B0#00000000000057
(1735328455.549683) can0 1D0#000000000000000A
(1735328455.550415) can0 136#000200000000000C
(1735328455.550431) can0 13A#4200310000000088
(1735328455.550676) can0 13F#0000000000000005
(1735328455.550932) can0 158#000000000000000A
(1735328455.551169) can0 17C#000000D600000001
(1735328455.551350) can0 1DC#0200D627
(1735328455.554262) can0 18E#00005C
(1735328455.556097) can0 164#240000691700003D
(1735328455.560327) can0 136#000200000000001B
(1735328455.560372) can0 13A#4200310000000097
(1735328455.560680) can0 13F#0000000000000014
(1735328455.560948) can0 158#0000000000000019
(1735328455.561178) can0 17C#000000D600000010
(1735328455.563299) can0 039#002A
(1735328455.564206) can0 18E#00006B
(1735328455.565780) can0 164#2400006917000000
(1735328455.569184) can0 1A4#0000000000000027
(1735328455.569200) can0 1B0#00000000000066
(1735328455.569434) can0 1D0#000000000000000A
(1735328455.570311) can0 136#000200000000002A
(1735328455.570445) can0 13A#42003100000000A6
(1735328455.570706) can0 13F#0000000000000023
(1735328455.570932) can0 158#0000000000000028
(1735328455.571189) can0 17C#000000D60000002F
(1735328455.571366) can0 1DC#0200D636
(1735328455.571505) can0 320#000030
(1735328455.571752) can0 324#68500DAC00000E38
(1735328455.571930) can0 37C#000000003F
(1735328455.573681) can0 294#048C00026445001B
(1735328455.574014) can0 18E#00007A
(1735328455.575006) can0 039#0039
(1735328455.575997) can0 309#0000000000000093
(1735328455.576008) can0 164#240000691700001F
(1735328455.580326) can0 136#0002000000000039
(1735328455.580396) can0 13A#42003100000000B5
(1735328455.580685) can0 13F#00000000FF9C003F
(1735328455.580938) can0 158#0000000000000037
(1735328455.581178) can0 17C#000000E000000033
(1735328455.584277) can0 18E#00004D
(1735328455.585773) can0 164#240000691700002E
(1735328455.589209) can0 1A4#0000000000000036
(1735328455.589224) can0 1B0#00000000000075
(1735328455.589464) can0 1D0#000000000000000A
(1735328455.590144) can0 039#000C
(1735328455.590309) can0 136#000200000000000C
(1735328455.590536) can0 13A#4200310000000088
(1735328455.590772) can0 13F#0000000000000005
(1735328455.591038) can0 158#000000000000000A
(1735328455.591288) can0 17C#000000E000000006
(1735328455.591396) can0 1DC#0200E00E
(1735328455.594205) can0 18E#00005C
(1735328455.595676) can0 164#240000691700003D
(1735328455.597120) can0 305#8E37
(1735328455.600333) can0 136#000200000000001B
(1735328455.600380) can0 13A#4200310000000097
(1735328455.600708) can0 13F#0000000000000014
(1735328455.600961) can0 158#0000000000000019
(1735328455.601186) can0 17C#000000E000000015
(1735328455.604271) can0 18E#00006B
(1735328455.605895) can0 164#2400006917000000
(1735328455.606056) can0 039#001B
(1735328455.608928) can0 1A4#0000000000000009
(1735328455.609185) can0 1B0#00000000000048
(1735328455.609459) can0 1D0#000000000000000A
(1735328455.610159) can0 136#000200000000002A
(1735328455.610446) can0 13A#42003100000000A6
(1735328455.610713) can0 13F#0000000000000023
(1735328455.610939) can0 158#0000000000000028
(1735328455.611193) can0 17C#000000E000000024
(1735328455.611350) can0 1DC#0200E01D
(1735328455.613994) can0 294#048C00026445002A
(1735328455.614010) can0 18E#00007A
(1735328455.615968) can0 164#240000691700001F
(1735328455.620454) can0 136#0002000000000039
(1735328455.620470) can0 13A#42003100000000B5
(1735328455.620683) can0 13F#0000000000000032
(1735328455.620971) can0 158#0000000000000037
(1735328455.621150) can0 17C#000000E000000033
(1735328455.624052) can0 18E#00004D
(1735328455.625988) can0 164#240000691700002E
(1735328455.627015) can0 039#002A
(1735328455.629299) can0 1A4#0000000000000018
(1735328455.629315) can0 1B0#00000000000057
(1735328455.629478) can0 1D0#000000000000000A
(1735328455.630475) can0 136#000200000000000C
(1735328455.630490) can0 13A#4200310000000088
(1735328455.630680) can0 13F#0000000000000005
(1735328455.630965) can0 158#000000000000000A
(1735328455.631192) can0 17C#000000E000000006
(1735328455.631353) can0 1DC#0200E02C
(1735328455.634292) can0 18E#00005C
(1735328455.635973) can0 164#240000691700003D
(1735328455.640225) can0 136#000200000000001B
(1735328455.640431) can0 13A#4200310000000097
(1735328455.640676) can0 13F#00000000F326001A
(1735328455.640818) can0 039#0039
(1735328455.641079) can0 158#0000000000000019
(1735328455.641341) can0 17C#0000022900000016
(1735328455.644224) can0 18E#00006B
(1735328455.645950) can0 164#2400006917000000
(1735328455.649262) can0 1A4#0000000000000027
(1735328455.649277) can0 1B0#00000000000066
(1735328455.649473) can0 1D0#000000000000000A
(1735328455.650311) can0 136#000200000000002A
(1735328455.650447) can0 13A#42003100000000A6
(1735328455.650708) can0 13F#0000000000000023
(1735328455.650968) can0 158#0000000000000028
(1735328455.651173) can0 17C#0000022900000025
(1735328455.651354) can0 1DC#0202293C
(1735328455.653382) can0 039#000C
(1735328455.653925) can0 294#048C000264450039
(1735328455.654076) can0 18E#00007A
(1735328455.655949) can0 164#240000691700001F
(1735328455.660523) can0 136#0002000000000039
(1735328455.660538) can0 13A#42003100000000B5
(1735328455.660696) can0 13F#0000000000000032
(1735328455.661096) can0 158#0000000000000037
(1735328455.661144) can0 17C#0000022900000034
(1735328455.664109) can0 18E#00004D
(1735328455.665869) can0 164#240000691700002E
(1735328455.668063) can0 039#001B
(1735328455.668961) can0 1A4#0000000000000036
(1735328455.669228) can0 1B0#00000000000075
(1735328455.669518) can0 1D0#000000000000000A
(1735328455.670321) can0 136#000200000000000C
(1735328455.670473) can0 13A#4200310000000088
(1735328455.670715) can0 13F#0000000000000005
(1735328455.670949) can0 158#000000000000000A
(1735328455.671207) can0 17C#0000022900000007
(1735328455.671388) can0 1DC#0202290F
(1735328455.671542) can0 320#000003
(1735328455.671802) can0 324#68500DC000000E05
(1735328455.671951) can0 37C#0000000002
(1735328455.674065) can0 18E#00005C
(1735328455.674951) can0 428#06010000EAEB02
(1735328455.675085) can0 42A#0008
(1735328455.675844) can0 309#00000000000000A2
(1735328455.675890) can0 164#240000691700003D
(1735328455.680345) can0 136#000200000000001B
(1735328455.680388) can0 13A#4200310000000097
(1735328455.680730) can0 13F#00000000FB96001B
(1735328455.680933) can0 158#0000000000000019
(1735328455.681187) can0 17C#0000029A0000001E
(1735328455.684380) can0 18E#00006B
(1735328455.686004) can0 164#2400006917000000
(1735328455.688404) can0 039#002A
(1735328455.689028) can0 1A4#0000000000000009
(1735328455.689266) can0 1B0#00000000000048
(1735328455.689520) can0 1D0#000000000000000A
(1735328455.690229) can0 136#000200000000002A
(1735328455.690475) can0 13A#42003100000000A6
(1735328455.690700) can0 13F#0000000000000023
(1735328455.690939) can0 158#0000000000000028
(1735328455.691200) can0 17C#0000029A0000002D
(1735328455.691320) can0 1DC#02029A16
