(1747185903.141380) can0 294#040C0002922A003D
(1747185903.142553) can0 164#0400005F4100001F
(1747185903.143852) can0 18E#00004D
(1747185903.144988) can0 1A4#0000000000000018
(1747185903.145236) can0 1B0#00000000000057
(1747185903.145544) can0 1D0#000000000000000A
(1747185903.145995) can0 039#001B
(1747185903.146544) can0 136#000200000000000C
(1747185903.146775) can0 13A#3E0031000000008D
(1747185903.147024) can0 13F#0000000000000005
(1747185903.147269) can0 158#000000000000000A
(1747185903.147581) can0 17C#0000000000000004
(1747185903.147753) can0 1DC#0200002A
(1747185903.152572) can0 164#0400005F4100002E
(1747185903.154049) can0 18E#00005C
(1747185903.156677) can0 136#000200000000001B
(1747185903.156778) can0 13A#3E0031000000009C
(1747185903.157062) can0 13F#0000000000000014
(1747185903.157373) can0 158#0000000000000019
(1747185903.157593) can0 17C#0000000000000013
(1747185903.159644) can0 039#002A
(1747185903.162514) can0 164#0400005F4100003D
(1747185903.164261) can0 18E#00006B
(1747185903.164978) can0 1A4#0000000000000027
(1747185903.165439) can0 1B0#00000000000066
(1747185903.165570) can0 1D0#000000000000000A
(1747185903.166764) can0 136#000200000000002A
(1747185903.166771) can0 13A#3E003100000000AB
(1747185903.167215) can0 13F#0000000000000023
(1747185903.167238) can0 158#0000000000000028
(1747185903.167733) can0 17C#0000000000000022
(1747185903.167740) can0 1DC#02000039
(1747185903.167850) can0 320#000030
(1747185903.168264) can0 324#7E4E161C00000E33
(1747185903.168271) can0 37C#000000003F
(1747185903.172667) can0 164#0400005F41000000
(1747185903.172674) can0 039#0039
(1747185903.173145) can0 305#8E37
(1747185903.173937) can0 18E#00007A
(1747185903.176784) can0 136#0002000000000039
(1747185903.176792) can0 13A#3E003100000000BA
(1747185903.177072) can0 13F#0000000000000032
(1747185903.177299) can0 158#0000000000000037
(1747185903.177699) can0 17C#0000000000000031
(1747185903.181606) can0 294#040C0002922A0000
(1747185903.182529) can0 164#0400005F4100001F
(1747185903.184007) can0 18E#00004D
(1747185903.185114) can0 1A4#0000000000000036
(1747185903.185271) can0 1B0#00000000000075
(1747185903.185681) can0 1D0#000000000000000A
(1747185903.186586) can0 136#000200000000000C
(1747185903.186786) can0 13A#3E0031000000008D
(1747185903.187039) can0 13F#0000000000000005
(1747185903.187318) can0 158#000000000000000A
(1747185903.187593) can0 17C#0000000000000004
(1747185903.187726) can0 1DC#0200000C
(1747185903.188140) can0 039#000C
(1747185903.192637) can0 164#0400005F4100002E
(1747185903.194170) can0 18E#00005C
(1747185903.196765) can0 136#000200000000001B
(1747185903.196777) can0 13A#3E0031000000009C
(1747185903.197048) can0 13F#0000000000000014
(1747185903.197265) can0 158#0000000000000019
(1747185903.197607) can0 17C#0000000000000013
(1747185903.201497) can0 039#001B
(1747185903.202568) can0 164#0400005F4100003D
(1747185903.204184) can0 18E#00006B
(1747185903.205307) can0 1A4#0000000000000009
(1747185903.205319) can0 1B0#00000000000048
(1747185903.205585) can0 1D0#000000000000000A
(1747185903.206585) can0 136#000200000000002A
(1747185903.206785) can0 13A#3E003100000000AB
(1747185903.207063) can0 13F#0000000000000023
(1747185903.207286) can0 158#0000000000000028
(1747185903.207588) can0 17C#0000000000000022
(1747185903.207724) can0 1DC#0200001B
(1747185903.212806) can0 164#0400005F41000000
(1747185903.214189) can0 18E#00007A
(1747185903.215304) can0 039#002A
(1747185903.216588) can0 136#0002000000000039
(1747185903.216781) can0 13A#3E003100000000BA
(1747185903.217039) can0 13F#0000000000000032
(1747185903.217296) can0 158#0000000000000037
(1747185903.217588) can0 17C#0000000000000031
(1747185903.221523) can0 294#040C0002922A001F
(1747185903.222449) can0 164#0400005F4100001F
(1747185903.224150) can0 18E#00004D
(1747185903.225311) can0 1A4#0000000000000018
(1747185903.225327) can0 1B0#00000000000057
(1747185903.225589) can0 1D0#000000000000000A
(1747185903.226603) can0 136#000200000000000C
(1747185903.226788) can0 13A#3E0031000000008D
(1747185903.227052) can0 13F#0000000000000005
(1747185903.227271) can0 158#000000000000000A
(1747185903.227604) can0 17C#0000000000000004
(1747185903.227636) can0 1DC#0200002A
(1747185903.229063) can0 039#0039
(1747185903.232671) can0 164#0400005F4100002E
(1747185903.234159) can0 18E#00005C
(1747185903.236565) can0 136#000200000000001B
(1747185903.236766) can0 13A#3E0031000000009C
(1747185903.237021) can0 13F#0000000000000014
(1747185903.237282) can0 158#0000000000000019
(1747185903.237587) can0 17C#0000000000000013
(1747185903.238374) can0 428#0701000118D10A
(1747185903.238532) can0 42A#0008
(1747185903.239344) can0 309#00000000000000A2
(1747185903.242420) can0 164#0400005F4100003D
(1747185903.244206) can0 18E#00006B
(1747185903.245298) can0 1A4#0000000000000027
(1747185903.245314) can0 1B0#00000000000066
(1747185903.245590) can0 1D0#000000000000000A
(1747185903.246725) can0 136#000200000000002A
(1747185903.246740) can0 13A#3E003100000000AB
(1747185903.247018) can0 13F#0000000000000023
(1747185903.247287) can0 158#0000000000000028
(1747185903.247597) can0 17C#0000000000000022
(1747185903.247629) can0 1DC#02000039
(1747185903.249409) can0 039#000C
(1747185903.252657) can0 164#0400005F41000000
(1747185903.254178) can0 18E#00007A
(1747185903.256763) can0 136#0002000000000039
(1747185903.256778) can0 13A#3E003100000000BA
(1747185903.257019) can0 13F#0000000000000032
(1747185903.257281) can0 158#0000000000000037
(1747185903.257503) can0 17C#0000000000000031
(1747185903.261794) can0 294#040C0002922A002E
(1747185903.262375) can0 164#0400005F4100001F
(1747185903.263364) can0 039#001B
(1747185903.263855) can0 18E#00004D
(1747185903.265298) can0 1A4#0000000000000036
(1747185903.265314) can0 1B0#00000000000075
(1747185903.265577) can0 1D0#000000000000000A
(1747185903.266588) can0 136#000200000000000C
(1747185903.266784) can0 13A#3E0031000000008D
(1747185903.267058) can0 13F#0000000000000005
(1747185903.267267) can0 158#000000000000000A
(1747185903.267602) can0 17C#0000000000000004
(1747185903.267658) can0 1DC#0200000C
(1747185903.267836) can0 320#000003
(1747185903.268103) can0 324#7E4E163000000E00
(1747185903.268274) can0 37C#0000000002
(1747185903.272663) can0 164#0400005F4100002E
(1747185903.274083) can0 18E#00005C
(1747185903.276756) can0 136#000200000000001B
(1747185903.276772) can0 13A#3E0031000000009C
(1747185903.277010) can0 13F#0000000000000014
(1747185903.277243) can0 158#0000000000000019
(1747185903.277514) can0 17C#0000000000000013
(1747185903.277654) can0 039#002A
(1747185903.278214) can0 305#8E0A
(1747185903.282844) can0 164#0400005F4100003D
(1747185903.284142) can0 18E#00006B
(1747185903.285140) can0 1A4#0000000000000009
(1747185903.285307) can0 1B0#00000000000048
(1747185903.285570) can0 1D0#000000000000000A
(1747185903.286597) can0 136#000200000000002A
(1747185903.286754) can0 13A#3E003100000000AB
(1747185903.287026) can0 13F#0000000000000023
(1747185903.287263) can0 158#0000000000000028
(1747185903.287493) can0 17C#0000000000000022
(1747185903.287670) can0 1DC#0200001B
(1747185903.292664) can0 164#0400005F41000000
(1747185903.293051) can0 039#0039
(1747185903.293902) can0 18E#00007A
(1747185903.296683) can0 136#0002000000000039
(1747185903.296722) can0 13A#3E003100000000BA
(1747185903.297021) can0 13F#0000000000000032
(1747185903.297249) can0 158#0000000000000037
(1747185903.297566) can0 17C#0000000000000031
(1747185903.301647) can0 294#040C0002922A003D
(1747185903.302410) can0 164#0400005F4100001F
(1747185903.304132) can0 18E#00004D
(1747185903.305317) can0 1A4#0000000000000018
(1747185903.305333) can0 039#000C
(1747185903.305375) can0 1B0#00000000000057
(1747185903.305678) can0 1D0#000000000000000A
(1747185903.306568) can0 136#000200000000000C
(1747185903.306743) can0 13A#3E0031000000008D
(1747185903.307008) can0 13F#0000000000000005
(1747185903.307269) can0 158#000000000000000A
(1747185903.307438) can0 17C#0000000000000004
(1747185903.307657) can0 1DC#0200002A
(1747185903.312405) can0 164#0400005F4100002E
(1747185903.314033) can0 18E#00005C
(1747185903.316589) can0 136#000200000000001B
(1747185903.316685) can0 13A#3E0031000000009C
(1747185903.316997) can0 13F#0000000000000014
(1747185903.317257) can0 158#0000000000000019
(1747185903.317425) can0 17C#0000000000000013
(1747185903.318565) can0 039#001B
(1747185903.322615) can0 164#0400005F4100003D
(1747185903.324136) can0 18E#00006B
(1747185903.325308) can0 1A4#0000000000000027
(1747185903.325324) can0 1B0#00000000000066
(1747185903.325497) can0 1D0#000000000000000A
(1747185903.326512) can0 136#000200000000002A
(1747185903.326693) can0 13A#3E003100000000AB
(1747185903.327001) can0 13F#0000000000000023
(1747185903.327246) can0 158#0000000000000028
(1747185903.327508) can0 17C#0000000000000022
(1747185903.327684) can0 1DC#02000039
(1747185903.332314) can0 039#002A
(1747185903.332371) can0 164#0400005F41000000
(1747185903.334146) can0 18E#00007A
(1747185903.336677) can0 136#0002000000000039
(1747185903.336692) can0 13A#3E003100000000BA
(1747185903.336993) can0 13F#0000000000000032
(1747185903.337235) can0 158#0000000000000037
(1747185903.337689) can0 17C#0000000000000031
(1747185903.339576) can0 309#00000000000000B1
(1747185903.341582) can0 294#040C0002922A0000
(1747185903.342500) can0 164#0400005F4100001F
(1747185903.344109) can0 18E#00004D
(1747185903.344125) can0 039#0039
(1747185903.345176) can0 1A4#0000000000000036
(1747185903.345342) can0 1B0#00000000000075
(1747185903.345553) can0 1D0#000000000000000A
(1747185903.346568) can0 136#000200000000000C
(1747185903.346734) can0 13A#3E0031000000008D
(1747185903.347016) can0 13F#0000000000000005
(1747185903.347242) can0 158#000000000000000A
(1747185903.347563) can0 17C#0000000000000004
(1747185903.347599) can0 1DC#0200000C
(1747185903.352870) can0 164#0400005F4100002E
(1747185903.354120) can0 18E#00005C
(1747185903.356670) can0 136#000200000000001B
(1747185903.356686) can0 13A#3E0031000000009C
(1747185903.356972) can0 13F#0000000000000014
(1747185903.357237) can0 158#0000000000000019
(1747185903.357462) can0 17C#0000000000000013
(1747185903.359379) can0 039#000C
(1747185903.362618) can0 164#0400005F4100003D
(1747185903.364146) can0 18E#00006B
(1747185903.365142) can0 1A4#0000000000000009
(1747185903.365299) can0 1B0#00000000000048
(1747185903.365695) can0 1D0#000000000000000A
(1747185903.366585) can0 136#000200000000002A
(1747185903.366753) can0 13A#3E003100000000AB
(1747185903.367028) can0 13F#0000000000000023
(1747185903.367240) can0 158#0000000000000028
(1747185903.367550) can0 17C#0000000000000022
(1747185903.367693) can0 1DC#0200001B
(1747185903.367748) can0 320#000012
(1747185903.368195) can0 324#7E4E164400000E1A
(1747185903.368210) can0 37C#0000000011
(1747185903.368473) can0 40C#0231353336483732
(1747185903.368620) can0 454#17F63B
(1747185903.368826) can0 465#8EC847532F3431
(1747185903.372629) can0 164#0400005F41000000
(1747185903.374178) can0 18E#00007A
(1747185903.374193) can0 039#001B
(1747185903.376645) can0 136#0002000000000039
(1747185903.376695) can0 13A#3E003100000000BA
(1747185903.376997) can0 13F#0000000000000032
(1747185903.377227) can0 158#0000000000000037
(1747185903.377457) can0 17C#0000000000000031
(1747185903.381355) can0 305#8E19
(1747185903.381370) can0 294#040C0002922A001F
(1747185903.382332) can0 164#0400005F4100001F
(1747185903.384122) can0 18E#00004D
(1747185903.385261) can0 1A4#0000000000000018
(1747185903.385278) can0 1B0#00000000000057
(1747185903.385537) can0 1D0#000000000000000A
(1747185903.386475) can0 136#000200000000000C
(1747185903.386727) can0 13A#3E0031000000008D
(1747185903.386970) can0 13F#0000000000000005
(1747185903.387243) can0 158#000000000000000A
(1747185903.387455) can0 17C#0000000000000004
(1747185903.387641) can0 1DC#0200002A
(1747185903.388161) can0 039#002A
(1747185903.392639) can0 164#0400005F4100002E
(1747185903.394144) can0 18E#00005C
(1747185903.396660) can0 136#000200000000001B
(1747185903.396676) can0 13A#3E0031000000009C
(1747185903.396967) can0 13F#0000000000000014
(1747185903.397194) can0 158#0000000000000019
(1747185903.397475) can0 17C#0000000000000013
(1747185903.402479) can0 039#0039
(1747185903.402495) can0 164#0400005F4100003D
(1747185903.404159) can0 18E#00006B
(1747185903.405303) can0 1A4#0000000000000027
(1747185903.405319) can0 1B0#00000000000066
(1747185903.405536) can0 1D0#000000000000000A
(1747185903.406416) can0 136#000200000000002A
(1747185903.406709) can0 13A#3E003100000000AB
(1747185903.406990) can0 13F#0000000000000023
(1747185903.407194) can0 158#0000000000000028
(1747185903.407463) can0 17C#0000000000000022
(1747185903.407660) can0 1DC#02000039
(1747185903.412616) can0 164#0400005F41000000
(1747185903.414163) can0 18E#00007A
(1747185903.416653) can0 136#0002000000000039
(1747185903.416668) can0 13A#3E003100000000BA
(1747185903.416836) can0 039#000C
(1747185903.417109) can0 13F#0000000000000032
(1747185903.417342) can0 158#0000000000000037
(1747185903.417561) can0 17C#0000000000000031
(1747185903.421579) can0 294#040C0002922A002E
(1747185903.422632) can0 164#0400005F4100001F
(1747185903.424096) can0 18E#00004D
(1747185903.425150) can0 1A4#0000000000000036
(1747185903.425225) can0 1B0#00000000000075
(1747185903.425529) can0 1D0#000000000000000A
(1747185903.426390) can0 136#000200000000000C
(1747185903.426713) can0 13A#3E0031000000008D
(1747185903.426987) can0 13F#0000000000000005
(1747185903.427214) can0 158#000000000000000A
(1747185903.427527) can0 17C#0000000000000004
(1747185903.427669) can0 1DC#0200000C
(1747185903.432624) can0 164#0400005F4100002E
(1747185903.434107) can0 18E#00005C
(1747185903.436358) can0 039#001B
(1747185903.436403) can0 136#000200000000001B
(1747185903.436699) can0 13A#3E0031000000009C
(1747185903.436933) can0 13F#0000000000000014
(1747185903.437205) can0 158#0000000000000019
(1747185903.437439) can0 17C#0000000000000013
(1747185903.439554) can0 309#0000000000000084
(1747185903.442586) can0 164#0400005F4100003D
(1747185903.444105) can0 18E#00006B
(1747185903.445144) can0 1A4#0000000000000009
(1747185903.445308) can0 1B0#00000000000048
(1747185903.445586) can0 1D0#000000000000000A
(1747185903.446549) can0 136#000200000000002A
(1747185903.446706) can0 13A#3E003100000000AB
(1747185903.446993) can0 13F#0000000000000023
(1747185903.447185) can0 158#0000000000000028
(1747185903.447461) can0 17C#0000000000000022
(1747185903.447624) can0 1DC#0200001B
(1747185903.450309) can0 039#002A
(1747185903.452578) can0 164#0400005F41000000
(1747185903.454145) can0 18E#00007A
(1747185903.456638) can0 136#0002000000000039
(1747185903.456653) can0 13A#3E003100000000BA
(1747185903.456918) can0 13F#0000000000000032
(1747185903.457179) can0 158#0000000000000037
(1747185903.457437) can0 17C#0000000000000031
(1747185903.461598) can0 294#040C0002922A003D
(1747185903.462296) can0 164#0400005F4100001F
(1747185903.464084) can0 18E#00004D
(1747185903.465225) can0 1A4#0000000000000018
(1747185903.465241) can0 039#0039
(1747185903.465385) can0 1B0#00000000000057
(1747185903.465695) can0 1D0#000000000000000A
(1747185903.466652) can0 136#000200000000000C
(1747185903.466668) can0 13A#3E0031000000008D
(1747185903.466951) can0 13F#0000000000000005
(1747185903.467181) can0 158#000000000000000A
(1747185903.467452) can0 17C#0000000000000004
(1747185903.467618) can0 1DC#0200002A
(1747185903.467774) can0 320#000021
(1747185903.468000) can0 324#7E4E165800000E24
(1747185903.468207) can0 37C#0000000020
(1747185903.472719) can0 164#0400005F4100002E
(1747185903.473926) can0 18E#00005C
(1747185903.476621) can0 136#000200000000001B
(1747185903.476636) can0 13A#3E0031000000009C
(1747185903.476919) can0 13F#0000000000000014
(1747185903.477193) can0 158#0000000000000019
(1747185903.477428) can0 17C#0000000000000013
(1747185903.479285) can0 039#000C
(1747185903.482641) can0 164#0400005F4100003D
(1747185903.484102) can0 18E#00006B
(1747185903.485285) can0 1A4#0000000000000027
(1747185903.485300) can0 305#8E28
(1747185903.485340) can0 1B0#00000000000066
(1747185903.485680) can0 1D0#000000000000000A
(1747185903.486504) can0 136#000200000000002A
(1747185903.486686) can0 13A#3E003100000000AB
(1747185903.486969) can0 13F#0000000000000023
(1747185903.487162) can0 158#0000000000000028
(1747185903.487418) can0 17C#0000000000000022
(1747185903.487579) can0 1DC#02000039
(1747185903.492396) can0 039#001B
(1747185903.492610) can0 164#0400005F41000000
(1747185903.493933) can0 18E#00007A
(1747185903.496615) can0 136#0002000000000039
(1747185903.496631) can0 13A#3E003100000000BA
(1747185903.496914) can0 13F#0000000000000032
(1747185903.497172) can0 158#0000000000000037
(1747185903.497422) can0 17C#0000000000000031
(1747185903.501587) can0 294#040C0002922A0000
(1747185903.502466) can0 164#0400005F4100001F
(1747185903.504103) can0 18E#00004D
(1747185903.505301) can0 1A4#0000000000000036
(1747185903.505318) can0 1B0#00000000000075
(1747185903.505557) can0 1D0#000000000000000A
(1747185903.506310) can0 039#002A
(1747185903.506388) can0 136#000200000000000C
(1747185903.506679) can0 13A#3E0031000000008D
(1747185903.506908) can0 13F#0000000000000005
(1747185903.507171) can0 158#000000000000000A
(1747185903.507422) can0 17C#0000000000000004
(1747185903.507578) can0 1DC#0200000C
(1747185903.512634) can0 164#0400005F4100002E
(1747185903.514075) can0 18E#00005C
(1747185903.516616) can0 136#000200000000001B
(1747185903.516631) can0 13A#3E0031000000009C
(1747185903.516909) can0 13F#0000000000000014
(1747185903.517176) can0 158#0000000000000019
(1747185903.517393) can0 17C#0000000000000013
(1747185903.519707) can0 039#0039
(1747185903.522557) can0 164#0400005F4100003D
(1747185903.523926) can0 18E#00006B
(1747185903.525155) can0 1A4#0000000000000009
(1747185903.525231) can0 1B0#00000000000048
(1747185903.525542) can0 1D0#000000000000000A
(1747185903.526427) can0 136#000200000000002A
(1747185903.526642) can0 13A#3E003100000000AB
(1747185903.526907) can0 13F#0000000000000023
(1747185903.527174) can0 158#0000000000000028
(1747185903.527408) can0 17C#0000000000000022
(1747185903.527567) can0 1DC#0200001B
(1747185903.532383) can0 164#0400005F41000000
(1747185903.533250) can0 039#000C
(1747185903.533830) can0 18E#00007A
(1747185903.536445) can0 136#0002000000000039
(1747185903.536649) can0 13A#3E003100000000BA
(1747185903.536917) can0 13F#0000000000000032
(1747185903.537142) can0 158#0000000000000037
(1747185903.537370) can0 17C#0000000000000031
(1747185903.538253) can0 428#0701000118D119
(1747185903.538405) can0 42A#0017
(1747185903.539381) can0 309#0000000000000093
(1747185903.541546) can0 294#040C0002922A001F
(1747185903.542341) can0 164#0400005F4100001F
(1747185903.543802) can0 18E#00004D
(1747185903.545215) can0 1A4#0000000000000018
(1747185903.545223) can0 1B0#00000000000057
(1747185903.545534) can0 1D0#000000000000000A
(1747185903.546339) can0 039#001B
(1747185903.546350) can0 136#000200000000000C
(1747185903.546633) can0 13A#3E0031000000008D
(1747185903.546893) can0 13F#0000000000000005
(1747185903.547150) can0 158#000000000000000A
(1747185903.547386) can0 17C#0000000000000004
(1747185903.547556) can0 1DC#0200002A
(1747185903.552537) can0 164#0400005F4100002E
(1747185903.554087) can0 18E#00005C
(1747185903.556557) can0 136#000200000000001B
(1747185903.556600) can0 13A#3E0031000000009C
(1747185903.556895) can0 13F#0000000000000014
(1747185903.557156) can0 158#0000000000000019
(1747185903.557382) can0 17C#0000000000000013
(1747185903.562347) can0 039#002A
(1747185903.562501) can0 164#0400005F4100003D
(1747185903.564109) can0 18E#00006B
(1747185903.565313) can0 1A4#0000000000000027
(1747185903.565325) can0 1B0#00000000000066
(1747185903.565537) can0 1D0#000000000000000A
(1747185903.566515) can0 136#000200000000002A
(1747185903.566657) can0 13A#3E003100000000AB
(1747185903.566880) can0 13F#0000000000000023
(1747185903.567146) can0 158#0000000000000028
(1747185903.567390) can0 17C#0000000000000022
(1747185903.567560) can0 1DC#02000039
(1747185903.567726) can0 320#000030
(1747185903.567953) can0 324#7E4E166C00000E3E
(1747185903.568153) can0 37C#000000003F
(1747185903.572515) can0 164#0400005F41000000
(1747185903.574090) can0 18E#00007A
(1747185903.575336) can0 039#0039
(1747185903.576532) can0 136#0002000000000039
(1747185903.576577) can0 13A#3E003100000000BA
(1747185903.576897) can0 13F#0000000000000032
(1747185903.577126) can0 158#0000000000000037
(1747185903.577379) can0 17C#0000000000000031
(1747185903.581500) can0 294#040C0002922A002E
(1747185903.582421) can0 164#0400005F4100001F
(1747185903.584088) can0 18E#00004D
(1747185903.585301) can0 1A4#0000000000000036
(1747185903.585312) can0 1B0#00000000000075
(1747185903.585528) can0 1D0#000000000000000A
(1747185903.586425) can0 136#000200000000000C
(1747185903.586622) can0 13A#3E0031000000008D
(1747185903.586888) can0 13F#0000000000000005
(1747185903.587148) can0 158#000000000000000A
(1747185903.587376) can0 17C#0000000000000004
(1747185903.587543) can0 1DC#0200000C
(1747185903.591339) can0 039#000C
(1747185903.591547) can0 305#8E37
(1747185903.592419) can0 164#0400005F4100002E
(1747185903.594045) can0 18E#00005C
(1747185903.596572) can0 136#000200000000001B
(1747185903.596584) can0 13A#3E0031000000009C
(1747185903.596843) can0 13F#0000000000000014
(1747185903.597104) can0 158#0000000000000019
(1747185903.597365) can0 17C#0000000000000013
(1747185903.602476) can0 164#0400005F4100003D
(1747185903.603895) can0 18E#00006B
(1747185903.605283) can0 1A4#0000000000000009
(1747185903.605294) can0 1B0#00000000000048
(1747185903.605522) can0 1D0#000000000000000A
(1747185903.606440) can0 136#000200000000002A
(1747185903.606615) can0 13A#3E003100000000AB
(1747185903.606988) can0 13F#0000000000000023
(1747185903.607072) can0 158#0000000000000028
(1747185903.607374) can0 17C#0000000000000022
(1747185903.607515) can0 1DC#0200001B
(1747185903.610284) can0 039#001B
(1747185903.612462) can0 164#0400005F41000000
(1747185903.614069) can0 18E#00007A
(1747185903.616559) can0 136#0002000000000039
(1747185903.616570) can0 13A#3E003100000000BA
(1747185903.616836) can0 13F#0000000000000032
(1747185903.617118) can0 158#0000000000000037
(1747185903.617372) can0 17C#0000000000000031
(1747185903.621462) can0 294#040C0002922A003D
(1747185903.622291) can0 164#0400005F4100001F
(1747185903.624042) can0 18E#00004D
(1747185903.624054) can0 039#002A
(1747185903.625050) can0 1A4#0000000000000018
(1747185903.625262) can0 1B0#00000000000057
(1747185903.625521) can0 1D0#000000000000000A
(1747185903.626496) can0 136#000200000000000C
(1747185903.626588) can0 13A#3E0031000000008D
(1747185903.626860) can0 13F#0000000000000005
(1747185903.627127) can0 158#000000000000000A
(1747185903.627385) can0 17C#0000000000000004
(1747185903.627556) can0 1DC#0200002A
(1747185903.632696) can0 164#0400005F4100002E
(1747185903.634015) can0 18E#00005C
(1747185903.636588) can0 136#000200000000001B
(1747185903.636604) can0 13A#3E0031000000009C
(1747185903.636840) can0 13F#0000000000000014
(1747185903.637100) can0 158#0000000000000019
(1747185903.637363) can0 17C#0000000000000013
(1747185903.639606) can0 309#00000000000000A2
(1747185903.642511) can0 164#0400005F4100003D
(1747185903.643890) can0 18E#00006B
(1747185903.644547) can0 039#0039
(1747185903.645083) can0 1A4#0000000000000027
(1747185903.645254) can0 1B0#00000000000066
(1747185903.645537) can0 1D0#000000000000000A
(1747185903.646328) can0 136#000200000000002A
(1747185903.646609) can0 13A#3E003100000000AB
(1747185903.646868) can0 13F#0000000000000023
(1747185903.647090) can0 158#0000000000000028
(1747185903.647362) can0 17C#0000000000000022
(1747185903.647533) can0 1DC#02000039
(1747185903.652505) can0 164#0400005F41000000
(1747185903.654034) can0 18E#00007A
(1747185903.656553) can0 136#0002000000000039
(1747185903.656569) can0 13A#3E003100000000BA
(1747185903.656838) can0 13F#0000000000000032
(1747185903.657108) can0 158#0000000000000037
(1747185903.657351) can0 17C#0000000000000031
(1747185903.658267) can0 039#000C
(1747185903.661530) can0 294#040C0002922A0000
(1747185903.662419) can0 164#0400005F4100001F
(1747185903.663774) can0 18E#00004D
(1747185903.665143) can0 1A4#0000000000000036
(1747185903.665218) can0 1B0#00000000000075
(1747185903.665555) can0 1D0#000000000000000A
(1747185903.666532) can0 136#000200000000000C
(1747185903.666573) can0 13A#3E0031000000008D
(1747185903.666874) can0 13F#0000000000000005
(1747185903.667076) can0 158#000000000000000A
(1747185903.667332) can0 17C#0000000000000004
(1747185903.667484) can0 1DC#0200000C
(1747185903.667640) can0 320#000003
(1747185903.667897) can0 324#7E4E168000000E0B
(1747185903.668076) can0 37C#0000000002
(1747185903.668326) can0 40C#0330393434330002
(1747185903.668448) can0 454#17F60E
(1747185903.668652) can0 465#8EC847532F3404
(1747185903.672339) can0 164#0400005F4100002E
(1747185903.672999) can0 039#001B
(1747185903.673767) can0 18E#00005C
(1747185903.676526) can0 136#000200000000001B
(1747185903.676542) can0 13A#3E0031000000009C
(1747185903.676829) can0 13F#0000000000000014
(1747185903.677090) can0 158#0000000000000019
(1747185903.677342) can0 17C#0000000000000013
(1747185903.682526) can0 164#0400005F4100003D
(1747185903.683875) can0 18E#00006B
(1747185903.685213) can0 1A4#0000000000000009
(1747185903.685267) can0 1B0#00000000000048
(1747185903.685495) can0 1D0#000000000000000A
(1747185903.686524) can0 136#000200000000002A
(1747185903.686584) can0 13A#3E003100000000AB
(1747185903.686839) can0 13F#0000000000000023
(1747185903.687078) can0 158#0000000000000028
(1747185903.687211) can0 039#002A
(1747185903.687486) can0 17C#0000000000000022
(1747185903.687626) can0 1DC#0200001B
(1747185903.692489) can0 164#0400005F41000000
(1747185903.693897) can0 18E#00007A
(1747185903.693913) can0 305#8E0A
(1747185903.696488) can0 136#0002000000000039
(1747185903.696533) can0 13A#3E003100000000BA
(1747185903.696834) can0 13F#0000000000000032
(1747185903.697096) can0 158#0000000000000037
(1747185903.697355) can0 17C#0000000000000031
(1747185903.700667) can0 039#0039
(1747185903.701256) can0 294#040C0002922A001F
(1747185903.702564) can0 164#0400005F4100001F
(1747185903.703880) can0 18E#00004D
(1747185903.705037) can0 1A4#0000000000000018
(1747185903.705261) can0 1B0#00000000000057
(1747185903.705496) can0 1D0#000000000000000A
(1747185903.706361) can0 136#000200000000000C
(1747185903.706572) can0 13A#3E0031000000008D
(1747185903.706858) can0 13F#0000000000000005
(1747185903.707077) can0 158#000000000000000A
(1747185903.707337) can0 17C#0000000000000004
(1747185903.707495) can0 1DC#0200002A
(1747185903.712551) can0 164#0400005F4100002E
(1747185903.714017) can0 18E#00005C
(1747185903.714032) can0 039#000C
(1747185903.716539) can0 136#000200000000001B
(1747185903.716555) can0 13A#3E0031000000009C
(1747185903.716815) can0 13F#0000000000000014
(1747185903.717079) can0 158#0000000000000019
(1747185903.717300) can0 17C#0000000000000013
(1747185903.722490) can0 164#0400005F4100003D
(1747185903.724063) can0 18E#00006B
(1747185903.725137) can0 1A4#0000000000000027
(1747185903.725212) can0 1B0#00000000000066
(1747185903.725570) can0 1D0#000000000000000A
(1747185903.726481) can0 136#000200000000002A
(1747185903.726521) can0 13A#3E003100000000AB
(1747185903.726825) can0 13F#0000000000000023
(1747185903.727051) can0 158#0000000000000028
(1747185903.727218) can0 039#001B
(1747185903.727439) can0 17C#0000000000000022
(1747185903.727620) can0 1DC#02000039
(1747185903.732588) can0 164#0400005F41000000
(1747185903.734034) can0 18E#00007A
(1747185903.736537) can0 136#0002000000000039
(1747185903.736553) can0 13A#3E003100000000BA
(1747185903.736811) can0 13F#0000000000000032
(1747185903.737081) can0 158#0000000000000037
(1747185903.737343) can0 17C#0000000000000031
(1747185903.739267) can0 039#002A
(1747185903.739283) can0 309#00000000000000B1
(1747185903.741461) can0 294#040C0002922A002E
(1747185903.742269) can0 164#0400005F4100001F
(1747185903.743823) can0 18E#00004D
(1747185903.745236) can0 1A4#0000000000000036
(1747185903.745251) can0 1B0#00000000000075
(1747185903.745514) can0 1D0#000000000000000A
(1747185903.746505) can0 136#000200000000000C
(1747185903.746521) can0 13A#3E0031000000008D
(1747185903.746806) can0 13F#0000000000000005
(1747185903.747071) can0 158#000000000000000A
(1747185903.747291) can0 17C#0000000000000004
(1747185903.747486) can0 1DC#0200000C
(1747185903.752528) can0 164#0400005F4100002E
(1747185903.753068) can0 039#0039
(1747185903.753888) can0 18E#00005C
(1747185903.756525) can0 136#000200000000001B
(1747185903.756540) can0 13A#3E0031000000009C
(1747185903.756785) can0 13F#0000000000000014
(1747185903.757062) can0 158#0000000000000019
(1747185903.757293) can0 17C#0000000000000013
(1747185903.762533) can0 164#0400005F4100003D
(1747185903.763998) can0 18E#00006B
(1747185903.765155) can0 1A4#0000000000000009
(1747185903.765231) can0 1B0#00000000000048
(1747185903.765527) can0 1D0#000000000000000A
(1747185903.766328) can0 136#000200000000002A
(1747185903.766550) can0 13A#3E003100000000AB
(1747185903.766818) can0 13F#0000000000000023
(1747185903.767086) can0 158#0000000000000028
(1747185903.767315) can0 17C#0000000000000022
(1747185903.767478) can0 1DC#0200001B
(1747185903.767633) can0 039#000C
(1747185903.767776) can0 320#000012
(1747185903.767988) can0 324#7E4E169400000E15
(1747185903.768187) can0 37C#0000000011
(1747185903.772870) can0 164#0400005F41000000
(1747185903.773778) can0 18E#00007A
(1747185903.776537) can0 136#0002000000000039
(1747185903.776553) can0 13A#3E003100000000BA
(1747185903.776805) can0 13F#0000000000000032
(1747185903.777072) can0 158#0000000000000037
(1747185903.777341) can0 17C#0000000000000031
(1747185903.781481) can0 294#040C0002922A003D
(1747185903.782003) can0 039#001B
(1747185903.782275) can0 164#0400005F4100001F
(1747185903.783734) can0 18E#00004D
(1747185903.785083) can0 1A4#0000000000000018
(1747185903.785267) can0 1B0#00000000000057
(1747185903.785553) can0 1D0#000000000000000A
(1747185903.786341) can0 136#000200000000000C
(1747185903.786547) can0 13A#3E0031000000008D
(1747185903.786810) can0 13F#0000000000000005
(1747185903.787030) can0 158#000000000000000A
(1747185903.787297) can0 17C#0000000000000004
(1747185903.787473) can0 1DC#0200002A
(1747185903.792267) can0 164#0400005F4100002E
(1747185903.794016) can0 18E#00005C
(1747185903.796523) can0 136#000200000000001B
(1747185903.796539) can0 13A#3E0031000000009C
(1747185903.796792) can0 13F#0000000000000014
(1747185903.797019) can0 158#0000000000000019
(1747185903.797178) can0 039#002A
(1747185903.797442) can0 17C#0000000000000013
(1747185903.797500) can0 305#8E19
(1747185903.802513) can0 164#0400005F4100003D
(1747185903.804011) can0 18E#00006B
(1747185903.805292) can0 1A4#0000000000000027
(1747185903.805307) can0 1B0#00000000000066
(1747185903.805536) can0 1D0#000000000000000A
(1747185903.806460) can0 136#000200000000002A
(1747185903.806506) can0 13A#3E003100000000AB
(1747185903.806785) can0 13F#0000000000000023
(1747185903.807052) can0 158#0000000000000028
(1747185903.807273) can0 17C#0000000000000022
(1747185903.807442) can0 1DC#02000039
(1747185903.809314) can0 039#0039
(1747185903.812488) can0 164#0400005F41000000
(1747185903.813730) can0 18E#00007A
(1747185903.816521) can0 136#0002000000000039
(1747185903.816568) can0 13A#3E003100000000BA
(1747185903.816734) can0 13F#0000000000000032
(1747185903.817038) can0 158#0000000000000037
(1747185903.817287) can0 17C#0000000000000031
(1747185903.821426) can0 294#040C0002922A0000
(1747185903.822236) can0 164#0400005F4100001F
(1747185903.823897) can0 18E#00004D
(1747185903.825239) can0 1A4#0000000000000036
(1747185903.825254) can0 1B0#00000000000075
(1747185903.825533) can0 1D0#000000000000000A
(1747185903.826413) can0 136#000200000000000C
(1747185903.826493) can0 13A#3E0031000000008D
(1747185903.826793) can0 13F#0000000000000005
(1747185903.827019) can0 158#000000000000000A
(1747185903.827289) can0 17C#0000000000000004
(1747185903.827439) can0 1DC#0200000C
(1747185903.829225) can0 039#000C
(1747185903.832444) can0 164#0400005F4100002E
(1747185903.833979) can0 18E#00005C
(1747185903.836508) can0 136#000200000000001B
(1747185903.836524) can0 13A#3E0031000000009C
(1747185903.836761) can0 13F#0000000000000014
(1747185903.837043) can0 158#0000000000000019
(1747185903.837271) can0 17C#0000000000000013
(1747185903.838209) can0 428#0701000118D128
(1747185903.838410) can0 42A#0026
(1747185903.839213) can0 309#0000000000000084
(1747185903.842274) can0 039#001B
(1747185903.842348) can0 164#0400005F4100003D
(1747185903.843997) can0 18E#00006B
(1747185903.845299) can0 1A4#0000000000000009
(1747185903.845315) can0 1B0#00000000000048
(1747185903.845525) can0 1D0#000000000000000A
(1747185903.846472) can0 136#000200000000002A
(1747185903.846488) can0 13A#3E003100000000AB
(1747185903.846786) can0 13F#0000000000000023
(1747185903.847057) can0 158#0000000000000028
(1747185903.847264) can0 17C#0000000000000022
(1747185903.847437) can0 1DC#0200001B
(1747185903.852498) can0 164#0400005F41000000
(1747185903.854003) can0 18E#00007A
(1747185903.856441) can0 136#0002000000000039
(1747185903.856521) can0 13A#3E003100000000BA
(1747185903.856754) can0 13F#0000000000000032
(1747185903.857018) can0 158#0000000000000037
(1747185903.857169) can0 039#002A
(1747185903.857401) can0 17C#0000000000000031
(1747185903.861471) can0 294#040C0002922A001F
(1747185903.862361) can0 164#0400005F4100001F
(1747185903.863963) can0 18E#00004D
(1747185903.865303) can0 1A4#0000000000000018
(1747185903.865318) can0 1B0#00000000000057
(1747185903.865558) can0 1D0#000000000000000A
(1747185903.866282) can0 136#000200000000000C
(1747185903.866524) can0 13A#3E0031000000008D
(1747185903.866796) can0 13F#0000000000000005
(1747185903.867030) can0 158#000000000000000A
(1747185903.867288) can0 17C#0000000000000004
(1747185903.867459) can0 1DC#0200002A
(1747185903.867603) can0 320#000021
(1747185903.867834) can0 324#7E4E16A800000E2F
(1747185903.868009) can0 37C#0000000020
(1747185903.871331) can0 039#0039
(1747185903.872379) can0 164#0400005F4100002E
(1747185903.873959) can0 18E#00005C
(1747185903.876445) can0 136#000200000000001B
(1747185903.876493) can0 13A#3E0031000000009C
(1747185903.876748) can0 13F#0000000000000014
(1747185903.877017) can0 158#0000000000000019
(1747185903.877284) can0 17C#0000000000000013
(1747185903.882496) can0 164#0400005F4100003D
(1747185903.884020) can0 18E#00006B
(1747185903.885286) can0 1A4#0000000000000027
(1747185903.885302) can0 1B0#00000000000066
(1747185903.885543) can0 1D0#000000000000000A
(1747185903.886390) can0 136#000200000000002A
(1747185903.886442) can0 13A#3E003100000000AB
(1747185903.886741) can0 13F#0000000000000023
(1747185903.887005) can0 158#0000000000000028
(1747185903.887266) can0 17C#0000000000000022
(1747185903.887410) can0 1DC#02000039
(1747185903.892489) can0 164#0400005F41000000
(1747185903.892504) can0 039#000C
(1747185903.893976) can0 18E#00007A
(1747185903.896262) can0 136#0002000000000039
(1747185903.896489) can0 13A#3E003100000000BA
(1747185903.896761) can0 13F#0000000000000032
(1747185903.896997) can0 158#0000000000000037
(1747185903.897260) can0 17C#0000000000000031
(1747185903.899798) can0 305#8E28
(1747185903.901414) can0 294#040C0002922A002E
(1747185903.902236) can0 164#0400005F4100001F
(1747185903.903947) can0 18E#00004D
(1747185903.905287) can0 1A4#0000000000000036
(1747185903.905303) can0 1B0#00000000000075
(1747185903.905531) can0 1D0#000000000000000A
(1747185903.906451) can0 136#000200000000000C
(1747185903.906467) can0 13A#3E0031000000008D
(1747185903.906631) can0 039#001B
(1747185903.907017) can0 13F#0000000000000005
(1747185903.907067) can0 158#000000000000000A
(1747185903.907387) can0 17C#0000000000000004
(1747185903.907542) can0 1DC#0200000C
(1747185903.912825) can0 164#0400005F4100002E
(1747185903.913949) can0 18E#00005C
(1747185903.916436) can0 136#000200000000001B
(1747185903.916452) can0 13A#3E0031000000009C
(1747185903.916729) can0 13F#0000000000000014
(1747185903.916993) can0 158#0000000000000019
(1747185903.917256) can0 17C#0000000000000013
(1747185903.920200) can0 039#002A
(1747185903.922226) can0 164#0400005F4100003D
(1747185903.923953) can0 18E#00006B
(1747185903.925285) can0 1A4#0000000000000009
(1747185903.925300) can0 1B0#00000000000048
(1747185903.925523) can0 1D0#000000000000000A
(1747185903.926373) can0 136#000200000000002A
(1747185903.926424) can0 13A#3E003100000000AB
(1747185903.926732) can0 13F#0000000000000023
(1747185903.927001) can0 158#0000000000000028
(1747185903.927266) can0 17C#0000000000000022
(1747185903.927411) can0 1DC#0200001B
(1747185903.932474) can0 164#0400005F41000000
(1747185903.933770) can0 039#0039
(1747185903.933785) can0 18E#00007A
(1747185903.936430) can0 136#0002000000000039
(1747185903.936446) can0 13A#3E003100000000BA
(1747185903.936730) can0 13F#0000000000000032
(1747185903.936966) can0 158#0000000000000037
(1747185903.937229) can0 17C#0000000000000031
(1747185903.939401) can0 309#0000000000000093
(1747185903.941408) can0 294#040C0002922A003D
(1747185903.942322) can0 164#0400005F4100001F
(1747185903.943699) can0 18E#00004D
(1747185903.945221) can0 1A4#0000000000000018
(1747185903.945237) can0 1B0#00000000000057
(1747185903.945518) can0 1D0#000000000000000A
(1747185903.946358) can0 136#000200000000000C
(1747185903.946433) can0 13A#3E0031000000008D
(1747185903.946729) can0 13F#0000000000000005
(1747185903.946956) can0 158#000000000000000A
(1747185903.947115) can0 039#000C
(1747185903.947384) can0 17C#0000000000000004
(1747185903.947522) can0 1DC#0200002A
(1747185903.952479) can0 164#0400005F4100002E
(1747185903.953950) can0 18E#00005C
(1747185903.956430) can0 136#000200000000001B
(1747185903.956445) can0 13A#3E0031000000009C
(1747185903.956724) can0 13F#0000000000000014
(1747185903.956989) can0 158#0000000000000019
(1747185903.957208) can0 17C#0000000000000013
(1747185903.960264) can0 039#001B
(1747185903.962417) can0 164#0400005F4100003D
(1747185903.963965) can0 18E#00006B
(1747185903.965293) can0 1A4#0000000000000027
(1747185903.965309) can0 1B0#00000000000066
(1747185903.965521) can0 1D0#000000000000000A
(1747185903.966430) can0 136#000200000000002A
(1747185903.966468) can0 13A#3E003100000000AB
(1747185903.966719) can0 13F#0000000000000023
(1747185903.966999) can0 158#0000000000000028
(1747185903.967229) can0 17C#0000000000000022
(1747185903.967398) can0 1DC#02000039
(1747185903.967555) can0 320#000030
(1747185903.967805) can0 324#7E4E16BC00000E39
(1747185903.967989) can0 37C#000000003F
(1747185903.968244) can0 40C#0000000004000013
(1747185903.968393) can0 454#17F61D
(1747185903.968609) can0 465#8EC847532F3413
(1747185903.972448) can0 164#0400005F41000000
(1747185903.973945) can0 18E#00007A
(1747185903.975137) can0 039#002A
(1747185903.976362) can0 136#0002000000000039
(1747185903.976411) can0 13A#3E003100000000BA
(1747185903.976734) can0 13F#0000000000000032
(1747185903.976942) can0 158#0000000000000037
(1747185903.977210) can0 17C#0000000000000031
(1747185903.981451) can0 294#040C0002922A0000
(1747185903.982463) can0 164#0400005F4100001F
(1747185903.983952) can0 18E#00004D
(1747185903.985290) can0 1A4#0000000000000036
(1747185903.985305) can0 1B0#00000000000075
(1747185903.985537) can0 1D0#000000000000000A
(1747185903.986357) can0 136#000200000000000C
(1747185903.986408) can0 13A#3E0031000000008D
(1747185903.986726) can0 13F#0000000000000005
(1747185903.986996) can0 158#000000000000000A
(1747185903.987199) can0 17C#0000000000000004
(1747185903.987368) can0 1DC#0200000C
(1747185903.989181) can0 039#0039
(1747185903.992433) can0 164#0400005F4100002E
(1747185903.993932) can0 18E#00005C
(1747185903.996422) can0 136#000200000000001B
(1747185903.996437) can0 13A#3E0031000000009C
(1747185903.996707) can0 13F#0000000000000014
(1747185903.996966) can0 158#0000000000000019
(1747185903.997227) can0 17C#0000000000000013
(1747185904.002462) can0 164#0400005F4100003D
(1747185904.003010) can0 039#000C
(1747185904.003672) can0 305#8E37
(1747185904.003687) can0 18E#00006B
(1747185904.005272) can0 1A4#0000000000000009
(1747185904.005288) can0 1B0#00000000000048
(1747185904.005526) can0 1D0#000000000000000A
(1747185904.006225) can0 136#000200000000002A
(1747185904.006456) can0 13A#3E003100000000AB
(1747185904.006726) can0 13F#0000000000000023
(1747185904.006932) can0 158#0000000000000028
(1747185904.007195) can0 17C#0000000000000022
(1747185904.007379) can0 1DC#0200001B
(1747185904.012450) can0 164#0400005F41000000
(1747185904.013958) can0 18E#00007A
(1747185904.016206) can0 039#001B
(1747185904.016222) can0 136#0002000000000039
(1747185904.016437) can0 13A#3E003100000000BA
(1747185904.016712) can0 13F#0000000000000032
(1747185904.016942) can0 158#0000000000000037
(1747185904.017173) can0 17C#0000000000000031
(1747185904.021442) can0 294#040C0002922A001F
(1747185904.022210) can0 164#0400005F4100001F
(1747185904.023914) can0 18E#00004D
(1747185904.025311) can0 1A4#0000000000000018
(1747185904.025327) can0 1B0#00000000000057
(1747185904.025526) can0 1D0#000000000000000A
(1747185904.026365) can0 136#000200000000000C
(1747185904.026409) can0 13A#3E0031000000008D
(1747185904.026725) can0 13F#0000000000000005
(1747185904.026954) can0 158#000000000000000A
(1747185904.027188) can0 17C#0000000000000004
(1747185904.027351) can0 1DC#0200002A
(1747185904.028961) can0 039#002A
(1747185904.032477) can0 164#0400005F4100002E
(1747185904.033664) can0 18E#00005C
(1747185904.036399) can0 136#000200000000001B
(1747185904.036414) can0 13A#3E0031000000009C
(1747185904.036672) can0 13F#0000000000000014
(1747185904.036949) can0 158#0000000000000019
(1747185904.037183) can0 17C#0000000000000013
(1747185904.039327) can0 309#00000000000000A2
(1747185904.042243) can0 164#0400005F4100003D
(1747185904.043649) can0 039#0039
(1747185904.043666) can0 18E#00006B
(1747185904.045290) can0 1A4#0000000000000027
(1747185904.045306) can0 1B0#00000000000066
(1747185904.045545) can0 1D0#000000000000000A
(1747185904.046205) can0 136#000200000000002A
(1747185904.046444) can0 13A#3E003100000000AB
(1747185904.046675) can0 13F#0000000000000023
(1747185904.046943) can0 158#0000000000000028
(1747185904.047206) can0 17C#0000000000000022
(1747185904.047346) can0 1DC#02000039
(1747185904.052793) can0 164#0400005F41000000
(1747185904.053939) can0 18E#00007A
(1747185904.056399) can0 136#0002000000000039
(1747185904.056415) can0 13A#3E003100000000BA
(1747185904.056669) can0 13F#0000000000000032
(1747185904.056938) can0 158#0000000000000037
(1747185904.057202) can0 17C#0000000000000031
(1747185904.059139) can0 039#000C
(1747185904.061396) can0 294#040C0002922A002E
(1747185904.062301) can0 164#0400005F4100001F
(1747185904.063878) can0 18E#00004D
(1747185904.065287) can0 1A4#0000000000000036
(1747185904.065302) can0 1B0#00000000000075
(1747185904.065540) can0 1D0#000000000000000A
(1747185904.066314) can0 136#000200000000000C
(1747185904.066387) can0 13A#3E0031000000008D
(1747185904.066634) can0 13F#0000000000000005
(1747185904.066916) can0 158#000000000000000A
(1747185904.067182) can0 17C#0000000000000004
(1747185904.067363) can0 1DC#0200000C
(1747185904.067436) can0 320#000003
(1747185904.067868) can0 324#7E4E16D000000E06
(1747185904.067908) can0 37C#0000000002
(1747185904.072484) can0 164#0400005F4100002E
(1747185904.072911) can0 039#001B
(1747185904.073609) can0 18E#00005C
(1747185904.076392) can0 136#000200000000001B
(1747185904.076409) can0 13A#3E0031000000009C
(1747185904.076658) can0 13F#0000000000000014
(1747185904.076920) can0 158#0000000000000019
(1747185904.077180) can0 17C#0000000000000013
(1747185904.082439) can0 164#0400005F4100003D
(1747185904.083904) can0 18E#00006B
(1747185904.085293) can0 1A4#0000000000000009
(1747185904.085308) can0 1B0#00000000000048
(1747185904.085509) can0 1D0#000000000000000A
(1747185904.086350) can0 136#000200000000002A
(1747185904.086393) can0 13A#3E003100000000AB
(1747185904.086663) can0 13F#0000000000000023
(1747185904.086929) can0 158#0000000000000028
(1747185904.087003) can0 039#002A
(1747185904.087338) can0 17C#0000000000000022
(1747185904.087488) can0 1DC#0200001B
(1747185904.092435) can0 164#0400005F41000000
(1747185904.093917) can0 18E#00007A
(1747185904.096386) can0 136#0002000000000039
(1747185904.096401) can0 13A#3E003100000000BA
(1747185904.096653) can0 13F#0000000000000032
(1747185904.096916) can0 158#0000000000000037
(1747185904.097137) can0 17C#0000000000000031
(1747185904.101473) can0 294#040C0002922A003D
(1747185904.101882) can0 039#0039
(1747185904.102157) can0 164#0400005F4100001F
(1747185904.103891) can0 18E#00004D
(1747185904.105312) can0 1A4#0000000000000018
(1747185904.105327) can0 1B0#00000000000057
(1747185904.105536) can0 1D0#000000000000000A
(1747185904.106350) can0 136#000200000000000C
(1747185904.106399) can0 13A#3E0031000000008D
(1747185904.106655) can0 13F#0000000000000005
(1747185904.106918) can0 158#000000000000000A
(1747185904.107184) can0 17C#0000000000000004
(1747185904.107330) can0 1DC#0200002A
(1747185904.108615) can0 305#8E0A
(1747185904.112410) can0 164#0400005F4100002E
(1747185904.113889) can0 18E#00005C
(1747185904.115096) can0 039#000C
(1747185904.116338) can0 136#000200000000001B
(1747185904.116378) can0 13A#3E0031000000009C
(1747185904.116648) can0 13F#0000000000000014
(1747185904.116905) can0 158#0000000000000019
(1747185904.117184) can0 17C#0000000000000013
(1747185904.122636) can0 164#0400005F4100003D
(1747185904.123626) can0 18E#00006B
(1747185904.125307) can0 1A4#0000000000000027
(1747185904.125322) can0 1B0#00000000000066
(1747185904.125528) can0 1D0#000000000000000A
(1747185904.126298) can0 136#000200000000002A
(1747185904.126345) can0 13A#3E003100000000AB
(1747185904.126669) can0 13F#0000000000000023
(1747185904.126904) can0 158#0000000000000028
(1747185904.127184) can0 17C#0000000000000022
(1747185904.127324) can0 1DC#02000039
(1747185904.130139) can0 039#001B
(1747185904.132362) can0 164#0400005F41000000
(1747185904.133923) can0 18E#00007A
(1747185904.136367) can0 136#0002000000000039
(1747185904.136382) can0 13A#3E003100000000BA
(1747185904.136646) can0 13F#0000000000000032
(1747185904.136920) can0 158#0000000000000037
(1747185904.137183) can0 17C#0000000000000031
(1747185904.138097) can0 428#0701000118D137
(1747185904.138164) can0 42A#0035
(1747185904.139152) can0 309#00000000000000B1
(1747185904.141342) can0 294#040C0002922A0000
(1747185904.142270) can0 164#0400005F4100001F
(1747185904.143646) can0 18E#00004D
(1747185904.143822) can0 039#002A
(1747185904.145044) can0 1A4#0000000000000036
(1747185904.145310) can0 1B0#00000000000075
(1747185904.145516) can0 1D0#000000000000000A
(1747185904.146298) can0 136#000200000000000C
(1747185904.146346) can0 13A#3E0031000000008D
(1747185904.146639) can0 13F#0000000000000005
(1747185904.146901) can0 158#000000000000000A
(1747185904.147175) can0 17C#0000000000000004
(1747185904.147329) can0 1DC#0200000C
(1747185904.152417) can0 164#0400005F4100002E
(1747185904.153885) can0 18E#00005C
(1747185904.156370) can0 136#000200000000001B
(1747185904.156386) can0 13A#3E0031000000009C
(1747185904.156642) can0 13F#0000000000000014
(1747185904.156914) can0 158#0000000000000019
(1747185904.156968) can0 039#0039
(1747185904.157415) can0 17C#0000000000000013
(1747185904.162348) can0 164#0400005F4100003D
(1747185904.163907) can0 18E#00006B
(1747185904.165287) can0 1A4#0000000000000009
(1747185904.165303) can0 1B0#00000000000048
(1747185904.165534) can0 1D0#000000000000000A
(1747185904.166260) can0 136#000200000000002A
(1747185904.166333) can0 13A#3E003100000000AB
(1747185904.166644) can0 13F#0000000000000023
(1747185904.166909) can0 158#0000000000000028
(1747185904.167172) can0 17C#0000000000000022
(1747185904.167303) can0 1DC#0200001B
(1747185904.167500) can0 320#000012
(1747185904.167693) can0 324#7E4E16E400000E10
(1747185904.167900) can0 37C#0000000011
(1747185904.172193) can0 039#000C
(1747185904.172208) can0 164#0400005F41000000
(1747185904.173894) can0 18E#00007A
(1747185904.176363) can0 136#0002000000000039
(1747185904.176378) can0 13A#3E003100000000BA
(1747185904.176631) can0 13F#0000000000000032
(1747185904.176892) can0 158#0000000000000037
(1747185904.177113) can0 17C#0000000000000031
(1747185904.181395) can0 294#040C0002922A001F
(1747185904.182165) can0 164#0400005F4100001F
(1747185904.183873) can0 18E#00004D
(1747185904.185310) can0 1A4#0000000000000018
(1747185904.185326) can0 1B0#00000000000057
(1747185904.185534) can0 1D0#000000000000000A
(1747185904.186034) can0 039#001B
(1747185904.186109) can0 136#000200000000000C
(1747185904.186393) can0 13A#3E0031000000008D
(1747185904.186634) can0 13F#0000000000000005
(1747185904.186892) can0 158#000000000000000A
(1747185904.187149) can0 17C#0000000000000004
(1747185904.187297) can0 1DC#0200002A
(1747185904.192801) can0 164#0400005F4100002E
(1747185904.193875) can0 18E#00005C
(1747185904.196362) can0 136#000200000000001B
(1747185904.196377) can0 13A#3E0031000000009C
(1747185904.196609) can0 13F#0000000000000014
(1747185904.196872) can0 158#0000000000000019
(1747185904.197139) can0 17C#0000000000000013
(1747185904.199241) can0 039#002A
(1747185904.202381) can0 164#0400005F4100003D
(1747185904.203896) can0 18E#00006B
(1747185904.205290) can0 1A4#0000000000000027
(1747185904.205306) can0 1B0#00000000000066
(1747185904.205529) can0 1D0#000000000000000A
(1747185904.206291) can0 136#000200000000002A
(1747185904.206335) can0 13A#3E003100000000AB
(1747185904.206605) can0 13F#0000000000000023
(1747185904.206862) can0 158#0000000000000028
(1747185904.207133) can0 17C#0000000000000022
(1747185904.207298) can0 1DC#02000039
(1747185904.211803) can0 305#8E19
(1747185904.212135) can0 164#0400005F41000000
(1747185904.213735) can0 18E#00007A
(1747185904.216344) can0 136#0002000000000039
(1747185904.216360) can0 13A#3E003100000000BA
(1747185904.216595) can0 13F#0000000000000032
(1747185904.216865) can0 158#0000000000000037
(1747185904.217129) can0 17C#0000000000000031
(1747185904.218631) can0 039#0039
(1747185904.221349) can0 294#040C0002922A002E
(1747185904.222151) can0 164#0400005F4100001F
(1747185904.223858) can0 18E#00004D
(1747185904.225304) can0 1A4#0000000000000036
(1747185904.225321) can0 1B0#00000000000075
(1747185904.225531) can0 1D0#000000000000000A
(1747185904.226268) can0 136#000200000000000C
(1747185904.226315) can0 13A#3E0031000000008D
(1747185904.226624) can0 13F#0000000000000005
(1747185904.226896) can0 158#000000000000000A
(1747185904.227097) can0 17C#0000000000000004
(1747185904.227286) can0 1DC#0200000C
(1747185904.232378) can0 164#0400005F4100002E
(1747185904.232951) can0 039#000C
(1747185904.233589) can0 18E#00005C
(1747185904.236338) can0 136#000200000000001B
(1747185904.236354) can0 13A#3E0031000000009C
(1747185904.236588) can0 13F#0000000000000014
(1747185904.236851) can0 158#0000000000000019
(1747185904.237110) can0 17C#0000000000000013
(1747185904.239171) can0 309#0000000000000084
(1747185904.242136) can0 164#0400005F4100003D
(1747185904.243703) can0 18E#00006B
(1747185904.245288) can0 1A4#0000000000000009
(1747185904.245304) can0 1B0#00000000000048
(1747185904.245521) can0 1D0#000000000000000A
(1747185904.246258) can0 136#000200000000002A
(1747185904.246308) can0 13A#3E003100000000AB
(1747185904.246588) can0 13F#0000000000000023
(1747185904.246846) can0 158#0000000000000028
(1747185904.246982) can0 039#001B
(1747185904.247288) can0 17C#0000000000000022
(1747185904.247419) can0 1DC#0200001B
(1747185904.252230) can0 164#0400005F41000000
(1747185904.253881) can0 18E#00007A
(1747185904.256343) can0 136#0002000000000039
(1747185904.256358) can0 13A#3E003100000000BA
(1747185904.256594) can0 13F#0000000000000032
(1747185904.256863) can0 158#0000000000000037
(1747185904.257078) can0 17C#0000000000000031
(1747185904.260233) can0 039#002A
(1747185904.261252) can0 294#040C0002922A003D
(1747185904.262403) can0 164#0400005F4100001F
(1747185904.263702) can0 18E#00004D
(1747185904.265296) can0 1A4#0000000000000018
(1747185904.265312) can0 1B0#00000000000057
(1747185904.265530) can0 1D0#000000000000000A
(1747185904.266295) can0 136#000200000000000C
(1747185904.266335) can0 13A#3E0031000000008D
(1747185904.266655) can0 13F#0000000000000005
(1747185904.266805) can0 158#000000000000000A
(1747185904.267069) can0 17C#0000000000000004
(1747185904.267224) can0 1DC#0200002A
(1747185904.267383) can0 320#000021
(1747185904.267619) can0 324#7E4E16F800000E2A
(1747185904.267824) can0 37C#0000000020
(1747185904.268056) can0 40C#013248474647322F
(1747185904.268226) can0 454#17F62C
(1747185904.268400) can0 465#8EC847532F3422
(1747185904.272186) can0 164#0400005F4100002E
(1747185904.273539) can0 18E#00005C
(1747185904.273808) can0 039#0039
(1747185904.276284) can0 136#000200000000001B
(1747185904.276299) can0 13A#3E0031000000009C
(1747185904.276583) can0 13F#0000000000000014
(1747185904.276854) can0 158#0000000000000019
(1747185904.277095) can0 17C#0000000000000013
(1747185904.282362) can0 164#0400005F4100003D
(1747185904.283871) can0 18E#00006B
(1747185904.285302) can0 1A4#0000000000000027
(1747185904.285318) can0 1B0#00000000000066
(1747185904.285530) can0 1D0#000000000000000A
(1747185904.286268) can0 136#000200000000002A
(1747185904.286314) can0 13A#3E003100000000AB
(1747185904.286579) can0 13F#0000000000000023
(1747185904.286849) can0 158#0000000000000028
(1747185904.287087) can0 17C#0000000000000022
(1747185904.287274) can0 1DC#02000039
(1747185904.289642) can0 039#000C
(1747185904.292319) can0 164#0400005F41000000
(1747185904.293698) can0 18E#00007A
(1747185904.296285) can0 136#0002000000000039
(1747185904.296300) can0 13A#3E003100000000BA
(1747185904.296581) can0 13F#0000000000000032
(1747185904.296854) can0 158#0000000000000037
(1747185904.297084) can0 17C#0000000000000031
(1747185904.301328) can0 294#040C0002922A0000
(1747185904.302124) can0 164#0400005F4100001F
(1747185904.302399) can0 039#001B
(1747185904.303672) can0 18E#00004D
(1747185904.305150) can0 1A4#0000000000000036
(1747185904.305225) can0 1B0#00000000000075
(1747185904.305538) can0 1D0#000000000000000A
(1747185904.306218) can0 136#000200000000000C
(1747185904.306294) can0 13A#3E0031000000008D
(1747185904.306586) can0 13F#0000000000000005
(1747185904.306826) can0 158#000000000000000A
(1747185904.307096) can0 17C#0000000000000004
(1747185904.307268) can0 1DC#0200000C
(1747185904.312386) can0 164#0400005F4100002E
(1747185904.313838) can0 18E#00005C
(1747185904.316203) can0 039#002A
(1747185904.316218) can0 136#000200000000001B
(1747185904.316376) can0 13A#3E0031000000009C
(1747185904.316623) can0 13F#0000000000000014
(1747185904.316876) can0 158#0000000000000019
(1747185904.317103) can0 17C#0000000000000013
(1747185904.317265) can0 305#8E28
(1747185904.322369) can0 164#0400005F4100003D
(1747185904.323835) can0 18E#00006B
(1747185904.325292) can0 1A4#0000000000000009
(1747185904.325308) can0 1B0#00000000000048
(1747185904.325519) can0 1D0#000000000000000A
(1747185904.326219) can0 136#000200000000002A
(1747185904.326266) can0 13A#3E003100000000AB
(1747185904.326562) can0 13F#0000000000000023
(1747185904.326847) can0 158#0000000000000028
(1747185904.327072) can0 17C#0000000000000022
(1747185904.327262) can0 1DC#0200001B
(1747185904.330112) can0 039#0039
(1747185904.332655) can0 164#0400005F41000000
(1747185904.333841) can0 18E#00007A
(1747185904.336317) can0 136#0002000000000039
(1747185904.336333) can0 13A#3E003100000000BA
(1747185904.336565) can0 13F#0000000000000032
(1747185904.336850) can0 158#0000000000000037
(1747185904.337051) can0 17C#0000000000000031
(1747185904.339522) can0 309#0000000000000093
(1747185904.341283) can0 294#040C0002922A001F
(1747185904.342119) can0 164#0400005F4100001F
(1747185904.343655) can0 18E#00004D
(1747185904.345285) can0 1A4#0000000000000018
(1747185904.345301) can0 1B0#00000000000057
(1747185904.345508) can0 1D0#000000000000000A
(1747185904.346215) can0 136#000200000000000C
(1747185904.346290) can0 13A#3E0031000000008D
(1747185904.346560) can0 13F#0000000000000005
(1747185904.346829) can0 158#000000000000000A
(1747185904.347092) can0 17C#0000000000000004
(1747185904.347258) can0 1DC#0200002A
(1747185904.351123) can0 039#000C
(1747185904.352255) can0 164#0400005F4100002E
(1747185904.353833) can0 18E#00005C
(1747185904.356298) can0 136#000200000000001B
(1747185904.356313) can0 13A#3E0031000000009C
(1747185904.356562) can0 13F#0000000000000014
(1747185904.356830) can0 158#0000000000000019
(1747185904.357043) can0 17C#0000000000000013
(1747185904.362235) can0 164#0400005F4100003D
(1747185904.363663) can0 18E#00006B
(1747185904.363906) can0 039#001B
(1747185904.365287) can0 1A4#0000000000000027
(1747185904.365303) can0 1B0#00000000000066
(1747185904.365531) can0 1D0#000000000000000A
(1747185904.366069) can0 136#000200000000002A
(1747185904.366333) can0 13A#3E003100000000AB
(1747185904.366560) can0 13F#0000000000000023
(1747185904.366830) can0 158#0000000000000028
(1747185904.367094) can0 17C#0000000000000022
(1747185904.367252) can0 1DC#02000039
(1747185904.367397) can0 320#000030
(1747185904.367638) can0 324#7E4E170C00000E33
(1747185904.367814) can0 37C#000000003F
(1747185904.372341) can0 164#0400005F41000000
(1747185904.373854) can0 18E#00007A
(1747185904.376297) can0 136#0002000000000039
(1747185904.376312) can0 13A#3E003100000000BA
(1747185904.376552) can0 13F#0000000000000032
(1747185904.376775) can0 158#0000000000000037
(1747185904.377039) can0 17C#0000000000000031
(1747185904.379159) can0 039#002A
(1747185904.381518) can0 294#040C0002922A002E
(1747185904.382225) can0 164#0400005F4100001F
(1747185904.383818) can0 18E#00004D
(1747185904.385306) can0 1A4#0000000000000036
(1747185904.385321) can0 1B0#00000000000075
(1747185904.385528) can0 1D0#000000000000000A
(1747185904.386183) can0 136#000200000000000C
(1747185904.386231) can0 13A#3E0031000000008D
(1747185904.386549) can0 13F#0000000000000005
(1747185904.386778) can0 158#000000000000000A
(1747185904.387059) can0 17C#0000000000000004
(1747185904.387244) can0 1DC#0200000C
(1747185904.392347) can0 164#0400005F4100002E
(1747185904.393814) can0 18E#00005C
(1747185904.393861) can0 039#0039
(1747185904.396289) can0 136#000200000000001B
(1747185904.396305) can0 13A#3E0031000000009C
(1747185904.396524) can0 13F#0000000000000014
(1747185904.396804) can0 158#0000000000000019
(1747185904.397035) can0 17C#0000000000000013
(1747185904.402398) can0 164#0400005F4100003D
(1747185904.403624) can0 18E#00006B
(1747185904.405286) can0 1A4#0000000000000009
(1747185904.405301) can0 1B0#00000000000048
(1747185904.405545) can0 1D0#000000000000000A
(1747185904.406228) can0 136#000200000000002A
(1747185904.406268) can0 13A#3E003100000000AB
(1747185904.406514) can0 13F#0000000000000023
(1747185904.406778) can0 158#0000000000000028
(1747185904.407043) can0 17C#0000000000000022
(1747185904.407232) can0 1DC#0200001B
(1747185904.412342) can0 164#0400005F41000000
(1747185904.413841) can0 18E#00007A
(1747185904.413857) can0 039#000C
(1747185904.416281) can0 136#0002000000000039
(1747185904.416297) can0 13A#3E003100000000BA
(1747185904.416536) can0 13F#0000000000000032
(1747185904.416769) can0 158#0000000000000037
(1747185904.417046) can0 17C#0000000000000031
(1747185904.420729) can0 305#8E37
(1747185904.421066) can0 294#040C0002922A003D
(1747185904.422060) can0 164#0400005F4100001F
(1747185904.423794) can0 18E#00004D
(1747185904.425284) can0 1A4#0000000000000018
(1747185904.425299) can0 1B0#00000000000057
(1747185904.425543) can0 1D0#000000000000000A
(1747185904.426022) can0 136#000200000000000C
(1747185904.426294) can0 13A#3E0031000000008D
(1747185904.426516) can0 13F#0000000000000005
(1747185904.426786) can0 158#000000000000000A
(1747185904.426841) can0 039#001B
(1747185904.427279) can0 17C#0000000000000004
(1747185904.427294) can0 1DC#0200002A
(1747185904.432287) can0 164#0400005F4100002E
(1747185904.433654) can0 18E#00005C
(1747185904.436294) can0 136#000200000000001B
(1747185904.436309) can0 13A#3E0031000000009C
(1747185904.436516) can0 13F#0000000000000014
(1747185904.436759) can0 158#0000000000000019
(1747185904.437035) can0 17C#0000000000000013
(1747185904.438099) can0 428#0701000118D10A
(1747185904.438183) can0 42A#0008
(1747185904.439003) can0 309#00000000000000A2
(1747185904.442199) can0 039#002A
(1747185904.442214) can0 164#0400005F4100003D
(1747185904.443703) can0 18E#00006B
(1747185904.445236) can0 1A4#0000000000000027
(1747185904.445251) can0 1B0#00000000000066
(1747185904.445533) can0 1D0#000000000000000A
(1747185904.446175) can0 136#000200000000002A
(1747185904.446224) can0 13A#3E003100000000AB
(1747185904.446520) can0 13F#0000000000000023
(1747185904.446760) can0 158#0000000000000028
(1747185904.447015) can0 17C#0000000000000022
(1747185904.447226) can0 1DC#02000039
(1747185904.452334) can0 164#0400005F41000000
(1747185904.453798) can0 18E#00007A
(1747185904.456105) can0 039#0039
(1747185904.456120) can0 136#0002000000000039
(1747185904.456293) can0 13A#3E003100000000BA
(1747185904.456547) can0 13F#0000000000000032
(1747185904.456777) can0 158#0000000000000037
(1747185904.457045) can0 17C#0000000000000031
(1747185904.461312) can0 294#040C0002922A0000
(1747185904.462159) can0 164#0400005F4100001F
(1747185904.463804) can0 18E#00004D
(1747185904.465240) can0 1A4#0000000000000036
(1747185904.465255) can0 1B0#00000000000075
(1747185904.465526) can0 1D0#000000000000000A
(1747185904.466036) can0 136#000200000000000C
(1747185904.466295) can0 13A#3E0031000000008D
(1747185904.466532) can0 13F#0000000000000005
(1747185904.466761) can0 158#000000000000000A
(1747185904.467031) can0 17C#0000000000000004
(1747185904.467219) can0 1DC#0200000C
(1747185904.467366) can0 320#000003
(1747185904.467599) can0 324#7E4E172000000E00
(1747185904.467786) can0 37C#0000000002
(1747185904.470094) can0 039#000C
(1747185904.472644) can0 164#0400005F4100002E
(1747185904.473621) can0 18E#00005C
(1747185904.476270) can0 136#000200000000001B
(1747185904.476285) can0 13A#3E0031000000009C
(1747185904.476490) can0 13F#0000000000000014
(1747185904.476886) can0 158#0000000000000019
(1747185904.476960) can0 17C#0000000000000013
(1747185904.482320) can0 164#0400005F4100003D
(1747185904.483669) can0 18E#00006B
(1747185904.483820) can0 039#001B
(1747185904.485218) can0 1A4#0000000000000009
(1747185904.485234) can0 1B0#00000000000048
(1747185904.485512) can0 1D0#000000000000000A
(1747185904.486187) can0 136#000200000000002A
(1747185904.486213) can0 13A#3E003100000000AB
(1747185904.486496) can0 13F#0000000000000023
(1747185904.486756) can0 158#0000000000000028
(1747185904.487013) can0 17C#0000000000000022
(1747185904.487207) can0 1DC#0200001B
(1747185904.492194) can0 164#0400005F41000000
(1747185904.493654) can0 18E#00007A
(1747185904.496031) can0 136#0002000000000039
(1747185904.496239) can0 13A#3E003100000000BA
(1747185904.496493) can0 13F#0000000000000032
(1747185904.496903) can0 158#0000000000000037
(1747185904.496948) can0 17C#0000000000000031
(1747185904.499074) can0 039#002A
(1747185904.501255) can0 294#040C0002922A001F
(1747185904.501995) can0 164#0400005F4100001F
(1747185904.503773) can0 18E#00004D
(1747185904.505254) can0 1A4#0000000000000018
(1747185904.505270) can0 1B0#00000000000057
(1747185904.505530) can0 1D0#000000000000000A
(1747185904.506078) can0 136#000200000000000C
(1747185904.506253) can0 13A#3E0031000000008D
(1747185904.506516) can0 13F#0000000000000005
(1747185904.506745) can0 158#000000000000000A
(1747185904.507001) can0 17C#0000000000000004
(1747185904.507209) can0 1DC#0200002A
(1747185904.512315) can0 164#0400005F4100002E
(1747185904.513779) can0 18E#00005C
(1747185904.516261) can0 136#000200000000001B
(1747185904.516276) can0 13A#3E0031000000009C
(1747185904.516483) can0 13F#0000000000000014
(1747185904.516733) can0 158#0000000000000019
(1747185904.516965) can0 17C#0000000000000013
(1747185904.519099) can0 039#0039
(1747185904.522283) can0 164#0400005F4100003D
(1747185904.523628) can0 18E#00006B
(1747185904.525142) can0 305#8E0A
(1747185904.525158) can0 1A4#0000000000000027
(1747185904.525350) can0 1B0#00000000000066
(1747185904.525635) can0 1D0#000000000000000A
(1747185904.526126) can0 136#000200000000002A
(1747185904.526175) can0 13A#3E003100000000AB
(1747185904.526478) can0 13F#0000000000000023
(1747185904.526708) can0 158#0000000000000028
(1747185904.526977) can0 17C#0000000000000022
(1747185904.527202) can0 1DC#02000039
(1747185904.532214) can0 164#0400005F41000000
(1747185904.533774) can0 18E#00007A
(1747185904.536031) can0 136#0002000000000039
(1747185904.536232) can0 13A#3E003100000000BA
(1747185904.536464) can0 13F#0000000000000032
(1747185904.536741) can0 158#0000000000000037
(1747185904.536972) can0 17C#0000000000000031
(1747185904.539044) can0 309#00000000000000B1
(1747185904.539768) can0 039#000C
(1747185904.541038) can0 294#040C0002922A002E
(1747185904.542204) can0 164#0400005F4100001F
(1747185904.543507) can0 18E#00004D
(1747185904.545083) can0 1A4#0000000000000036
(1747185904.545237) can0 1B0#00000000000075
(1747185904.545514) can0 1D0#000000000000000A
(1747185904.545975) can0 136#000200000000000C
(1747185904.546227) can0 13A#3E0031000000008D
(1747185904.546467) can0 13F#0000000000000005
(1747185904.546772) can0 158#000000000000000A
(1747185904.546963) can0 17C#0000000000000004
(1747185904.547190) can0 1DC#0200000C
(1747185904.552292) can0 164#0400005F4100002E
(1747185904.552961) can0 039#001B
(1747185904.553743) can0 18E#00005C
(1747185904.556282) can0 136#000200000000001B
(1747185904.556297) can0 13A#3E0031000000009C
(1747185904.556472) can0 13F#0000000000000014
(1747185904.556728) can0 158#0000000000000019
(1747185904.556956) can0 17C#0000000000000013
(1747185904.562216) can0 164#0400005F4100003D
(1747185904.563737) can0 18E#00006B
(1747185904.565213) can0 1A4#0000000000000009
(1747185904.565229) can0 1B0#00000000000048
(1747185904.565514) can0 1D0#000000000000000A
(1747185904.566025) can0 136#000200000000002A
(1747185904.566250) can0 13A#3E003100000000AB
(1747185904.566476) can0 13F#0000000000000023
(1747185904.566740) can0 158#0000000000000028
(1747185904.566995) can0 17C#0000000000000022
(1747185904.567203) can0 1DC#0200001B
(1747185904.567239) can0 320#000012
(1747185904.567551) can0 324#7E4E173400000E1A
(1747185904.567729) can0 37C#0000000011
(1747185904.567883) can0 039#002A
(1747185904.568088) can0 40C#0231353336483732
(1747185904.568263) can0 454#17F63B
(1747185904.568447) can0 465#8EC847532F3431
(1747185904.572277) can0 164#0400005F41000000
(1747185904.573787) can0 18E#00007A
(1747185904.576283) can0 136#0002000000000039
(1747185904.576298) can0 13A#3E003100000000BA
(1747185904.576464) can0 13F#0000000000000032
(1747185904.576703) can0 158#0000000000000037
(1747185904.576971) can0 17C#0000000000000031
(1747185904.581270) can0 294#040C0002922A003D
(1747185904.581798) can0 039#0039
(1747185904.582088) can0 164#0400005F4100001F
(1747185904.583741) can0 18E#00004D
(1747185904.585209) can0 1A4#0000000000000018
(1747185904.585225) can0 1B0#00000000000057
(1747185904.585518) can0 1D0#000000000000000A
(1747185904.586164) can0 136#000200000000000C
(1747185904.586190) can0 13A#3E0031000000008D
(1747185904.586453) can0 13F#0000000000000005
(1747185904.586731) can0 158#000000000000000A
(1747185904.586958) can0 17C#0000000000000004
(1747185904.587191) can0 1DC#0200002A
(1747185904.592336) can0 164#0400005F4100002E
(1747185904.593754) can0 18E#00005C
(1747185904.594922) can0 039#000C
(1747185904.595971) can0 136#000200000000001B
(1747185904.596219) can0 13A#3E0031000000009C
(1747185904.596489) can0 13F#0000000000000014
(1747185904.596711) can0 158#0000000000000019
(1747185904.596938) can0 17C#0000000000000013
(1747185904.602330) can0 164#0400005F4100003D
(1747185904.603769) can0 18E#00006B
(1747185904.605190) can0 1A4#0000000000000027
(1747185904.605227) can0 1B0#00000000000066
(1747185904.605512) can0 1D0#000000000000000A
(1747185904.606211) can0 136#000200000000002A
(1747185904.606226) can0 13A#3E003100000000AB
(1747185904.606454) can0 13F#0000000000000023
(1747185904.606700) can0 158#0000000000000028
(1747185904.606949) can0 17C#0000000000000022
(1747185904.607186) can0 1DC#02000039
(1747185904.607991) can0 039#001B
(1747185904.612508) can0 164#0400005F41000000
(1747185904.613574) can0 18E#00007A
(1747185904.616265) can0 136#0002000000000039
(1747185904.616280) can0 13A#3E003100000000BA
(1747185904.616422) can0 13F#0000000000000032
(1747185904.616822) can0 158#0000000000000037
(1747185904.616898) can0 17C#0000000000000031
(1747185904.621272) can0 294#040C0002922A0000
(1747185904.622141) can0 164#0400005F4100001F
(1747185904.623607) can0 039#002A
(1747185904.623622) can0 18E#00004D
(1747185904.625148) can0 1A4#0000000000000036
(1747185904.625200) can0 1B0#00000000000075
(1747185904.625447) can0 1D0#000000000000000A
(1747185904.625966) can0 136#000200000000000C
(1747185904.626225) can0 13A#3E0031000000008D
(1747185904.626413) can0 13F#0000000000000005
(1747185904.626691) can0 158#000000000000000A
(1747185904.626966) can0 17C#0000000000000004
(1747185904.627168) can0 1DC#0200000C
(1747185904.630558) can0 305#8E19
(1747185904.632092) can0 164#0400005F4100002E
(1747185904.633744) can0 18E#00005C
(1747185904.636267) can0 136#000200000000001B
(1747185904.636282) can0 13A#3E0031000000009C
(1747185904.636427) can0 13F#0000000000000014
(1747185904.636678) can0 158#0000000000000019
(1747185904.636947) can0 17C#0000000000000013
(1747185904.637906) can0 039#0039
(1747185904.639094) can0 309#0000000000000084
(1747185904.642240) can0 164#0400005F4100003D
(1747185904.643767) can0 18E#00006B
(1747185904.645179) can0 1A4#0000000000000009
(1747185904.645225) can0 1B0#00000000000048
(1747185904.645529) can0 1D0#000000000000000A
(1747185904.646140) can0 136#000200000000002A
(1747185904.646155) can0 13A#3E003100000000AB
(1747185904.646441) can0 13F#0000000000000023
(1747185904.646684) can0 158#0000000000000028
(1747185904.646951) can0 17C#0000000000000022
(1747185904.647161) can0 1DC#0200001B
(1747185904.652109) can0 039#000C
(1747185904.652125) can0 164#0400005F41000000
(1747185904.653754) can0 18E#00007A
(1747185904.656261) can0 136#0002000000000039
(1747185904.656276) can0 13A#3E003100000000BA
(1747185904.656422) can0 13F#0000000000000032
(1747185904.656680) can0 158#0000000000000037
(1747185904.656946) can0 17C#0000000000000031
(1747185904.661388) can0 294#040C0002922A001F
(1747185904.662006) can0 164#0400005F4100001F
(1747185904.663734) can0 18E#00004D
(1747185904.665176) can0 1A4#0000000000000018
(1747185904.665223) can0 1B0#00000000000057
(1747185904.665521) can0 1D0#000000000000000A
(1747185904.665826) can0 039#001B
(1747185904.666047) can0 136#000200000000000C
(1747185904.666325) can0 13A#3E0031000000008D
(1747185904.666540) can0 13F#0000000000000005
(1747185904.666815) can0 158#000000000000000A
(1747185904.667047) can0 17C#0000000000000004
(1747185904.667208) can0 1DC#0200002A
(1747185904.667363) can0 320#000021
(1747185904.667630) can0 324#7E4E174800000E24
(1747185904.667805) can0 37C#0000000020
(1747185904.672241) can0 164#0400005F4100002E
(1747185904.673735) can0 18E#00005C
(1747185904.676231) can0 136#000200000000001B
(1747185904.676246) can0 13A#3E0031000000009C
(1747185904.676411) can0 13F#0000000000000014
(1747185904.676678) can0 158#0000000000000019
(1747185904.676918) can0 17C#0000000000000013
(1747185904.682326) can0 164#0400005F4100003D
(1747185904.683780) can0 18E#00006B
(1747185904.685168) can0 1A4#0000000000000027
(1747185904.685214) can0 1B0#00000000000066
(1747185904.685515) can0 1D0#000000000000000A
(1747185904.686138) can0 136#000200000000002A
(1747185904.686153) can0 039#002A
(1747185904.686306) can0 13A#3E003100000000AB
(1747185904.686560) can0 13F#0000000000000023
(1747185904.686790) can0 158#0000000000000028
(1747185904.687059) can0 17C#0000000000000022
(1747185904.687226) can0 1DC#02000039
(1747185904.692254) can0 164#0400005F41000000
(1747185904.693734) can0 18E#00007A
(1747185904.696233) can0 136#0002000000000039
(1747185904.696249) can0 13A#3E003100000000BA
(1747185904.696405) can0 13F#0000000000000032
(1747185904.696688) can0 158#0000000000000037
(1747185904.696889) can0 17C#0000000000000031
(1747185904.700157) can0 039#0039
(1747185904.701067) can0 294#040C0002922A002E
(1747185904.702132) can0 164#0400005F4100001F
(1747185904.703715) can0 18E#00004D
(1747185904.705160) can0 1A4#0000000000000036
(1747185904.705208) can0 1B0#00000000000075
(1747185904.705532) can0 1D0#000000000000000A
(1747185904.706035) can0 136#000200000000000C
(1747185904.706111) can0 13A#3E0031000000008D
(1747185904.706403) can0 13F#0000000000000005
(1747185904.706661) can0 158#000000000000000A
(1747185904.706935) can0 17C#0000000000000004
(1747185904.707077) can0 1DC#0200000C
(1747185904.712238) can0 164#0400005F4100002E
(1747185904.712801) can0 039#000C
(1747185904.713705) can0 18E#00005C
(1747185904.716228) can0 136#000200000000001B
(1747185904.716243) can0 13A#3E0031000000009C
(1747185904.716405) can0 13F#0000000000000014
(1747185904.716635) can0 158#0000000000000019
(1747185904.716913) can0 17C#0000000000000013
(1747185904.722251) can0 164#0400005F4100003D
(1747185904.723690) can0 18E#00006B
(1747185904.725196) can0 1A4#0000000000000009
(1747185904.725213) can0 1B0#00000000000048
(1747185904.725542) can0 1D0#000000000000000A
(1747185904.726030) can0 136#000200000000002A
(1747185904.726080) can0 13A#3E003100000000AB
(1747185904.726406) can0 13F#0000000000000023
(1747185904.726490) can0 039#001B
(1747185904.726917) can0 158#0000000000000028
(1747185904.726965) can0 17C#0000000000000022
(1747185904.727193) can0 1DC#0200001B
(1747185904.732301) can0 164#0400005F41000000
(1747185904.733740) can0 18E#00007A
(1747185904.733756) can0 305#8E28
(1747185904.736221) can0 136#0002000000000039
(1747185904.736237) can0 13A#3E003100000000BA
(1747185904.736394) can0 13F#0000000000000032
(1747185904.736657) can0 158#0000000000000037
(1747185904.736875) can0 17C#0000000000000031
(1747185904.738268) can0 428#0701000118D119
(1747185904.738283) can0 42A#0017
(1747185904.739117) can0 309#0000000000000093
(1747185904.741062) can0 039#002A
(1747185904.741078) can0 294#040C0002922A003D
(1747185904.742000) can0 164#0400005F4100001F
(1747185904.743703) can0 18E#00004D
(1747185904.745152) can0 1A4#0000000000000018
(1747185904.745202) can0 1B0#00000000000057
(1747185904.745525) can0 1D0#000000000000000A
(1747185904.746006) can0 136#000200000000000C
(1747185904.746100) can0 13A#3E0031000000008D
(1747185904.746424) can0 13F#0000000000000005
(1747185904.746645) can0 158#000000000000000A
(1747185904.746872) can0 17C#0000000000000004
(1747185904.747055) can0 1DC#0200002A
(1747185904.752430) can0 164#0400005F4100002E
(1747185904.753702) can0 18E#00005C
(1747185904.753746) can0 039#0039
(1747185904.756175) can0 136#000200000000001B
(1747185904.756191) can0 13A#3E0031000000009C
(1747185904.756388) can0 13F#0000000000000014
(1747185904.756650) can0 158#0000000000000019
(1747185904.756871) can0 17C#0000000000000013
(1747185904.762239) can0 164#0400005F4100003D
(1747185904.763740) can0 18E#00006B
(1747185904.765206) can0 1A4#0000000000000027
(1747185904.765222) can0 1B0#00000000000066
(1747185904.765507) can0 1D0#000000000000000A
(1747185904.765997) can0 136#000200000000002A
(1747185904.766153) can0 13A#3E003100000000AB
(1747185904.766395) can0 13F#0000000000000023
(1747185904.766636) can0 158#0000000000000028
(1747185904.766915) can0 17C#0000000000000022
(1747185904.767059) can0 1DC#02000039
(1747185904.767203) can0 320#000030
(1747185904.767466) can0 324#7E4E175C00000E3E
(1747185904.767643) can0 37C#000000003F
(1747185904.767800) can0 039#000C
(1747185904.772223) can0 164#0400005F41000000
(1747185904.773712) can0 18E#00007A
(1747185904.776204) can0 136#0002000000000039
(1747185904.776220) can0 13A#3E003100000000BA
(1747185904.776368) can0 13F#0000000000000032
(1747185904.776645) can0 158#0000000000000037
(1747185904.776868) can0 17C#0000000000000031
(1747185904.781109) can0 039#001B
(1747185904.781125) can0 294#040C0002922A0000
(1747185904.781982) can0 164#0400005F4100001F
(1747185904.783694) can0 18E#00004D
(1747185904.785207) can0 1A4#0000000000000036
(1747185904.785222) can0 1B0#00000000000075
(1747185904.785557) can0 1D0#000000000000000A
(1747185904.785916) can0 136#000200000000000C
(1747185904.786130) can0 13A#3E0031000000008D
(1747185904.786388) can0 13F#0000000000000005
(1747185904.786611) can0 158#000000000000000A
(1747185904.786887) can0 17C#0000000000000004
(1747185904.787050) can0 1DC#0200000C
(1747185904.791955) can0 164#0400005F4100002E
(1747185904.793425) can0 18E#00005C
(1747185904.795882) can0 136#000200000000001B
(1747185904.796117) can0 13A#3E0031000000009C
(1747185904.796344) can0 13F#0000000000000014
(1747185904.796604) can0 158#0000000000000019
(1747185904.796754) can0 039#002A
(1747185904.796992) can0 17C#0000000000000013
(1747185904.802154) can0 164#0400005F4100003D
(1747185904.803676) can0 18E#00006B
(1747185904.805188) can0 1A4#0000000000000009
(1747185904.805203) can0 1B0#00000000000048
(1747185904.805514) can0 1D0#000000000000000A
(1747185904.805979) can0 136#000200000000002A
(1747185904.806132) can0 13A#3E003100000000AB
(1747185904.806380) can0 13F#0000000000000023
(1747185904.806604) can0 158#0000000000000028
(1747185904.806863) can0 17C#0000000000000022
(1747185904.807016) can0 1DC#0200001B
(1747185904.811080) can0 039#0039
(1747185904.812048) can0 164#0400005F41000000
(1747185904.813514) can0 18E#00007A
(1747185904.816172) can0 136#0002000000000039
(1747185904.816186) can0 13A#3E003100000000BA
(1747185904.816345) can0 13F#0000000000000032
(1747185904.816600) can0 158#0000000000000037
(1747185904.816857) can0 17C#0000000000000031
(1747185904.821199) can0 294#040C0002922A001F
(1747185904.822222) can0 164#0400005F4100001F
(1747185904.823670) can0 18E#00004D
(1747185904.825204) can0 1A4#0000000000000018
(1747185904.825240) can0 1B0#00000000000057
(1747185904.825529) can0 1D0#000000000000000A
(1747185904.825904) can0 136#000200000000000C
(1747185904.826111) can0 13A#3E0031000000008D
(1747185904.826390) can0 13F#0000000000000005
(1747185904.826619) can0 158#000000000000000A
(1747185904.826876) can0 17C#0000000000000004
(1747185904.827027) can0 1DC#0200002A
(1747185904.831108) can0 039#000C
(1747185904.832061) can0 164#0400005F4100002E
(1747185904.833604) can0 18E#00005C
(1747185904.836185) can0 136#000200000000001B
(1747185904.836201) can0 13A#3E0031000000009C
(1747185904.836347) can0 13F#0000000000000014
(1747185904.836614) can0 158#0000000000000019
(1747185904.836879) can0 17C#0000000000000013
(1747185904.837735) can0 305#8E37
(1747185904.839073) can0 309#00000000000000A2
(1747185904.842175) can0 164#0400005F4100003D
(1747185904.843661) can0 18E#00006B
(1747185904.843797) can0 039#001B
(1747185904.845152) can0 1A4#0000000000000027
(1747185904.845199) can0 1B0#00000000000066
(1747185904.845511) can0 1D0#000000000000000A
(1747185904.845965) can0 136#000200000000002A
(1747185904.846115) can0 13A#3E003100000000AB
(1747185904.846338) can0 13F#0000000000000023
(1747185904.846600) can0 158#0000000000000028
(1747185904.846841) can0 17C#0000000000000022
(1747185904.846996) can0 1DC#02000039
(1747185904.851905) can0 164#0400005F41000000
(1747185904.853704) can0 18E#00007A
(1747185904.856174) can0 136#0002000000000039
(1747185904.856189) can0 13A#3E003100000000BA
(1747185904.856278) can0 13F#0000000000000032
(1747185904.856596) can0 158#0000000000000037
(1747185904.856865) can0 17C#0000000000000031
(1747185904.859046) can0 039#002A
(1747185904.861190) can0 294#040C0002922A002E
(1747185904.862072) can0 164#0400005F4100001F
(1747185904.863669) can0 18E#00004D
(1747185904.865167) can0 1A4#0000000000000036
(1747185904.865226) can0 1B0#00000000000075
(1747185904.865450) can0 1D0#000000000000000A
(1747185904.866124) can0 136#000200000000000C
(1747185904.866144) can0 13A#3E0031000000008D
(1747185904.866313) can0 13F#0000000000000005
(1747185904.866566) can0 158#000000000000000A
(1747185904.866822) can0 17C#0000000000000004
(1747185904.866979) can0 1DC#0200000C
(1747185904.867133) can0 320#000003
(1747185904.867365) can0 324#7E4E177000000E0B
(1747185904.867569) can0 37C#0000000002
(1747185904.867787) can0 40C#0330393434330002
(1747185904.867942) can0 454#17F60E
(1747185904.868151) can0 465#8EC847532F3404
(1747185904.871949) can0 164#0400005F4100002E
(1747185904.872736) can0 039#0039
(1747185904.873399) can0 18E#00005C
(1747185904.875860) can0 136#000200000000001B
(1747185904.876107) can0 13A#3E0031000000009C
(1747185904.876344) can0 13F#0000000000000014
(1747185904.876611) can0 158#0000000000000019
(1747185904.876834) can0 17C#0000000000000013
(1747185904.882071) can0 164#0400005F4100003D
(1747185904.883645) can0 18E#00006B
(1747185904.885131) can0 1A4#0000000000000009
(1747185904.885210) can0 1B0#00000000000048
(1747185904.885553) can0 1D0#000000000000000A
(1747185904.885873) can0 136#000200000000002A
(1747185904.886047) can0 13A#3E003100000000AB
(1747185904.886419) can0 13F#0000000000000023
(1747185904.886519) can0 158#0000000000000028
(1747185904.886970) can0 17C#0000000000000022
(1747185904.886984) can0 1DC#0200001B
(1747185904.892230) can0 164#0400005F41000000
(1747185904.893546) can0 18E#00007A
(1747185904.894328) can0 039#000C
(1747185904.895923) can0 136#0002000000000039
(1747185904.896032) can0 13A#3E003100000000BA
(1747185904.896459) can0 13F#0000000000000032
(1747185904.896625) can0 158#0000000000000037
(1747185904.896827) can0 17C#0000000000000031
(1747185904.901190) can0 294#040C0002922A003D
(1747185904.901957) can0 164#0400005F4100001F
(1747185904.903525) can0 18E#00004D
(1747185904.905156) can0 1A4#0000000000000018
(1747185904.905207) can0 1B0#00000000000057
(1747185904.905528) can0 1D0#000000000000000A
(1747185904.905851) can0 136#000200000000000C
(1747185904.906092) can0 13A#3E0031000000008D
(1747185904.906316) can0 13F#0000000000000005
(1747185904.906570) can0 158#000000000000000A
(1747185904.906837) can0 17C#0000000000000004
(1747185904.906992) can0 1DC#0200002A
(1747185904.912199) can0 164#0400005F4100002E
(1747185904.913663) can0 18E#00005C
(1747185904.913711) can0 039#001B
(1747185904.916128) can0 136#000200000000001B
(1747185904.916144) can0 13A#3E0031000000009C
(1747185904.916320) can0 13F#0000000000000014
(1747185904.916545) can0 158#0000000000000019
(1747185904.916800) can0 17C#0000000000000013
(1747185904.922193) can0 164#0400005F4100003D
(1747185904.923693) can0 18E#00006B
(1747185904.925239) can0 1A4#0000000000000027
(1747185904.925254) can0 1B0#00000000000066
(1747185904.925525) can0 1D0#000000000000000A
(1747185904.925829) can0 136#000200000000002A
(1747185904.926098) can0 13A#3E003100000000AB
(1747185904.926315) can0 13F#0000000000000023
(1747185904.926571) can0 158#0000000000000028
(1747185904.926804) can0 17C#0000000000000022
(1747185904.926984) can0 1DC#02000039
(1747185904.932177) can0 164#0400005F41000000
(1747185904.933656) can0 18E#00007A
(1747185904.934931) can0 039#002A
(1747185904.936063) can0 136#0002000000000039
(1747185904.936079) can0 13A#3E003100000000BA
(1747185904.936309) can0 13F#0000000000000032
(1747185904.936542) can0 158#0000000000000037
(1747185904.936816) can0 17C#0000000000000031
(1747185904.939119) can0 309#00000000000000B1
(1747185904.941348) can0 294#040C0002922A0000
(1747185904.941777) can0 305#8E0A
(1747185904.941999) can0 164#0400005F4100001F
(1747185904.943552) can0 18E#00004D
(1747185904.945209) can0 1A4#0000000000000036
(1747185904.945225) can0 1B0#00000000000075
(1747185904.945529) can0 1D0#000000000000000A
(1747185904.945825) can0 136#000200000000000C
(1747185904.946094) can0 13A#3E0031000000008D
(1747185904.946304) can0 13F#0000000000000005
(1747185904.946573) can0 158#000000000000000A
(1747185904.946788) can0 17C#0000000000000004
(1747185904.946981) can0 1DC#0200000C
(1747185904.947817) can0 039#0039
(1747185904.952184) can0 164#0400005F4100002E
(1747185904.953651) can0 18E#00005C
(1747185904.956107) can0 136#000200000000001B
(1747185904.956123) can0 13A#3E0031000000009C
(1747185904.956281) can0 13F#0000000000000014
(1747185904.956681) can0 158#0000000000000019
(1747185904.956731) can0 17C#0000000000000013
(1747185904.962233) can0 164#0400005F4100003D
(1747185904.963006) can0 039#000C
(1747185904.963379) can0 18E#00006B
(1747185904.965191) can0 1A4#0000000000000009
(1747185904.965231) can0 1B0#00000000000048
(1747185904.965527) can0 1D0#000000000000000A
(1747185904.965822) can0 136#000200000000002A
(1747185904.966089) can0 13A#3E003100000000AB
(1747185904.966299) can0 13F#0000000000000023
(1747185904.966552) can0 158#0000000000000028
(1747185904.966826) can0 17C#0000000000000022
(1747185904.966969) can0 1DC#0200001B
(1747185904.967151) can0 320#000012
(1747185904.967354) can0 324#7E4E178400000E15
(1747185904.967560) can0 37C#0000000011
(1747185904.972162) can0 164#0400005F41000000
(1747185904.973671) can0 18E#00007A
(1747185904.976102) can0 136#0002000000000039
(1747185904.976117) can0 13A#3E003100000000BA
(1747185904.976298) can0 13F#0000000000000032
(1747185904.976530) can0 158#0000000000000037
(1747185904.976800) can0 17C#0000000000000031
(1747185904.981168) can0 294#040C0002922A001F
(1747185904.981930) can0 164#0400005F4100001F
(1747185904.982867) can0 039#001B
(1747185904.983616) can0 18E#00004D
(1747185904.985214) can0 1A4#0000000000000018
(1747185904.985229) can0 1B0#00000000000057
(1747185904.985558) can0 1D0#000000000000000A
(1747185904.985825) can0 136#000200000000000C
(1747185904.986092) can0 13A#3E0031000000008D
(1747185904.986292) can0 13F#0000000000000005
(1747185904.986563) can0 158#000000000000000A
(1747185904.986832) can0 17C#0000000000000004
(1747185904.986963) can0 1DC#0200002A
(1747185904.992190) can0 164#0400005F4100002E
(1747185904.993645) can0 18E#00005C
(1747185904.996095) can0 136#000200000000001B
(1747185904.996111) can0 13A#3E0031000000009C
(1747185904.996274) can0 13F#0000000000000014
(1747185904.996551) can0 158#0000000000000019
(1747185904.996785) can0 17C#0000000000000013
(1747185904.996926) can0 039#002A
(1747185905.002179) can0 164#0400005F4100003D
(1747185905.003685) can0 18E#00006B
(1747185905.005218) can0 1A4#0000000000000027
(1747185905.005234) can0 1B0#00000000000066
(1747185905.005525) can0 1D0#000000000000000A
(1747185905.005801) can0 136#000200000000002A
(1747185905.006070) can0 13A#3E003100000000AB
(1747185905.006293) can0 13F#0000000000000023
(1747185905.006521) can0 158#0000000000000028
(1747185905.006777) can0 17C#0000000000000022
(1747185905.006954) can0 1DC#02000039
(1747185905.009041) can0 039#0039
(1747185905.012120) can0 164#0400005F41000000
(1747185905.013642) can0 18E#00007A
(1747185905.016088) can0 136#0002000000000039
(1747185905.016104) can0 13A#3E003100000000BA
(1747185905.016269) can0 13F#0000000000000032
(1747185905.016675) can0 158#0000000000000037
(1747185905.016724) can0 17C#0000000000000031
(1747185905.021148) can0 294#040C0002922A002E
(1747185905.021906) can0 039#000C
(1747185905.022058) can0 164#0400005F4100001F
(1747185905.023592) can0 18E#00004D
(1747185905.025203) can0 1A4#0000000000000036
(1747185905.025218) can0 1B0#00000000000075
(1747185905.025520) can0 1D0#000000000000000A
(1747185905.025798) can0 136#000200000000000C
(1747185905.026071) can0 13A#3E0031000000008D
(1747185905.026263) can0 13F#0000000000000005
(1747185905.026519) can0 158#000000000000000A
(1747185905.026796) can0 17C#0000000000000004
(1747185905.026939) can0 1DC#0200000C
(1747185905.032362) can0 164#0400005F4100002E
(1747185905.033629) can0 18E#00005C
(1747185905.036092) can0 136#000200000000001B
(1747185905.036108) can0 13A#3E0031000000009C
(1747185905.036256) can0 13F#0000000000000014
(1747185905.036525) can0 158#0000000000000019
(1747185905.036774) can0 17C#0000000000000013
(1747185905.037847) can0 428#0701000118D128
(1747185905.038050) can0 42A#0026
(1747185905.039251) can0 309#0000000000000084
(1747185905.041562) can0 039#001B
(1747185905.041896) can0 164#0400005F4100003D
(1747185905.043633) can0 18E#00006B
(1747185905.045202) can0 1A4#0000000000000009
(1747185905.045217) can0 1B0#00000000000048
(1747185905.045505) can0 1D0#000000000000000A
(1747185905.045795) can0 136#000200000000002A
(1747185905.046052) can0 13A#3E003100000000AB
(1747185905.046251) can0 13F#0000000000000023
(1747185905.046508) can0 158#0000000000000028
(1747185905.046777) can0 17C#0000000000000022
(1747185905.046943) can0 1DC#0200001B
(1747185905.047789) can0 305#8E19
(1747185905.052147) can0 164#0400005F41000000
(1747185905.053656) can0 18E#00007A
(1747185905.054705) can0 039#002A
(1747185905.055772) can0 136#0002000000000039
(1747185905.056044) can0 13A#3E003100000000BA
(1747185905.056247) can0 13F#0000000000000032
(1747185905.056504) can0 158#0000000000000037
(1747185905.056765) can0 17C#0000000000000031
(1747185905.061104) can0 294#040C0002922A003D
(1747185905.061989) can0 164#0400005F4100001F
(1747185905.063617) can0 18E#00004D
(1747185905.065156) can0 1A4#0000000000000018
(1747185905.065199) can0 1B0#00000000000057
(1747185905.065495) can0 1D0#000000000000000A
(1747185905.065795) can0 136#000200000000000C
(1747185905.066034) can0 13A#3E0031000000008D
(1747185905.066274) can0 13F#0000000000000005
(1747185905.066500) can0 158#000000000000000A
(1747185905.066765) can0 17C#0000000000000004
(1747185905.066944) can0 1DC#0200002A
(1747185905.067091) can0 320#000021
(1747185905.067321) can0 324#7E4E179800000E2F
(1747185905.067525) can0 37C#0000000020
(1747185905.068706) can0 039#0039
(1747185905.071881) can0 164#0400005F4100002E
(1747185905.073615) can0 18E#00005C
(1747185905.076081) can0 136#000200000000001B
(1747185905.076095) can0 13A#3E0031000000009C
(1747185905.076239) can0 13F#0000000000000014
(1747185905.076626) can0 158#0000000000000019
(1747185905.076672) can0 17C#0000000000000013
(1747185905.082146) can0 164#0400005F4100003D
(1747185905.083630) can0 18E#00006B
(1747185905.083644) can0 039#000C
(1747185905.085139) can0 1A4#0000000000000027
(1747185905.085185) can0 1B0#00000000000066
(1747185905.085525) can0 1D0#000000000000000A
(1747185905.085777) can0 136#000200000000002A
(1747185905.086047) can0 13A#3E003100000000AB
(1747185905.086241) can0 13F#0000000000000023
(1747185905.086494) can0 158#0000000000000028
(1747185905.086759) can0 17C#0000000000000022
(1747185905.086908) can0 1DC#02000039
(1747185905.092146) can0 164#0400005F41000000
(1747185905.093609) can0 18E#00007A
(1747185905.096049) can0 136#0002000000000039
(1747185905.096064) can0 13A#3E003100000000BA
(1747185905.096234) can0 13F#0000000000000032
(1747185905.096498) can0 158#0000000000000037
(1747185905.096763) can0 17C#0000000000000031
(1747185905.096838) can0 039#001B
(1747185905.101117) can0 294#040C0002922A0000
(1747185905.102127) can0 164#0400005F4100001F
(1747185905.103593) can0 18E#00004D
(1747185905.105179) can0 1A4#0000000000000036
(1747185905.105226) can0 1B0#00000000000075
(1747185905.105516) can0 1D0#000000000000000A
(1747185905.105744) can0 136#000200000000000C
(1747185905.106037) can0 13A#3E0031000000008D
(1747185905.106257) can0 13F#0000000000000005
(1747185905.106514) can0 158#000000000000000A
(1747185905.106737) can0 17C#0000000000000004
(1747185905.106930) can0 1DC#0200000C
(1747185905.112113) can0 164#0400005F4100002E
(1747185905.113604) can0 18E#00005C
(1747185905.115009) can0 039#002A
(1747185905.115870) can0 136#000200000000001B
(1747185905.116022) can0 13A#3E0031000000009C
(1747185905.116240) can0 13F#0000000000000014
(1747185905.116484) can0 158#0000000000000019
(1747185905.116874) can0 17C#0000000000000013
(1747185905.122108) can0 164#0400005F4100003D
(1747185905.123628) can0 18E#00006B
(1747185905.125174) can0 1A4#0000000000000009
(1747185905.125220) can0 1B0#00000000000048
(1747185905.125511) can0 1D0#000000000000000A
(1747185905.125770) can0 136#000200000000002A
(1747185905.126035) can0 13A#3E003100000000AB
(1747185905.126252) can0 13F#0000000000000023
(1747185905.126488) can0 158#0000000000000028
(1747185905.126766) can0 17C#0000000000000022
(1747185905.126921) can0 1DC#0200001B
(1747185905.129654) can0 039#0039
(1747185905.131889) can0 164#0400005F41000000
(1747185905.133604) can0 18E#00007A
(1747185905.135729) can0 136#0002000000000039
(1747185905.136024) can0 13A#3E003100000000BA
(1747185905.136220) can0 13F#0000000000000032
(1747185905.136426) can0 158#0000000000000037
(1747185905.136722) can0 17C#0000000000000031
(1747185905.139060) can0 309#0000000000000093
(1747185905.141042) can0 294#040C0002922A001F
(1747185905.141855) can0 164#0400005F4100001F
(1747185905.143563) can0 18E#00004D
(1747185905.144246) can0 039#000C
(1747185905.145151) can0 1A4#0000000000000018
(1747185905.145200) can0 1B0#00000000000057
(1747185905.145514) can0 1D0#000000000000000A
(1747185905.145788) can0 136#000200000000000C
(1747185905.146024) can0 13A#3E0031000000008D
(1747185905.146256) can0 13F#0000000000000005
(1747185905.146533) can0 158#000000000000000A
(1747185905.146760) can0 17C#0000000000000004
(1747185905.146916) can0 1DC#0200002A
(1747185905.152050) can0 305#8E28
(1747185905.152064) can0 164#0400005F4100002E
(1747185905.153567) can0 18E#00005C
(1747185905.156034) can0 136#000200000000001B
(1747185905.156048) can0 13A#3E0031000000009C
(1747185905.156195) can0 13F#0000000000000014
(1747185905.156563) can0 158#0000000000000019
(1747185905.156708) can0 17C#0000000000000013
(1747185905.158952) can0 039#001B
(1747185905.162148) can0 164#0400005F4100003D
(1747185905.163624) can0 18E#00006B
(1747185905.165157) can0 1A4#0000000000000027
(1747185905.165203) can0 1B0#00000000000066
(1747185905.165532) can0 1D0#000000000000000A
(1747185905.165807) can0 136#000200000000002A
(1747185905.166021) can0 13A#3E003100000000AB
(1747185905.166247) can0 13F#0000000000000023
(1747185905.166504) can0 158#0000000000000028
(1747185905.166789) can0 17C#0000000000000022
(1747185905.166930) can0 1DC#02000039
(1747185905.167076) can0 320#000030
(1747185905.167349) can0 324#7E4E17AC00000E39
(1747185905.167505) can0 37C#000000003F
(1747185905.167764) can0 40C#0000000004000013
(1747185905.167915) can0 454#17F61D
(1747185905.168112) can0 465#8EC847532F3413
(1747185905.172075) can0 039#002A
(1747185905.172118) can0 164#0400005F41000000
(1747185905.173458) can0 18E#00007A
(1747185905.176020) can0 136#0002000000000039
(1747185905.176034) can0 13A#3E003100000000BA
(1747185905.176201) can0 13F#0000000000000032
(1747185905.176483) can0 158#0000000000000037
(1747185905.176709) can0 17C#0000000000000031
(1747185905.181092) can0 294#040C0002922A002E
(1747185905.181911) can0 164#0400005F4100001F
(1747185905.183578) can0 18E#00004D
(1747185905.185156) can0 1A4#0000000000000036
(1747185905.185203) can0 1B0#00000000000075
(1747185905.185523) can0 1D0#000000000000000A
(1747185905.185749) can0 136#000200000000000C
(1747185905.186014) can0 13A#3E0031000000008D
(1747185905.186273) can0 13F#0000000000000005
(1747185905.186503) can0 158#000000000000000A
(1747185905.186777) can0 17C#0000000000000004
(1747185905.186920) can0 1DC#0200000C
(1747185905.187271) can0 039#0039
(1747185905.192099) can0 164#0400005F4100002E
(1747185905.193589) can0 18E#00005C
(1747185905.196023) can0 136#000200000000001B
(1747185905.196038) can0 13A#3E0031000000009C
(1747185905.196195) can0 13F#0000000000000014
(1747185905.196607) can0 158#0000000000000019
(1747185905.196654) can0 17C#0000000000000013
(1747185905.200831) can0 039#000C
(1747185905.201950) can0 164#0400005F4100003D
(1747185905.203544) can0 18E#00006B
(1747185905.205148) can0 1A4#0000000000000009
(1747185905.205195) can0 1B0#00000000000048
(1747185905.205510) can0 1D0#000000000000000A
(1747185905.205738) can0 136#000200000000002A
(1747185905.206006) can0 13A#3E003100000000AB
(1747185905.206230) can0 13F#0000000000000023
(1747185905.206488) can0 158#0000000000000028
(1747185905.206758) can0 17C#0000000000000022
(1747185905.206898) can0 1DC#0200001B
(1747185905.212102) can0 164#0400005F41000000
(1747185905.213610) can0 18E#00007A
(1747185905.216009) can0 136#0002000000000039
(1747185905.216025) can0 13A#3E003100000000BA
(1747185905.216207) can0 13F#0000000000000032
(1747185905.216445) can0 158#0000000000000037
(1747185905.216695) can0 17C#0000000000000031
(1747185905.219684) can0 039#001B
(1747185905.221143) can0 294#040C0002922A003D
(1747185905.221830) can0 164#0400005F4100001F
(1747185905.223583) can0 18E#00004D
(1747185905.225211) can0 1A4#0000000000000018
(1747185905.225228) can0 1B0#00000000000057
(1747185905.225535) can0 1D0#000000000000000A
(1747185905.225793) can0 136#000200000000000C
(1747185905.226054) can0 13A#3E0031000000008D
(1747185905.226255) can0 13F#0000000000000005
(1747185905.226511) can0 158#000000000000000A
(1747185905.226774) can0 17C#0000000000000004
(1747185905.226994) can0 1DC#0200002A
(1747185905.231860) can0 164#0400005F4100002E
(1747185905.233573) can0 18E#00005C
(1747185905.233615) can0 039#002A
(1747185905.235987) can0 136#000200000000001B
(1747185905.236002) can0 13A#3E0031000000009C
(1747185905.236167) can0 13F#0000000000000014
(1747185905.236563) can0 158#0000000000000019
(1747185905.236640) can0 17C#0000000000000013
(1747185905.239024) can0 309#00000000000000A2
(1747185905.242195) can0 164#0400005F4100003D
(1747185905.243593) can0 18E#00006B
(1747185905.245226) can0 1A4#0000000000000027
(1747185905.245240) can0 1B0#00000000000066
(1747185905.245506) can0 1D0#000000000000000A
(1747185905.245774) can0 136#000200000000002A
(1747185905.245995) can0 13A#3E003100000000AB
(1747185905.246259) can0 13F#0000000000000023
(1747185905.246506) can0 158#0000000000000028
(1747185905.246784) can0 17C#0000000000000022
(1747185905.246923) can0 1DC#02000039
(1747185905.251877) can0 164#0400005F41000000
(1747185905.252703) can0 039#0039
(1747185905.253474) can0 18E#00007A
(1747185905.255662) can0 136#0002000000000039
(1747185905.255994) can0 13A#3E003100000000BA
(1747185905.256169) can0 13F#0000000000000032
(1747185905.256426) can0 158#0000000000000037
(1747185905.256675) can0 17C#0000000000000031
(1747185905.259519) can0 305#8E37
(1747185905.261001) can0 294#040C0002922A0000
(1747185905.261833) can0 164#0400005F4100001F
(1747185905.263527) can0 18E#00004D
(1747185905.265222) can0 1A4#0000000000000036
(1747185905.265236) can0 1B0#00000000000075
(1747185905.265501) can0 1D0#000000000000000A
(1747185905.265752) can0 136#000200000000000C
(1747185905.266013) can0 13A#3E0031000000008D
(1747185905.266248) can0 13F#0000000000000005
(1747185905.266496) can0 158#000000000000000A
(1747185905.266749) can0 17C#0000000000000004
(1747185905.266907) can0 1DC#0200000C
(1747185905.267059) can0 320#000003
(1747185905.267324) can0 324#7E4E17C000000E06
(1747185905.267494) can0 37C#0000000002
(1747185905.268792) can0 039#000C
(1747185905.272044) can0 164#0400005F4100002E
(1747185905.273552) can0 18E#00005C
(1747185905.275983) can0 136#000200000000001B
(1747185905.275997) can0 13A#3E0031000000009C
(1747185905.276151) can0 13F#0000000000000014
(1747185905.276551) can0 158#0000000000000019
(1747185905.276619) can0 17C#0000000000000013
(1747185905.281998) can0 039#001B
(1747185905.282012) can0 164#0400005F4100003D
(1747185905.283535) can0 18E#00006B
(1747185905.285216) can0 1A4#0000000000000009
(1747185905.285231) can0 1B0#00000000000048
(1747185905.285497) can0 1D0#000000000000000A
(1747185905.285752) can0 136#000200000000002A
(1747185905.285999) can0 13A#3E003100000000AB
(1747185905.286238) can0 13F#0000000000000023
(1747185905.286489) can0 158#0000000000000028
(1747185905.286745) can0 17C#0000000000000022
(1747185905.286904) can0 1DC#0200001B
(1747185905.292077) can0 164#0400005F41000000
(1747185905.293542) can0 18E#00007A
(1747185905.295943) can0 136#0002000000000039
(1747185905.295958) can0 13A#3E003100000000BA
(1747185905.296152) can0 13F#0000000000000032
(1747185905.296412) can0 158#0000000000000037
(1747185905.296667) can0 17C#0000000000000031
(1747185905.296791) can0 039#002A
(1747185905.301063) can0 294#040C0002922A001F
(1747185905.301930) can0 164#0400005F4100001F
(1747185905.303510) can0 18E#00004D
(1747185905.305320) can0 1A4#0000000000000018
(1747185905.305334) can0 1B0#00000000000057
(1747185905.305491) can0 1D0#000000000000000A
(1747185905.305777) can0 136#000200000000000C
(1747185905.306004) can0 13A#3E0031000000008D
(1747185905.306255) can0 13F#0000000000000005
(1747185905.306491) can0 158#000000000000000A
(1747185905.306750) can0 17C#0000000000000004
(1747185905.306981) can0 1DC#0200002A
(1747185905.310531) can0 039#0039
