(1757372495.566973) can0 280#0005100000000000
(1757372495.566982) can0 372#0058000000000000
(1757372495.567500) can0 156#0100000000000025
(1757372495.567509) can0 282#CB51008AA1832A04
(1757372495.567847) can0 0D0#8200000000000003
(1757372495.568007) can0 002#FF73700BED000000
(1757372495.568209) can0 0D1#00000080
(1757372495.568529) can0 0D2#0000FFFF10000000
(1757372495.568625) can0 0D3#8006C00F0000B4
(1757372495.569004) can0 0D4#0000000000000000
(1757372495.570814) can0 140#00019C4300001081
(1757372495.570823) can0 141#B42712279D832702
(1757372495.570930) can0 144#C00085010028A004
(1757372495.571389) can0 152#E1BC00000000088C
(1757372495.571399) can0 376#FA
(1757372495.577690) can0 002#FF73700DEF000000
(1757372495.580501) can0 140#0002974300001001
(1757372495.580827) can0 141#B42712279CC32702
(1757372495.586778) can0 280#0006100000000000
(1757372495.587195) can0 156#0100000000000025
(1757372495.587672) can0 0D0#820000000000FF03
(1757372495.587926) can0 002#FF73700FF1000000
(1757372495.588107) can0 0D1#00000080
(1757372495.588342) can0 0D2#0000FFFF10000000
(1757372495.588503) can0 0D3#0006C00F0000B5
(1757372495.588800) can0 0D4#0000000000000000
(1757372495.590494) can0 140#0003974300001081
(1757372495.590696) can0 141#B42712279CC32702
(1757372495.590950) can0 144#C00085010028A004
(1757372495.591180) can0 152#E9CC00000000088C
(1757372495.597690) can0 002#FF737001E3000000
(1757372495.600587) can0 140#0004974300001001
(1757372495.600686) can0 141#B42712279B832702
(1757372495.601042) can0 360#B100007A12441100
(1757372495.601157) can0 361#003200E908000000
(1757372495.606744) can0 280#0007100000000000
(1757372495.607358) can0 156#0100000000000025
(1757372495.607713) can0 0D0#820000000000FF03
(1757372495.607955) can0 002#FF737003E5000000
(1757372495.608095) can0 0D1#00000080
(1757372495.608387) can0 0D2#0000FFFF10000000
(1757372495.608542) can0 0D3#0006C00F0000B6
(1757372495.608847) can0 0D4#0000000000000000
(1757372495.610455) can0 140#00059E4300001081
(1757372495.610709) can0 141#B42712279B832702
(1757372495.611028) can0 144#C00085010028A004
(1757372495.611170) can0 152#E1DC00000000088C
(1757372495.617408) can0 282#CB61008AA1832A04
(1757372495.617757) can0 002#FF737005E7000000
(1757372495.620819) can0 140#00069E4300001081
(1757372495.620830) can0 141#B42710279BC32702
(1757372495.620836) can0 376#FA
(1757372495.626908) can0 280#0008100000000000
(1757372495.627276) can0 156#0100000000000025
(1757372495.627499) can0 3D1#351100004E000000
(1757372495.627782) can0 0D0#820000000000FF03
(1757372495.628018) can0 002#FF737007E9000000
(1757372495.628191) can0 0D1#00000080
(1757372495.628432) can0 0D2#0000FFFF10000000
(1757372495.628640) can0 0D3#8006C00F0000B7
(1757372495.628902) can0 0D4#0000000000000000
(1757372495.629126) can0 380#190A000000000023
(1757372495.630520) can0 140#00079E4300001001
(1757372495.630709) can0 141#B42710279C832702
(1757372495.630940) can0 144#C00184010028A004
(1757372495.631189) can0 152#E1EC00000000088C
(1757372495.638092) can0 002#FF737009EB000000
(1757372495.640522) can0 140#00089E4300001001
(1757372495.640723) can0 141#B42710279C832702
(1757372495.645517) can0 284#C109000E00000000
(1757372495.646907) can0 280#0009100000000000
(1757372495.647605) can0 156#0100000000000025
(1757372495.647766) can0 002#FF73700BED000000
(1757372495.648150) can0 0D0#820000000000FF03
(1757372495.648164) can0 0D1#00000080
(1757372495.648432) can0 0D2#0000FFFF10000000
(1757372495.648670) can0 0D3#8006C00F0000B8
(1757372495.648915) can0 0D4#0000000000000000
(1757372495.650746) can0 140#00099E4300001081
(1757372495.650759) can0 141#B42710279C832702
(1757372495.650927) can0 144#C00184010028A004
(1757372495.651304) can0 152#E9FC00000000088C
(1757372495.651348) can0 360#B000007A11441100
(1757372495.651683) can0 361#002200E909000000
(1757372495.658122) can0 002#FF73700DEF000000
(1757372495.660788) can0 140#000A9E4300001081
(1757372495.660802) can0 141#B42710279DC32702
(1757372495.667065) can0 280#000A100000000000
(1757372495.667078) can0 372#0068000000000000
(1757372495.667237) can0 156#0100000000000025
(1757372495.667485) can0 282#C671008AA1832A04
(1757372495.667717) can0 0D0#820000000000FF02
(1757372495.667973) can0 002#FF73700FF1000000
(1757372495.668140) can0 0D1#00000080
(1757372495.668363) can0 0D2#0000FFFF10000000
(1757372495.668605) can0 0D3#0006C00F0000B9
(1757372495.668850) can0 0D4#0000000000000000
(1757372495.670566) can0 140#000B9E4300001001
(1757372495.670716) can0 141#B42710279DC32702
(1757372495.670948) can0 144#C00184010028A004
(1757372495.671181) can0 152#E90C00000000088C
(1757372495.671244) can0 376#FA
(1757372495.678033) can0 002#FF737001E3000000
(1757372495.680736) can0 140#000CA64300001001
(1757372495.680749) can0 141#B52710279E832702
(1757372495.686932) can0 280#000B100000000000
(1757372495.687235) can0 156#0100000000000025
(1757372495.687905) can0 0D0#820000000000FF03
(1757372495.687918) can0 002#FF737003E5000000
(1757372495.688123) can0 0D1#00000080
(1757372495.688371) can0 0D2#0000FFFF10000000
(1757372495.688624) can0 0D3#0006C00F0000BA
(1757372495.688829) can0 0D4#0000000000000000
(1757372495.690638) can0 140#000DA64300001081
(1757372495.690651) can0 141#B5270E279FC32702
(1757372495.690920) can0 144#C00184010028A004
(1757372495.691155) can0 152#E11C00000000088C
(1757372495.698180) can0 002#FF737005E7000000
(1757372495.699259) can0 6C8#A000000000000000
(1757372495.700655) can0 140#000EA64300001081
(1757372495.700666) can0 141#B5270E27A1832702
(1757372495.700941) can0 360#B100007A11441100
(1757372495.701160) can0 361#002200E90A000000
(1757372495.707024) can0 280#000C100000000000
(1757372495.707261) can0 156#0100000000000025
(1757372495.707953) can0 0D0#820000000000FF03
(1757372495.707965) can0 002#FF737007E9000000
(1757372495.708117) can0 0D1#00000080
(1757372495.708498) can0 0D2#0000FFFF10000000
(1757372495.708519) can0 0D3#8006C00F0000BB
(1757372495.708836) can0 0D4#0000000000000000
(1757372495.710747) can0 140#000FA04300001001
(1757372495.710760) can0 141#B5270F27A1C32702
(1757372495.710941) can0 144#C00184010028A004
(1757372495.711193) can0 152#E12C00000000088C
(1757372495.717274) can0 282#C681008AA1832A04
(1757372495.717757) can0 002#FF737009EB000000
(1757372495.720479) can0 140#0000A04300001001
(1757372495.720710) can0 141#B4271027A0832702
(1757372495.720843) can0 376#FA
(1757372495.726561) can0 280#000D100000000000
(1757372495.727332) can0 156#0100000000000025
(1757372495.727510) can0 3D1#351100004E000000
(1757372495.727740) can0 002#FF73700BED000000
(1757372495.727996) can0 0D0#820000000000FF03
(1757372495.728152) can0 0D1#00000080
(1757372495.728431) can0 0D2#0000FFFF10000000
(1757372495.728636) can0 0D3#0006C00F0000BC
(1757372495.728891) can0 0D4#0000000000000000
(1757372495.729122) can0 380#1A0A000000000024
(1757372495.730465) can0 140#0001A04300001081
(1757372495.730642) can0 141#B4271027A0832702
(1757372495.730861) can0 144#C00184010028A004
(1757372495.731116) can0 152#E93C00000000088C
(1757372495.738085) can0 002#FF73700DEF000000
(1757372495.740471) can0 140#0002A64300001081
(1757372495.740689) can0 141#B4271027A1C32702
(1757372495.745629) can0 284#C10A000E00000000
(1757372495.746743) can0 280#000E100000000000
(1757372495.747591) can0 156#0100000000000025
(1757372495.747830) can0 002#FF73700FF1000000
(1757372495.748066) can0 0D0#820000000000FF03
(1757372495.748241) can0 0D1#00000080
(1757372495.748504) can0 0D2#0000FFFF10000000
(1757372495.748725) can0 0D3#8006C00F0000BD
(1757372495.748961) can0 0D4#0000000000000000
(1757372495.750468) can0 140#0003A64300001001
(1757372495.750642) can0 141#B5270F27A2C32702
(1757372495.750926) can0 144#C00184010028A004
(1757372495.751161) can0 152#E14C00000000088C
(1757372495.751408) can0 360#B100007A11441100
(1757372495.751620) can0 361#003200E90B000000
(1757372495.757953) can0 002#FF737001E3000000
(1757372495.760684) can0 140#0004A64300001081
(1757372495.760697) can0 141#B5270F27A2C32702
(1757372495.766665) can0 280#000F100000000000
(1757372495.766975) can0 372#0070000000000000
(1757372495.767301) can0 156#0100000000000025
(1757372495.767517) can0 282#C891008AA1832A04
(1757372495.767778) can0 0D0#820000000000FF03
(1757372495.768004) can0 002#FF737003E5000000
(1757372495.768187) can0 0D1#00000080
(1757372495.768420) can0 0D2#0000FFFF10000000
(1757372495.768653) can0 0D3#8006C00F0000BE
(1757372495.768906) can0 0D4#0000000000000000
(1757372495.770762) can0 140#0005A64300001001
(1757372495.770949) can0 141#B5270F27A3832702
(1757372495.771196) can0 144#C00184010028A004
(1757372495.771435) can0 152#E95C00000000088C
(1757372495.771567) can0 376#FA
(1757372495.777986) can0 002#FF737005E7000000
(1757372495.780687) can0 140#0006A14300001081
(1757372495.780700) can0 141#B4271027A2C32702
(1757372495.786660) can0 280#0000100000000000
(1757372495.787445) can0 156#0100000000000025
(1757372495.787735) can0 0D0#820000000000FF03
(1757372495.787976) can0 002#FF747007EA000000
(1757372495.788135) can0 0D1#00000080
(1757372495.788402) can0 0D2#0000FFFF10000000
(1757372495.788602) can0 0D3#0006C00F0000BF
(1757372495.788870) can0 0D4#0000000000000000
(1757372495.790454) can0 140#0007A14300001001
(1757372495.790672) can0 141#B4271027A2C32702
(1757372495.790928) can0 144#C00184010028A004
(1757372495.791145) can0 152#E96C00000000088C
(1757372495.798091) can0 002#FF737009EB000000
(1757372495.800778) can0 140#0008A14300001001
(1757372495.800791) can0 141#B4271027A2C32702
(1757372495.800935) can0 360#B100007A11441100
(1757372495.801173) can0 361#002200E90C000000
(1757372495.806520) can0 280#0001100000000000
(1757372495.807271) can0 156#0100000000000025
(1757372495.807755) can0 0D0#810000000000FF03
(1757372495.807985) can0 002#FF73700BED000000
(1757372495.808140) can0 0D1#00000080
(1757372495.808407) can0 0D2#0000FFFF10000000
(1757372495.808580) can0 0D3#8006C00F0000C0
(1757372495.808835) can0 0D4#0000000000000000
(1757372495.810455) can0 140#0009A84300001081
(1757372495.810661) can0 141#B5271027A3C32702
(1757372495.810920) can0 144#C00184010028A004
(1757372495.811147) can0 152#E17C00000000088C
(1757372495.817238) can0 282#C8A1008AA1832A04
(1757372495.817708) can0 002#FF73700DEF000000
(1757372495.820388) can0 37A#0000000000040000
(1757372495.820666) can0 140#000AA84300001081
(1757372495.820897) can0 141#B5271027A4832702
(1757372495.820959) can0 376#FA
(1757372495.826488) can0 280#0002100000000000
(1757372495.826793) can0 281#0000FCFC70000000
(1757372495.827411) can0 156#0100000000000025
(1757372495.827616) can0 3D1#351100004E000000
(1757372495.827850) can0 002#FF73700FF1000000
(1757372495.828080) can0 0D0#820000000000FF03
(1757372495.828254) can0 0D1#00000080
(1757372495.828481) can0 0D2#0000FFFF10000000
(1757372495.828748) can0 0D3#0006C00F0000C1
(1757372495.828938) can0 0D4#0000000000000000
(1757372495.829194) can0 380#1B0A000000000025
(1757372495.830625) can0 140#000BA84300001001
(1757372495.830636) can0 141#B5271027A5C32702
(1757372495.830911) can0 144#C00184010028A004
(1757372495.831144) can0 152#E18C00000000088C
(1757372495.838117) can0 002#FF737001E3000000
(1757372495.840446) can0 140#000CA54300001001
(1757372495.840676) can0 141#B5271027A5C32702
(1757372495.845744) can0 284#C10B000E00000000
(1757372495.846500) can0 280#0003100000000000
(1757372495.847576) can0 156#0100000000000025
(1757372495.847823) can0 002#FF737003E5000000
(1757372495.848077) can0 0D0#820000000000FF03
(1757372495.848227) can0 0D1#00000080
(1757372495.848493) can0 0D2#0000FFFF10000000
(1757372495.848692) can0 0D3#0006C00F0000C2
(1757372495.848951) can0 0D4#0000000000000000
(1757372495.850414) can0 140#000DA54300001081
(1757372495.850594) can0 141#B5271127A5832702
(1757372495.850853) can0 144#C00184010028A004
(1757372495.851082) can0 152#E99C00000000088C
(1757372495.851373) can0 360#B100007A11441100
(1757372495.851657) can0 361#003200E90D000000
(1757372495.857766) can0 002#FF737005E7000000
(1757372495.860454) can0 140#000EA54300001081
(1757372495.860680) can0 141#B5271127A5832702
(1757372495.866495) can0 280#0004100000000000
(1757372495.867130) can0 372#0080000000000000
(1757372495.867322) can0 156#0100000000000025
(1757372495.867605) can0 282#C8B1008AA1832A04
(1757372495.867807) can0 002#FF737007E9000000
(1757372495.868072) can0 0D0#820000000000FF03
(1757372495.868244) can0 0D1#00000080
(1757372495.868507) can0 0D2#0000FFFF10000000
(1757372495.868691) can0 0D3#8006C00F0000C3
(1757372495.868917) can0 0D4#0000000000000000
(1757372495.870428) can0 140#000FAE4300001081
(1757372495.870694) can0 141#B5271127A6832702
(1757372495.870915) can0 144#C00184010028A004
(1757372495.871144) can0 152#E9AC00000000088C
(1757372495.871285) can0 376#FA
(1757372495.878044) can0 002#FF737009EB000000
(1757372495.880701) can0 140#0000AE4300001081
(1757372495.880716) can0 141#B5271027A7832702
(1757372495.886408) can0 280#0005100000000000
(1757372495.887292) can0 156#0100000000000025
(1757372495.887940) can0 002#FF73700BED000000
(1757372495.887956) can0 0D0#820000000000FF03
(1757372495.888160) can0 0D1#00000080
(1757372495.888438) can0 0D2#0000FFFF10000000
(1757372495.888651) can0 0D3#0006C00F0000C4
(1757372495.888874) can0 0D4#0000000000000000
(1757372495.890544) can0 140#0001AE4300001001
(1757372495.890712) can0 141#B5271027A8832702
(1757372495.890929) can0 144#C00083010028A004
(1757372495.891151) can0 152#E1BC00000000088C
(1757372495.898099) can0 002#FF73700DEF000000
(1757372495.900706) can0 140#0002A84300001001
(1757372495.900720) can0 141#B5271027A9C32702
(1757372495.900902) can0 360#B100007A11441100
(1757372495.901184) can0 361#003200E90E000000
(1757372495.906481) can0 280#0006100000000000
(1757372495.907274) can0 156#0100000000000025
(1757372495.907841) can0 002#FF73700FF1000000
(1757372495.908001) can0 0D0#820000000000FF03
(1757372495.908189) can0 0D1#00000080
(1757372495.908465) can0 0D2#0000FFFF10000000
(1757372495.908651) can0 0D3#8006C00F0000C5
(1757372495.908922) can0 0D4#0000000000000000
(1757372495.910554) can0 140#0003A84300001081
(1757372495.910626) can0 141#B5271127A9832702
(1757372495.910909) can0 144#C00184010028A004
(1757372495.911140) can0 152#E9CC00000000088C
(1757372495.917380) can0 282#C8C1008AA1832A04
(1757372495.917950) can0 002#FF737001E3000000
(1757372495.920626) can0 140#0004A84300001001
(1757372495.920640) can0 141#B5271127A8C32702
(1757372495.920881) can0 376#FA
(1757372495.926466) can0 280#0007100000000000
(1757372495.927553) can0 156#0100000000000025
(1757372495.927601) can0 3D1#351100004E000000
(1757372495.927912) can0 002#FF737003E5000000
(1757372495.928134) can0 0D0#820000000000FF03
(1757372495.928313) can0 0D1#00000080
(1757372495.928541) can0 0D2#0000FFFF10000000
(1757372495.928776) can0 0D3#8006C00F0000C6
(1757372495.929032) can0 0D4#0000000000000000
(1757372495.929422) can0 380#1C0A000000000026
(1757372495.930554) can0 140#0005A84300001081
(1757372495.930718) can0 141#B5271127A8C32702
(1757372495.930985) can0 144#C00184010028A004
(1757372495.931185) can0 152#E1DC00000000088C
(1757372495.938111) can0 002#FF737005E7000000
(1757372495.940639) can0 140#0006AB4300001081
(1757372495.940653) can0 141#B5270E27A9C32702
(1757372495.945860) can0 284#C10C000E00000000
(1757372495.946502) can0 280#0008100000000000
(1757372495.947941) can0 156#0100000000000025
(1757372495.947955) can0 002#FF737007E9000000
(1757372495.948178) can0 0D0#820000000000FF03
(1757372495.948330) can0 0D1#00000080
(1757372495.948576) can0 0D2#0000FFFF10000000
(1757372495.948811) can0 0D3#0006C00F0000C7
(1757372495.949083) can0 0D4#0000000000000000
(1757372495.950576) can0 140#0007AB4300001001
(1757372495.950594) can0 141#B5270E27A9C32702
(1757372495.950909) can0 144#C00083010028A004
(1757372495.951139) can0 152#E1EC00000000088C
(1757372495.951376) can0 360#B100007A11441100
(1757372495.951777) can0 361#002200E90F000000
(1757372495.958147) can0 002#FF737009EB000000
(1757372495.960646) can0 140#0008AB4300001001
(1757372495.960660) can0 141#B5270E27AAC32702
(1757372495.966625) can0 280#0009100000000000
(1757372495.966954) can0 372#0098000000000000
(1757372495.967568) can0 156#0100000000000025
(1757372495.967582) can0 282#CBD1008AA1832A04
(1757372495.967864) can0 002#FF73700BED000000
(1757372495.968096) can0 0D0#820000000000FF03
(1757372495.968283) can0 0D1#00000080
(1757372495.968539) can0 0D2#0000FFFF10000000
(1757372495.968744) can0 0D3#0006C00F0000C8
(1757372495.968976) can0 0D4#0000000000000000
(1757372495.970567) can0 140#0009A34300001001
(1757372495.970613) can0 141#B5270F27A9832702
(1757372495.970911) can0 144#C00184010028A004
(1757372495.971127) can0 152#E9FC00000000088C
(1757372495.971277) can0 376#FA
(1757372495.971491) can0 660#FFFF71E800000429
(1757372495.978058) can0 002#FF73700DEF000000
(1757372495.980638) can0 140#000AA34300001001
(1757372495.980651) can0 141#B5270F27A7C32702
(1757372495.986633) can0 280#000A100000000000
(1757372495.987521) can0 156#0100000000000025
(1757372495.987763) can0 002#FF73700FF1000000
(1757372495.987993) can0 0D0#820000000000FF03
(1757372495.988178) can0 0D1#00000080
(1757372495.988473) can0 0D2#0000FFFF10000000
(1757372495.988645) can0 0D3#8006C00F0000C9
(1757372495.988908) can0 0D4#0000000000000000
(1757372495.990582) can0 140#000BA34300001081
(1757372495.990597) can0 141#B5270F27A7C32702
(1757372495.990922) can0 144#C00184010028A004
(1757372495.991122) can0 152#E90C00000000088C
(1757372495.998137) can0 378#C100000000000000
(1757372495.998151) can0 002#FF737001E3000000
(1757372496.000630) can0 140#000CA94300001001
(1757372496.000644) can0 141#B5270F27A7C32702
(1757372496.000881) can0 360#AF00007A11441100
(1757372496.001148) can0 361#002200E900000000
(1757372496.006580) can0 280#000B100000000000
(1757372496.007609) can0 156#0100000000000025
(1757372496.007759) can0 002#FF737003E5000000
(1757372496.008033) can0 0D0#820000000000FF03
(1757372496.008189) can0 0D1#00000080
(1757372496.008609) can0 0D2#0000FFFF10000000
(1757372496.008624) can0 0D3#8006C00F0000CA
(1757372496.008875) can0 0D4#0000000000000000
(1757372496.010574) can0 140#000DA94300001081
(1757372496.010594) can0 141#B5270D27A8832702
(1757372496.010882) can0 144#C00184010028A004
(1757372496.011111) can0 152#E11C00000000088C
(1757372496.017621) can0 282#CBE1008AA1832A04
(1757372496.017693) can0 002#FF737005E7000000
(1757372496.020656) can0 140#000EA94300001081
(1757372496.020671) can0 141#B5270D27A8832702
(1757372496.020939) can0 376#FA
(1757372496.026323) can0 280#000C100000000000
(1757372496.027608) can0 156#0100000000000025
(1757372496.027653) can0 3D1#351100004E000000
(1757372496.027971) can0 002#FF737007E9000000
(1757372496.028185) can0 0D0#820000000000FF03
(1757372496.028368) can0 0D1#00000080
(1757372496.028627) can0 0D2#0000FFFF10000000
(1757372496.028822) can0 0D3#0006C00F0000CB
(1757372496.029101) can0 0D4#0000000000000000
(1757372496.029366) can0 380#1D0A000000000027
(1757372496.030513) can0 140#000FA74300001081
(1757372496.030663) can0 141#B5270D27A8832702
(1757372496.030921) can0 144#C00184010028A004
(1757372496.031141) can0 152#E12C00000000088C
(1757372496.038115) can0 002#FF737009EB000000
(1757372496.040667) can0 140#0000A74300001081
(1757372496.040681) can0 141#B5270E27A8832702
(1757372496.045976) can0 284#C10D000E00000000
(1757372496.046285) can0 280#000D100000000000
(1757372496.047902) can0 156#0100000000000025
(1757372496.047913) can0 002#FF73700BED000000
(1757372496.048233) can0 0D0#820000000000FF03
(1757372496.048386) can0 0D1#00000080
(1757372496.048653) can0 0D2#0000FFFF10000000
(1757372496.048831) can0 0D3#8006C00F0000CC
(1757372496.049094) can0 0D4#0000000000000000
(1757372496.050436) can0 140#0001A74300001001
(1757372496.050639) can0 141#B5270E27A8832702
(1757372496.050920) can0 144#C00184010028A004
(1757372496.051122) can0 152#E93C00000000088C
(1757372496.051358) can0 360#AF00007A11441100
(1757372496.051653) can0 361#003200E901000000
(1757372496.058158) can0 002#FF73700DEF000000
(1757372496.060600) can0 140#0002AB4300001001
(1757372496.060614) can0 141#B5270E27A8832702
(1757372496.066342) can0 280#000E100000000000
(1757372496.067197) can0 372#00A8000000000000
(1757372496.067489) can0 156#0100000000000025
(1757372496.067644) can0 282#C8F1008AA1832A04
(1757372496.067898) can0 002#FF73700FF1000000
(1757372496.068173) can0 0D0#820000000000FF03
(1757372496.068314) can0 0D1#00000080
(1757372496.068572) can0 0D2#0000FFFF10000000
(1757372496.068776) can0 0D3#0006C00F0000CD
(1757372496.069038) can0 0D4#0000000000000000
(1757372496.070546) can0 140#0003AB4300001081
(1757372496.070591) can0 141#B5270E27A8832702
(1757372496.070904) can0 144#C00083010028A004
(1757372496.071117) can0 152#E14C00000000088C
(1757372496.071171) can0 376#FA
(1757372496.078035) can0 002#FF737001E3000000
(1757372496.080467) can0 140#0004AB4300001001
(1757372496.080678) can0 141#B5270E27A9C32702
(1757372496.086598) can0 280#000F100000000000
(1757372496.087536) can0 156#0100000000000025
(1757372496.087728) can0 002#FF737003E5000000
(1757372496.088137) can0 0D0#820000000000FF03
(1757372496.088152) can0 0D1#00000080
(1757372496.088430) can0 0D2#0000FFFF10000000
(1757372496.088587) can0 0D3#0006C00F0000CE
(1757372496.088914) can0 0D4#0000000000000000
(1757372496.090538) can0 140#0005AB4300001081
(1757372496.090556) can0 141#B5270E27A9C32702
(1757372496.090875) can0 144#C00083010028A004
(1757372496.091131) can0 152#E95C00000000088C
(1757372496.097765) can0 002#FF737005E7000000
(1757372496.100393) can0 140#0006A54300001001
(1757372496.100629) can0 141#B5270F27A8C32702
(1757372496.100838) can0 360#AF00007A11441100
(1757372496.101077) can0 361#003200E902000000
(1757372496.106237) can0 280#0000100000000000
(1757372496.107524) can0 156#0100000000000025
(1757372496.107750) can0 002#FF737007E9000000
(1757372496.108021) can0 0D0#820000000000FF03
(1757372496.108187) can0 0D1#00000080
(1757372496.108503) can0 0D2#0000FFFF10000000
(1757372496.108658) can0 0D3#8006C00F0000CF
(1757372496.108885) can0 0D4#0000000000000000
(1757372496.110405) can0 140#0007A54300001081
(1757372496.110626) can0 141#B5270F27A8C32702
(1757372496.110849) can0 144#C00184010028A004
(1757372496.111111) can0 152#E96C00000000088C
(1757372496.117667) can0 282#C801008AA1832A04
(1757372496.117688) can0 002#FF737009EB000000
(1757372496.120619) can0 140#0008A54300001081
(1757372496.120633) can0 141#B5270F27A7C32702
(1757372496.120985) can0 376#FA
(1757372496.126238) can0 280#0001100000000000
(1757372496.127616) can0 156#0100000000000025
(1757372496.127689) can0 3D1#351100004E000000
(1757372496.127998) can0 002#FF73700BED000000
(1757372496.128220) can0 0D0#820000000000FF03
(1757372496.128407) can0 0D1#00000080
(1757372496.128672) can0 0D2#0000FFFF10000000
(1757372496.128861) can0 0D3#0006C00F0000D0
(1757372496.129125) can0 0D4#0000000000000000
(1757372496.129695) can0 380#1E0A000000000028
(1757372496.130519) can0 140#0009A94300001001
(1757372496.130566) can0 141#B5270E27A7832702
(1757372496.130863) can0 144#C00184010028A004
(1757372496.131095) can0 152#E17C00000000088C
(1757372496.137990) can0 002#FF73700DEF000000
(1757372496.140629) can0 140#000AA94300001001
(1757372496.140643) can0 141#B5270E27A8832702
(1757372496.146071) can0 284#C10E000E00000000
(1757372496.146116) can0 280#0002100000000000
(1757372496.148040) can0 156#0100000000000025
(1757372496.148054) can0 002#FF73700FF1000000
(1757372496.148263) can0 0D0#820000000000FF03
(1757372496.148421) can0 0D1#00000080
(1757372496.148667) can0 0D2#0000FFFF10000000
(1757372496.148892) can0 0D3#8006C00F0000D1
(1757372496.149122) can0 0D4#0000000000000000
(1757372496.150549) can0 140#000BA94300001081
(1757372496.150564) can0 141#B5270E27A8832702
(1757372496.150865) can0 144#C00184010028A004
(1757372496.151095) can0 360#AF00007A11441100
(1757372496.151325) can0 152#E18C00000000088C
(1757372496.151595) can0 361#002200E903000000
(1757372496.158129) can0 002#FF737001E3000000
(1757372496.160709) can0 140#000CA64300001001
(1757372496.160722) can0 141#B5270E27A8832702
(1757372496.166519) can0 280#0003100000000000
(1757372496.166863) can0 372#00B0000000000000
(1757372496.167645) can0 156#0100000000000025
(1757372496.167659) can0 282#CB11008AA1832A04
(1757372496.167963) can0 002#FF737003E5000000
(1757372496.168183) can0 0D0#820000000000FF03
(1757372496.168367) can0 0D1#00000080
(1757372496.168602) can0 0D2#0000FFFF10000000
(1757372496.168828) can0 0D3#8006C00F0000D2
(1757372496.169095) can0 0D4#0000000000000000
(1757372496.170500) can0 140#000DA64300001081
(1757372496.170573) can0 141#B5270F27A8C32702
(1757372496.170847) can0 144#C00184010028A004
(1757372496.171118) can0 152#E99C00000000088C
(1757372496.171191) can0 376#FA
(1757372496.178016) can0 002#FF737005E7000000
(1757372496.180586) can0 140#000EA64300001081
(1757372496.180601) can0 141#B5270F27A7C32702
(1757372496.186484) can0 280#0004100000000000
(1757372496.187656) can0 156#0100000000000025
(1757372496.187700) can0 002#FF737007E9000000
(1757372496.188007) can0 0D0#820000000000FF03
(1757372496.188195) can0 0D1#00000080
(1757372496.188421) can0 0D2#0000FFFF10000000
(1757372496.188649) can0 0D3#0006C00F0000D3
(1757372496.188930) can0 0D4#0000000000000000
(1757372496.190581) can0 140#000FAD4300001081
(1757372496.190596) can0 141#B5270F27A7C32702
(1757372496.190853) can0 144#C00184010028A004
(1757372496.191134) can0 152#E9AC00000000088C
(1757372496.198119) can0 002#FF737009EB000000
(1757372496.200593) can0 140#0000AD4300001081
(1757372496.200607) can0 141#B5270E27A8832702
(1757372496.200857) can0 360#AF00007A11441100
(1757372496.201088) can0 361#003200E904000000
(1757372496.206484) can0 280#0005100000000000
(1757372496.207669) can0 156#0100000000000025
(1757372496.207693) can0 002#FF73700BED000000
(1757372496.207986) can0 0D0#820000000000FF03
(1757372496.208161) can0 0D1#00000080
(1757372496.208423) can0 0D2#0000FFFF10000000
(1757372496.208624) can0 0D3#8006C00F0000D4
(1757372496.208879) can0 0D4#0000000000000000
(1757372496.210395) can0 140#0001AD4300001001
(1757372496.210608) can0 141#B5270E27A8832702
(1757372496.210866) can0 144#C00083010028A004
(1757372496.211140) can0 152#E1BC00000000088C
(1757372496.217745) can0 282#CB21008AA1832A04
(1757372496.217759) can0 002#FF73700DEF000000
(1757372496.220588) can0 140#0002A64300001081
(1757372496.220602) can0 141#B5270E27A9C32702
(1757372496.220996) can0 376#FA
(1757372496.226439) can0 280#0006100000000000
(1757372496.227668) can0 156#0100000000000025
(1757372496.227739) can0 002#FF73700FF1000000
(1757372496.228036) can0 0D0#820000000000FF03
(1757372496.228195) can0 0D1#00000080
(1757372496.228433) can0 0D2#0000FFFF10000000
(1757372496.228655) can0 0D3#0006C00F0000D5
(1757372496.228918) can0 0D4#0000000000000000
(1757372496.229151) can0 3D1#361100004E000000
(1757372496.229925) can0 380#1F0A000000000029
(1757372496.230479) can0 140#0003A64300001001
(1757372496.230570) can0 141#B5271027A9C32702
(1757372496.230873) can0 144#C00184010028A004
(1757372496.231099) can0 152#E9CC00000000088C
(1757372496.238157) can0 002#FF737001E3000000
(1757372496.240596) can0 140#0004A64300001081
(1757372496.240609) can0 141#B5271027A9C32702
(1757372496.246268) can0 284#C10F000E00000000
(1757372496.246283) can0 280#0007100000000000
(1757372496.248011) can0 002#FF737003E5000000
(1757372496.248025) can0 0D0#820000000000FF02
(1757372496.248181) can0 0D1#00000080
(1757372496.248450) can0 0D2#0000FFFF10000000
(1757372496.248644) can0 0D3#0006C00F0000D6
(1757372496.248896) can0 0D4#0000000000000000
(1757372496.249125) can0 156#0100000000000025
(1757372496.250502) can0 140#0005A64300001001
(1757372496.250574) can0 141#B5271027A8832702
(1757372496.250851) can0 144#C00184010028A004
(1757372496.251077) can0 360#AF00007A11441100
(1757372496.251341) can0 152#E1DC00000000088C
(1757372496.251568) can0 361#002200E905000000
(1757372496.258114) can0 002#FF737005E7000000
(1757372496.260602) can0 140#0006AA4300001001
(1757372496.260616) can0 141#B5270F27A9832702
(1757372496.261292) can0 374#4840008200000000
(1757372496.261342) can0 375#0302008B00000000
(1757372496.266267) can0 280#0008100000000000
(1757372496.266998) can0 372#00C8000000000000
(1757372496.267657) can0 156#0100000000000025
(1757372496.267703) can0 002#FF737007E9000000
(1757372496.268013) can0 0D0#820000000000FF02
(1757372496.268188) can0 0D1#00000080
(1757372496.268419) can0 0D2#0000FFFF10000000
(1757372496.268650) can0 0D3#8006C00F0000D7
(1757372496.268911) can0 0D4#0000000000000000
(1757372496.269131) can0 282#C831008AA1832A04
(1757372496.270327) can0 140#0007AA4300001081
(1757372496.270536) can0 141#B5270F27A9832702
(1757372496.270963) can0 144#C00184010028A004
(1757372496.271136) can0 152#E1EC00000000088C
(1757372496.271193) can0 376#FA
(1757372496.278046) can0 002#FF737009EB000000
(1757372496.280559) can0 140#0008AA4300001081
(1757372496.280573) can0 141#B5270F27A9832702
(1757372496.286369) can0 280#0009100000000000
(1757372496.287705) can0 156#0100000000000025
(1757372496.287720) can0 002#FF73700BED000000
(1757372496.287985) can0 0D0#820000000000FF02
(1757372496.288105) can0 0D1#00000080
(1757372496.288366) can0 0D2#0000FFFF10000000
(1757372496.288587) can0 0D3#8006C00F0000D8
(1757372496.288811) can0 0D4#0000000000000000
(1757372496.290499) can0 140#0009A44300001081
(1757372496.290563) can0 141#B5271027A9C32702
(1757372496.290850) can0 144#C00184010028A004
(1757372496.291121) can0 152#E9FC00000000088C
(1757372496.298123) can0 002#FF73700DEF000000
(1757372496.300541) can0 140#000AA44300001081
(1757372496.300552) can0 141#B5271027A8832702
(1757372496.300823) can0 360#AF00007A11441100
(1757372496.301078) can0 361#002200E906000000
(1757372496.306362) can0 280#000A100000000000
(1757372496.307690) can0 156#0100000000000025
(1757372496.307701) can0 002#FF73700FF1000000
(1757372496.308023) can0 0D0#820000000000FF03
(1757372496.308179) can0 0D1#00000080
(1757372496.308454) can0 0D2#0000FFFF10000000
(1757372496.308649) can0 0D3#0006C00F0000D9
(1757372496.308904) can0 0D4#0000000000000000
(1757372496.310457) can0 140#000BA44300001001
(1757372496.310605) can0 141#B5271027A7832702
(1757372496.310849) can0 144#C00184010028A004
(1757372496.311173) can0 152#E90C00000000088C
(1757372496.317785) can0 282#C841008AA1832A04
(1757372496.317795) can0 002#FF737001E3000000
(1757372496.320539) can0 140#000CA64300001001
(1757372496.320549) can0 141#B5271027A7832702
(1757372496.321125) can0 376#FA
(1757372496.326334) can0 280#000B100000000000
(1757372496.327762) can0 156#0100000000000025
(1757372496.327773) can0 002#FF737003E5000000
(1757372496.328065) can0 0D0#820000000000FF03
(1757372496.328220) can0 0D1#00000080
(1757372496.328467) can0 0D2#0000FFFF10000000
(1757372496.328723) can0 0D3#0006C00F0000DA
(1757372496.328978) can0 0D4#0000000000000000
(1757372496.329243) can0 3D1#351100004E000000
(1757372496.330376) can0 380#100A00000000001A
(1757372496.330585) can0 140#000DA64300001081
(1757372496.330814) can0 141#B5271027A7832702
(1757372496.331041) can0 144#C00184010028A004
(1757372496.331296) can0 152#E11C00000000088C
(1757372496.338110) can0 002#FF737005E7000000
(1757372496.340554) can0 140#000EA64300001081
(1757372496.340565) can0 141#B5271027A7832702
(1757372496.346166) can0 280#000C100000000000
(1757372496.346176) can0 284#C100000E00000000
(1757372496.347778) can0 002#FF737007E9000000
(1757372496.347982) can0 0D0#820000000000FF03
(1757372496.348158) can0 0D1#00000080
(1757372496.348414) can0 0D2#0000FFFF10000000
(1757372496.348654) can0 0D3#8006C00F0000DB
(1757372496.348840) can0 0D4#0000000000000000
(1757372496.349090) can0 156#0100000000000025
(1757372496.350342) can0 140#000FA04300001001
(1757372496.350594) can0 141#B5271027A7832702
(1757372496.350842) can0 144#C00184010028A004
(1757372496.351070) can0 360#AD00007A11441100
(1757372496.351294) can0 152#E12C00000000088C
(1757372496.351507) can0 361#003200E907000000
(1757372496.357738) can0 002#FF737009EB000000
(1757372496.360339) can0 140#0000A04300001001
(1757372496.360604) can0 141#B4271027A6832702
(1757372496.366212) can0 280#000D100000000000
(1757372496.366922) can0 372#00D0000000000000
(1757372496.367678) can0 156#0100000000000025
(1757372496.367721) can0 002#FF73700BED000000
(1757372496.368019) can0 0D0#8200000000000003
(1757372496.368198) can0 0D1#00000080
(1757372496.368457) can0 0D2#0000FFFF10000000
(1757372496.368667) can0 0D3#0006C00F0000DC
(1757372496.368921) can0 0D4#0000000000000000
(1757372496.369146) can0 282#CE51008AA1832A04
(1757372496.370393) can0 140#0001A04300001081
(1757372496.370594) can0 141#B4271027A5832702
(1757372496.370835) can0 144#C00184010028A004
(1757372496.371151) can0 152#E93C00000000088C
(1757372496.371278) can0 376#FA
(1757372496.377871) can0 002#FF73700DEF000000
(1757372496.380533) can0 140#0002A74300001001
(1757372496.380543) can0 141#B4271027A4C32702
(1757372496.386227) can0 280#000E100000000000
(1757372496.387732) can0 156#0100000000000025
(1757372496.387746) can0 002#FF73700FF1000000
(1757372496.388045) can0 0D0#820000000000FF03
(1757372496.388222) can0 0D1#00000080
(1757372496.388451) can0 0D2#0000FFFF10000000
(1757372496.388685) can0 0D3#8006C00F0000DD
(1757372496.388940) can0 0D4#0000000000000000
(1757372496.390373) can0 140#0003A74300001081
(1757372496.390589) can0 141#B5270D27A4832702
(1757372496.390841) can0 144#C00184010028A004
(1757372496.391193) can0 152#E14C00000000088C
(1757372496.397714) can0 002#FF737001E3000000
(1757372496.400359) can0 140#0004A74300001001
(1757372496.400578) can0 141#B5270D27A5C32702
(1757372496.400841) can0 360#AD00007A11441100
(1757372496.401072) can0 361#003200E908000000
(1757372496.405898) can0 280#000F100000000000
(1757372496.407587) can0 156#0100000000000025
(1757372496.407822) can0 002#FF737003E5000000
(1757372496.408045) can0 0D0#820000000000FF02
(1757372496.408221) can0 0D1#00000080
(1757372496.408480) can0 0D2#0000FFFF10000000
(1757372496.408704) can0 0D3#8006C00F0000DE
(1757372496.408970) can0 0D4#0000000000000000
(1757372496.410492) can0 140#0005A74300001081
(1757372496.410537) can0 141#B5270E27A5C32702
(1757372496.410812) can0 144#C00184010028A004
(1757372496.411332) can0 152#E95C00000000088C
(1757372496.417805) can0 282#CE61008AA1832A04
(1757372496.417819) can0 002#FF737005E7000000
(1757372496.420622) can0 140#0006A04300001001
(1757372496.420636) can0 141#B4271027A5832702
(1757372496.421273) can0 376#FA
(1757372496.426133) can0 280#0000100000000000
(1757372496.427830) can0 156#0100000000000025
(1757372496.427843) can0 002#FF737007E9000000
(1757372496.428112) can0 0D0#820000000000FF03
(1757372496.428296) can0 0D1#00000080
(1757372496.428603) can0 0D2#0000FFFF10000000
(1757372496.428748) can0 0D3#0006C00F0000DF
(1757372496.429025) can0 0D4#0000000000000000
(1757372496.429263) can0 3D1#361100004E000000
(1757372496.430483) can0 140#0007A04300001081
(1757372496.430529) can0 141#B4271027A4C32702
(1757372496.430825) can0 144#C00184010028A004
(1757372496.431055) can0 380#110A00000000001B
(1757372496.431330) can0 152#E96C00000000088C
(1757372496.438037) can0 002#FF737009EB000000
(1757372496.440660) can0 140#0008A04300001081
(1757372496.440673) can0 141#B4271027A3832702
(1757372496.446151) can0 280#0001100000000000
(1757372496.446167) can0 284#C101000E00000000
(1757372496.448037) can0 002#FF73700BED000000
(1757372496.448051) can0 0D0#820000000000FF03
(1757372496.448118) can0 0D1#00000080
(1757372496.448439) can0 0D2#0000FFFF10000000
(1757372496.448633) can0 0D3#0006C00F0000E0
(1757372496.448908) can0 0D4#0000000000000000
(1757372496.449141) can0 156#0100000000000025
(1757372496.450454) can0 140#0009A64300001001
(1757372496.450605) can0 141#B5270F27A3832702
(1757372496.450810) can0 144#C00184010028A004
(1757372496.451071) can0 360#AE00007A11441100
(1757372496.451286) can0 152#E17C00000000088C
(1757372496.451519) can0 361#002200E909000000
(1757372496.458105) can0 002#FF73700DEF000000
(1757372496.460585) can0 140#000AA64300001001
(1757372496.460598) can0 141#B5270F27A4C32702
(1757372496.466134) can0 280#0002100000000000
(1757372496.467034) can0 372#00E0000000000000
(1757372496.467714) can0 156#0100000000000025
(1757372496.467786) can0 002#FF73700FF1000000
(1757372496.468117) can0 0D0#820000000000FF03
(1757372496.468204) can0 0D1#00000080
(1757372496.468529) can0 0D2#0000FFFF10000000
(1757372496.468733) can0 0D3#8006C00F0000E1
(1757372496.468986) can0 0D4#0000000000000000
(1757372496.469193) can0 282#CB71008AA1832A04
(1757372496.470384) can0 140#000BA64300001081
(1757372496.470610) can0 141#B5271027A4832702
(1757372496.470814) can0 144#C00184010028A004
(1757372496.471364) can0 152#E18C00000000088C
(1757372496.471379) can0 376#FA
(1757372496.471609) can0 660#FFFF71E80000042E
(1757372496.478066) can0 002#FF737001E3000000
(1757372496.480590) can0 140#000CA34300001001
(1757372496.480604) can0 141#B5271027A4832702
(1757372496.486188) can0 280#0003100000000000
(1757372496.487765) can0 156#0100000000000025
(1757372496.487779) can0 002#FF737003E5000000
(1757372496.488067) can0 0D0#820000000000FF03
(1757372496.488249) can0 0D1#00000080
(1757372496.488507) can0 0D2#0000FFFF10000000
(1757372496.488718) can0 0D3#8006C00F0000E2
(1757372496.488977) can0 0D4#0000000000000000
(1757372496.490356) can0 140#000DA34300001081
(1757372496.490617) can0 141#B5271127A4C32702
(1757372496.490800) can0 144#C00184010028A004
(1757372496.491223) can0 152#E99C00000000088C
(1757372496.497739) can0 002#FF737005E7000000
(1757372496.500526) can0 140#000EA34300001081
(1757372496.500560) can0 141#B5271127A4C32702
(1757372496.500792) can0 360#AE00007A11441100
(1757372496.501029) can0 361#002200E90A000000
(1757372496.505770) can0 280#0004100000000000
(1757372496.507619) can0 156#0100000000000025
(1757372496.507843) can0 002#FF737007E9000000
(1757372496.508113) can0 0D0#820000000000FF03
(1757372496.508279) can0 0D1#00000080
(1757372496.508515) can0 0D2#0000FFFF10000000
(1757372496.508736) can0 0D3#0006C00F0000E3
(1757372496.508970) can0 0D4#0000000000000000
(1757372496.510355) can0 140#000FA54300001001
(1757372496.510624) can0 141#B5271127A4C32702
(1757372496.510818) can0 144#C00184010028A004
(1757372496.511199) can0 152#E9AC00000000088C
(1757372496.517834) can0 282#CB81008AA1832A04
(1757372496.517847) can0 002#FF737009EB000000
(1757372496.520360) can0 140#0000A54300001001
(1757372496.520625) can0 141#B5271027A4832702
(1757372496.521074) can0 376#FA
(1757372496.525682) can0 280#0005100000000000
(1757372496.527777) can0 156#0100000000000025
(1757372496.527888) can0 002#FF73700BED000000
(1757372496.528289) can0 0D0#820000000000FF03
(1757372496.528295) can0 0D1#00000080
(1757372496.528563) can0 0D2#0000FFFF10000000
(1757372496.528738) can0 0D3#8006C00F0000E4
(1757372496.529316) can0 0D4#0000000000000000
(1757372496.529322) can0 3D1#361100004E000000
(1757372496.530427) can0 140#0001A54300001081
(1757372496.530619) can0 141#B5271027A4832702
(1757372496.530838) can0 144#C00184010028A004
(1757372496.531124) can0 380#120A00000000001C
(1757372496.531281) can0 152#E1BC00000000088C
(1757372496.537975) can0 6D1#0B150F0000000000
(1757372496.537985) can0 002#FF73700DEF000000
(1757372496.540371) can0 140#0002A54300001081
(1757372496.540689) can0 141#B5271027A4832702
(1757372496.546062) can0 280#0006100000000000
(1757372496.546106) can0 284#C102000E00000000
(1757372496.547976) can0 002#FF73700FF1000000
(1757372496.547987) can0 0D0#820000000000FF03
(1757372496.548174) can0 0D1#00000080
(1757372496.548412) can0 0D2#0000FFFF10000000
(1757372496.548631) can0 0D3#0006C00F0000E5
(1757372496.548891) can0 0D4#0000000000000000
(1757372496.549140) can0 156#0100000000000025
(1757372496.550581) can0 140#00039F4300001001
(1757372496.550592) can0 141#B4271127A4832702
(1757372496.550801) can0 144#C00184010028A004
(1757372496.551055) can0 360#AE00007A11441100
(1757372496.551266) can0 152#E9CC00000000088C
(1757372496.551493) can0 361#003200E90B000000
(1757372496.558016) can0 002#FF737001E3000000
(1757372496.560591) can0 140#00049F4300001081
(1757372496.560604) can0 141#B4271127A3C32702
(1757372496.565960) can0 280#0007100000000000
(1757372496.567049) can0 372#00F8000000000000
(1757372496.567746) can0 156#0100000000000025
(1757372496.567819) can0 002#FF737003E5000000
(1757372496.568141) can0 0D0#820000000000FF03
(1757372496.568304) can0 0D1#00000080
(1757372496.568563) can0 0D2#0000FFFF10000000
(1757372496.568766) can0 0D3#0006C00F0000E6
(1757372496.569038) can0 0D4#0000000000000000
(1757372496.569247) can0 282#CE91008AA1832A04
(1757372496.570507) can0 140#00059F4300001001
(1757372496.570521) can0 141#B4271127A3C32702
(1757372496.570786) can0 144#C00184010028A004
(1757372496.571397) can0 152#E1DC00000000088C
(1757372496.571411) can0 376#FA
(1757372496.577961) can0 002#FF737005E7000000
(1757372496.580548) can0 140#0006A44300001081
(1757372496.580594) can0 141#B5271027A2832702
(1757372496.586053) can0 280#0008100000000000
(1757372496.587810) can0 156#0100000000000025
(1757372496.587825) can0 002#FF737007E9000000
(1757372496.588104) can0 0D0#820000000000FF03
(1757372496.588284) can0 0D1#00000080
(1757372496.588514) can0 0D2#0000FFFF10000000
(1757372496.588780) can0 0D3#8006C00F0000E7
(1757372496.589001) can0 0D4#0000000000000000
(1757372496.590480) can0 140#0007A44300001001
(1757372496.590495) can0 141#B5271027A3C32702
(1757372496.590793) can0 144#C00184010028A004
(1757372496.591251) can0 152#E1EC00000000088C
(1757372496.598109) can0 002#FF737009EB000000
(1757372496.600280) can0 140#0008A44300001001
(1757372496.600490) can0 141#B5271027A3C32702
(1757372496.600738) can0 360#AE00007A11441100
(1757372496.601022) can0 361#002200E90C000000
(1757372496.605672) can0 280#0009100000000000
(1757372496.607805) can0 156#0100000000000025
(1757372496.607851) can0 002#FF73700BED000000
(1757372496.608153) can0 0D0#820000000000FF03
(1757372496.608313) can0 0D1#00000080
(1757372496.608542) can0 0D2#0000FFFF10000000
(1757372496.608772) can0 0D3#8006C00F0000E8
(1757372496.609038) can0 0D4#0000000000000000
(1757372496.610329) can0 140#00099A4300001001
(1757372496.610579) can0 141#B4271227A3C32702
(1757372496.610828) can0 144#C00184010028A004
(1757372496.611222) can0 152#E9FC00000000088C
(1757372496.617863) can0 282#CEA1008AA1832A04
(1757372496.617877) can0 002#FF73700DEF000000
(1757372496.620619) can0 140#000A9A4300001001
(1757372496.620633) can0 141#B4271227A1832702
(1757372496.621407) can0 376#FA
(1757372496.625874) can0 280#000A100000000000
(1757372496.627920) can0 156#0100000000000025
(1757372496.627934) can0 002#FF73700FF1000000
(1757372496.628196) can0 0D0#8200000000000003
(1757372496.628353) can0 0D1#00000080
(1757372496.628655) can0 0D2#0000FFFF10000000
(1757372496.628832) can0 0D3#0006C00F0000E9
(1757372496.629096) can0 0D4#0000000000000000
(1757372496.629317) can0 3D1#361100004E000000
(1757372496.630419) can0 140#000B9A4300001081
(1757372496.630492) can0 141#B4271227A0C32702
(1757372496.630788) can0 144#C00085010028A004
(1757372496.631345) can0 152#E90C00000000088C
(1757372496.631509) can0 380#130A00000000001D
(1757372496.638073) can0 002#FF737001E3000000
(1757372496.640661) can0 140#000C9B4300001081
(1757372496.640674) can0 141#B42712279FC32702
(1757372496.645898) can0 280#000B100000000000
(1757372496.646250) can0 284#C103000E00000000
(1757372496.648019) can0 002#FF737003E5000000
(1757372496.648033) can0 0D0#820000000000FF03
(1757372496.648192) can0 0D1#00000080
(1757372496.648412) can0 0D2#0000FFFF10000000
(1757372496.648676) can0 0D3#0006C00F0000EA
(1757372496.648889) can0 0D4#0000000000000000
(1757372496.649153) can0 156#0100000000000025
(1757372496.650433) can0 140#000D9B4300001001
(1757372496.650506) can0 141#B42710279F832702
(1757372496.650791) can0 144#C00085010028A004
(1757372496.651016) can0 360#AD00007A11441100
(1757372496.651248) can0 152#E11C00000000088C
(1757372496.651501) can0 361#003200E90D000000
(1757372496.658125) can0 002#FF737005E7000000
(1757372496.660509) can0 140#000E9B4300001001
(1757372496.660523) can0 141#B42710279EC32702
(1757372496.665817) can0 280#000C100000000000
(1757372496.667156) can0 372#0008000000000000
(1757372496.667772) can0 156#0100000000000025
(1757372496.667934) can0 002#FF737007E9000000
(1757372496.668154) can0 0D0#820000000000FF03
(1757372496.668328) can0 0D1#00000080
(1757372496.668612) can0 0D2#0000FFFF10000000
(1757372496.668791) can0 0D3#8006C00F0000EB
(1757372496.669058) can0 0D4#0000000000000000
(1757372496.669276) can0 282#C8B1008AA1832A04
(1757372496.670458) can0 140#000F9B4300001081
(1757372496.670477) can0 141#B42710279DC32702
(1757372496.670791) can0 144#C00085010028A004
(1757372496.671295) can0 152#E12C00000000088C
(1757372496.671307) can0 376#FA
(1757372496.678083) can0 002#FF747009EC000000
(1757372496.680525) can0 140#0000924300001081
(1757372496.680540) can0 141#B42710279C832702
(1757372496.685823) can0 280#000D100000000000
(1757372496.687845) can0 156#0100000000000025
(1757372496.687858) can0 002#FF73700BED000000
(1757372496.688165) can0 0D0#820000000000FF03
(1757372496.688292) can0 0D1#00000080
(1757372496.688670) can0 0D2#0000FFFF10000000
(1757372496.688753) can0 0D3#0006C00F0000EC
(1757372496.689084) can0 0D4#0000000000000000
(1757372496.690417) can0 140#0001924300001001
(1757372496.690509) can0 141#B42710279BC32702
(1757372496.690782) can0 144#C00086010028A004
(1757372496.691537) can0 152#E93C00000000088C
(1757372496.698148) can0 002#FF73700DEF000000
(1757372496.700393) can0 6C8#B000000000000000
(1757372496.700406) can0 140#0002924300001001
(1757372496.700486) can0 141#B427102799832702
(1757372496.700732) can0 360#AC00007A11441100
(1757372496.701051) can0 361#003200E90E000000
(1757372496.705797) can0 280#000E100000000000
(1757372496.707847) can0 156#0100000000000025
(1757372496.707915) can0 002#FF73700FF1000000
(1757372496.708187) can0 0D0#820000000000FF03
(1757372496.708294) can0 0D1#00000080
(1757372496.708707) can0 0D2#0000FFFF10000000
(1757372496.708796) can0 0D3#8006C00F0000ED
(1757372496.709091) can0 0D4#0000000000000000
(1757372496.710394) can0 140#0003984300001081
(1757372496.710481) can0 141#B4270E2799832702
(1757372496.710904) can0 144#C00085010028A004
(1757372496.711392) can0 152#E14C00000000088C
(1757372496.718009) can0 282#C8C1008AA1832A04
(1757372496.718023) can0 002#FF737001E3000000
(1757372496.720491) can0 140#0004984300001001
(1757372496.720502) can0 141#B4270E2799832702
(1757372496.721346) can0 376#FA
(1757372496.725777) can0 280#000F100000000000
(1757372496.728003) can0 156#0100000000000025
(1757372496.728017) can0 002#FF737003E5000000
(1757372496.728229) can0 0D0#820000000000FF03
(1757372496.728415) can0 0D1#00000080
(1757372496.728695) can0 0D2#0000FFFF10000000
(1757372496.728865) can0 0D3#8006C00F0000EE
(1757372496.729118) can0 0D4#0000000000000000
(1757372496.729392) can0 3D1#361100004E000000
(1757372496.730329) can0 140#0005984300001081
(1757372496.730526) can0 141#B4270E2799832702
(1757372496.730758) can0 144#C00085010028A004
(1757372496.731524) can0 152#E95C00000000088C
(1757372496.731807) can0 380#140A00000000001E
(1757372496.738122) can0 002#FF737005E7000000
(1757372496.740639) can0 140#0006944300001081
(1757372496.740655) can0 141#B4270F2798832702
(1757372496.745693) can0 280#0000100000000000
(1757372496.746387) can0 284#C104000E00000000
(1757372496.748029) can0 002#FF737007E9000000
(1757372496.748043) can0 0D0#820000000000FF03
(1757372496.748202) can0 0D1#00000080
(1757372496.748418) can0 0D2#0000FFFF10000000
(1757372496.748693) can0 0D3#0006C00F0000EF
(1757372496.748893) can0 0D4#0000000000000000
(1757372496.749158) can0 156#0100000000000025
(1757372496.750400) can0 140#0007944300001001
(1757372496.750473) can0 141#B4270F2797832702
(1757372496.750818) can0 144#C00085010028A004
(1757372496.751024) can0 360#AB00007A11441100
(1757372496.751249) can0 361#002200E90F000000
(1757372496.751519) can0 152#E96C00000000088C
(1757372496.758108) can0 002#FF737009EB000000
(1757372496.760562) can0 140#0008944300001001
(1757372496.760576) can0 141#B4270F2797832702
(1757372496.765813) can0 280#0001100000000000
(1757372496.767182) can0 372#0010000000000000
(1757372496.767736) can0 156#0100000000000025
(1757372496.767945) can0 002#FF73700BED000000
(1757372496.768206) can0 0D0#820000000000FF03
(1757372496.768381) can0 0D1#00000080
(1757372496.768638) can0 0D2#0000FFFF10000000
(1757372496.768846) can0 0D3#0006C00E0000F0
(1757372496.769117) can0 0D4#0000000000000000
(1757372496.769330) can0 282#CBD1008AA1832A04
(1757372496.770307) can0 140#00099C4300001001
(1757372496.770516) can0 141#B4270E2797C32702
(1757372496.770757) can0 144#C00184010028A004
(1757372496.771495) can0 152#E17C00000000088C
(1757372496.771509) can0 376#FA
(1757372496.778069) can0 002#FF73700DEF000000
(1757372496.780484) can0 140#000A9C4300001001
(1757372496.780498) can0 141#B4270E2798C32702
(1757372496.785833) can0 280#0002100000000000
(1757372496.787879) can0 156#0100000000000025
(1757372496.787893) can0 002#FF73700FF1000000
(1757372496.788209) can0 0D0#820000000000FF03
(1757372496.788370) can0 0D1#00000080
(1757372496.788599) can0 0D2#0000FFFF10000000
(1757372496.788825) can0 0D3#880EC00E0000F1
(1757372496.789092) can0 0D4#0000000000000000
(1757372496.790429) can0 140#000B9C4300001081
(1757372496.790502) can0 141#B4270E2798C32702
(1757372496.790783) can0 144#C00184010028A004
(1757372496.791570) can0 152#E18C00000000088C
(1757372496.798121) can0 002#FF737001E3000000
(1757372496.800623) can0 140#000C9C4300001001
(1757372496.800638) can0 141#B4270E2799832702
(1757372496.800704) can0 360#AC00007A11441100
(1757372496.801016) can0 361#002200E900000000
(1757372496.805475) can0 280#0003100000000000
(1757372496.807734) can0 156#0100000000000025
(1757372496.807963) can0 002#FF737003E5000000
(1757372496.808217) can0 0D0#820000000000FF03
(1757372496.808349) can0 0D1#00000080
(1757372496.808630) can0 0D2#0000FFFF10000000
(1757372496.808860) can0 0D3#880EC00E0000F2
(1757372496.809124) can0 0D4#0000000000000000
(1757372496.810296) can0 140#000D994300001081
(1757372496.810524) can0 141#B427102799832702
(1757372496.810764) can0 144#C00085010028A004
(1757372496.811268) can0 152#E99C00000000088C
(1757372496.817763) can0 282#CBE1008AA1832A04
(1757372496.817930) can0 002#FF737005E7000000
(1757372496.820236) can0 140#000E994300001081
(1757372496.820459) can0 141#B427102799832702
(1757372496.821130) can0 376#FA
(1757372496.821407) can0 37A#0000000000040000
(1757372496.825441) can0 280#0004100000000000
(1757372496.825772) can0 281#0000FCFC70000000
(1757372496.827735) can0 002#FF737007E9000000
(1757372496.828022) can0 156#0100000000000025
(1757372496.828186) can0 0D0#820000000000FF03
(1757372496.828365) can0 0D1#00000080
(1757372496.828659) can0 0D2#0000FFFF10000000
(1757372496.828838) can0 0D3#080EC00E0000F3
(1757372496.829094) can0 0D4#0000000000000000
(1757372496.829340) can0 3D1#361100004E000000
(1757372496.830240) can0 140#000F994300001001
(1757372496.830453) can0 141#B427102799832702
(1757372496.830678) can0 144#C00085010028A004
(1757372496.831239) can0 152#E9AC00000000088C
(1757372496.832149) can0 380#150A00000000001F
(1757372496.837950) can0 002#FF737009EB000000
(1757372496.840278) can0 140#0000A24300001081
(1757372496.840495) can0 141#B52710279AC32702
(1757372496.845401) can0 280#0005100000000000
(1757372496.846481) can0 284#C105000E00000000
(1757372496.847752) can0 002#FF73700BED000000
(1757372496.848070) can0 0D0#820000000000FF03
(1757372496.848231) can0 0D1#00000080
(1757372496.848458) can0 0D2#0000FFFF10000000
(1757372496.848724) can0 0D3#880EC00E0000F4
(1757372496.848911) can0 0D4#0000000000000000
(1757372496.849152) can0 156#0100000000000025
(1757372496.850228) can0 140#0001A24300001001
(1757372496.850455) can0 141#B52710279B832702
(1757372496.850685) can0 144#C00184010028A004
(1757372496.850939) can0 360#AE00007A11441100
(1757372496.851175) can0 361#003200E901000000
(1757372496.851400) can0 152#E1BC00000000088C
(1757372496.857753) can0 002#FF73700DEF000000
(1757372496.860306) can0 140#0002A24300001001
(1757372496.860504) can0 141#B52710279D832702
(1757372496.865377) can0 280#0006100000000000
(1757372496.867157) can0 372#0020000000000000
(1757372496.867718) can0 156#0100000000000025
(1757372496.868026) can0 002#FF73700FF1000000
(1757372496.868226) can0 0D0#820000000000FF03
(1757372496.868407) can0 0D1#00000080
(1757372496.868729) can0 0D2#0000FFFF10000000
(1757372496.868875) can0 0D3#080EC00E0000F5
(1757372496.869134) can0 0D4#0000000000000000
(1757372496.869392) can0 282#C8F1008AA1832A04
(1757372496.870318) can0 140#00039E4300001081
(1757372496.870508) can0 141#B52710279D832702
(1757372496.870749) can0 144#C00184010028A004
(1757372496.871490) can0 152#E9CC00000000088C
(1757372496.871501) can0 376#FA
(1757372496.878049) can0 002#FF737001E3000000
(1757372496.880571) can0 140#00049E4300001001
(1757372496.880585) can0 141#B42712279D832702
(1757372496.885596) can0 280#0007100000000000
(1757372496.887995) can0 156#0100000000000025
(1757372496.888009) can0 002#FF737003E5000000
(1757372496.888254) can0 0D0#8200000000000003
(1757372496.888410) can0 0D1#00000080
(1757372496.888737) can0 0D2#0000FFFF10000000
(1757372496.888894) can0 0D3#080EC00E0000F6
(1757372496.889163) can0 0D4#0000000000000000
(1757372496.890284) can0 140#00059E4300001081
(1757372496.890503) can0 141#B42711279D832702
(1757372496.890731) can0 144#C00085010028A004
(1757372496.891398) can0 152#E1DC00000000088C
(1757372496.898058) can0 002#FF737005E7000000
(1757372496.900613) can0 140#0006A24300001081
(1757372496.900627) can0 141#B42711279E832702
(1757372496.900712) can0 360#AF00007A11441100
(1757372496.900991) can0 361#003200E902000000
(1757372496.905603) can0 280#0008100000000000
(1757372496.907934) can0 002#FF737007E9000000
(1757372496.907953) can0 156#0100000000000025
(1757372496.908251) can0 0D0#820000000000FF03
(1757372496.908439) can0 0D1#00000080
(1757372496.908741) can0 0D2#0000FFFF10000000
(1757372496.908893) can0 0D3#880EC00E0000F7
(1757372496.909146) can0 0D4#0000000000000000
(1757372496.910289) can0 140#0007A24300001001
(1757372496.910511) can0 141#B42710279EC32702
(1757372496.910731) can0 144#C00184010028A004
(1757372496.911384) can0 152#E1EC00000000088C
(1757372496.918053) can0 002#FF737009EB000000
(1757372496.918068) can0 282#C801008AA1832A04
(1757372496.920601) can0 140#0008A24300001001
(1757372496.920615) can0 141#B42710279F832702
(1757372496.921427) can0 376#FA
(1757372496.925674) can0 280#0009100000000000
(1757372496.928006) can0 002#FF73700BED000000
(1757372496.928020) can0 156#0100000000000025
(1757372496.928235) can0 0D0#820000000000FF03
(1757372496.928415) can0 0D1#00000080
(1757372496.928891) can0 0D2#0000FFFF10000000
(1757372496.928905) can0 0D3#880EC00E0000F8
(1757372496.929124) can0 0D4#0000000000000000
(1757372496.929401) can0 3D1#361100004E000000
(1757372496.930300) can0 140#0009A24300001081
(1757372496.930505) can0 141#B42710279F832702
(1757372496.930746) can0 144#C00184010028A004
(1757372496.931498) can0 152#E9FC00000000088C
(1757372496.932641) can0 380#160A000000000020
(1757372496.937974) can0 002#FF73700DEF000000
(1757372496.940590) can0 140#000A9D4300001081
(1757372496.940605) can0 141#B42711279FC32702
(1757372496.945545) can0 280#000A100000000000
(1757372496.946708) can0 284#C106000E00000000
(1757372496.947855) can0 002#FF73700FF1000000
(1757372496.948058) can0 0D0#820000000000FF03
(1757372496.948237) can0 0D1#00000080
(1757372496.948523) can0 0D2#0000FFFF10000000
(1757372496.948748) can0 0D3#080EC00E0000F9
(1757372496.948953) can0 0D4#0000000000000000
(1757372496.949226) can0 156#0100000000000025
(1757372496.950308) can0 140#000B9D4300001001
(1757372496.950509) can0 141#B42711279E832702
(1757372496.950758) can0 144#C00085010028A004
(1757372496.950975) can0 360#AF00007A11441100
(1757372496.951241) can0 361#002200E903000000
(1757372496.951459) can0 152#E90C00000000088C
(1757372496.957972) can0 002#FF737001E3000000
(1757372496.960473) can0 140#000C9D4300001081
(1757372496.960486) can0 141#B42711279E832702
(1757372496.965624) can0 280#000B100000000000
(1757372496.967170) can0 372#0038000000000000
(1757372496.967768) can0 002#FF737003E5000000
(1757372496.968004) can0 156#0100000000000025
(1757372496.968242) can0 0D0#820000000000FF03
(1757372496.968421) can0 0D1#00000080
(1757372496.968777) can0 0D2#0000FFFF10000000
(1757372496.968869) can0 0D3#080EC00E0000FA
(1757372496.969148) can0 0D4#0000000000000000
(1757372496.969368) can0 282#CE11008AA1832A04
(1757372496.970249) can0 140#000DA24300001001
(1757372496.970505) can0 141#B52710279E832702
(1757372496.970781) can0 144#C00184010028A004
(1757372496.971484) can0 152#E11C00000000088C
(1757372496.971498) can0 376#FA
(1757372496.971680) can0 660#FFFF71E800000433
(1757372496.977991) can0 002#FF737005E7000000
(1757372496.980507) can0 140#000EA24300001001
(1757372496.980521) can0 141#B52710279FC32702
(1757372496.985628) can0 280#000C100000000000
(1757372496.987951) can0 002#FF737007E9000000
(1757372496.987967) can0 156#0100000000000025
(1757372496.988244) can0 0D0#820000000000FF03
(1757372496.988425) can0 0D1#00000080
(1757372496.988693) can0 0D2#0000FFFF10000000
(1757372496.988885) can0 0D3#880EC00E0000FB
(1757372496.989151) can0 0D4#0000000000000000
(1757372496.990193) can0 140#000FA24300001081
(1757372496.990495) can0 141#B52710279FC32702
(1757372496.990761) can0 144#C00184010028A004
(1757372496.991517) can0 152#E12C00000000088C
(1757372496.997984) can0 002#FF737009EB000000
(1757372496.998005) can0 378#D100000000000000
(1757372497.000567) can0 140#0000994300001001
(1757372497.000580) can0 141#B5271027A0C32702
(1757372497.000767) can0 360#AD00007A11441100
(1757372497.000973) can0 361#003200E904000000
(1757372497.005447) can0 280#000D100000000000
(1757372497.007949) can0 002#FF73700BED000000
(1757372497.007963) can0 156#0100000000000025
(1757372497.008241) can0 0D0#820000000000FF03
(1757372497.008424) can0 0D1#00000080
(1757372497.008663) can0 0D2#0000FFFF10000000
(1757372497.008885) can0 0D3#080EC00E0000FC
(1757372497.009149) can0 0D4#0000000000000000
(1757372497.010258) can0 140#0001994300001081
(1757372497.010482) can0 141#B42713279F832702
(1757372497.010768) can0 144#C00085010028A004
(1757372497.011504) can0 152#E93C00000000088C
(1757372497.017990) can0 002#FF73700DEF000000
(1757372497.018004) can0 282#CE21008AA1832A04
(1757372497.020555) can0 140#0002994300001081
(1757372497.020568) can0 141#B42712279E832702
(1757372497.021540) can0 376#FA
(1757372497.025553) can0 280#000E100000000000
(1757372497.027956) can0 002#FF73700FF1000000
(1757372497.027970) can0 156#0100000000000025
(1757372497.028248) can0 0D0#820000000000FF03
(1757372497.028402) can0 0D1#00000080
(1757372497.028669) can0 0D2#0000FFFF10000000
(1757372497.028891) can0 0D3#880EC00E0000FD
(1757372497.029164) can0 0D4#0000000000000000
(1757372497.029381) can0 3D1#361100004E000000
(1757372497.030270) can0 140#00039B4300001081
(1757372497.030491) can0 141#B42712279D832702
(1757372497.030779) can0 144#C00085010028A004
(1757372497.031391) can0 152#E14C00000000088C
(1757372497.032910) can0 380#170A000000000021
(1757372497.037995) can0 002#FF737001E3000000
(1757372497.040393) can0 140#00049B4300001001
(1757372497.040434) can0 141#B42710279DC32702
(1757372497.045472) can0 280#000F100000000000
(1757372497.046707) can0 284#C107000E00000000
(1757372497.047879) can0 002#FF737003E5000000
(1757372497.048085) can0 0D0#820000000000FF03
(1757372497.048268) can0 0D1#00000080
(1757372497.048555) can0 0D2#0000FFFF10000000
(1757372497.048780) can0 0D3#880EC00E0000FE
(1757372497.048983) can0 0D4#0000000000000000
(1757372497.049259) can0 156#0100000000000025
(1757372497.050295) can0 140#00059B4300001081
(1757372497.050472) can0 141#B42710279DC32702
(1757372497.050793) can0 144#C00085010028A004
(1757372497.050944) can0 360#AE00007A11441100
(1757372497.051191) can0 361#002200E905000000
(1757372497.051426) can0 152#E95C00000000088C
(1757372497.058002) can0 002#FF737005E7000000
(1757372497.060501) can0 140#00069B4300001081
(1757372497.060515) can0 141#B42710279C832702
(1757372497.065509) can0 280#0000100000000000
(1757372497.067173) can0 372#0040000000000000
(1757372497.067807) can0 002#FF737007E9000000
(1757372497.068014) can0 156#0100000000000025
(1757372497.068246) can0 0D0#820000000000FF03
(1757372497.068424) can0 0D1#00000080
(1757372497.068658) can0 0D2#0000FFFF10000000
(1757372497.068887) can0 0D3#080EC00E0000FF
(1757372497.069153) can0 0D4#0000000000000000
(1757372497.069370) can0 282#C631008AA1832A04
(1757372497.070247) can0 140#0007984300001001
(1757372497.070476) can0 141#B42710279C832702
(1757372497.070712) can0 144#C00085010028A004
(1757372497.071701) can0 152#E96C00000000088C
(1757372497.071715) can0 376#FA
(1757372497.078014) can0 002#FF737009EB000000
(1757372497.080423) can0 140#0008984300001001
(1757372497.080438) can0 141#B42710279BC32702
(1757372497.085485) can0 280#0001100000000000
(1757372497.087976) can0 002#FF73700BED000000
(1757372497.087990) can0 156#0100000000000025
(1757372497.088250) can0 0D0#820000000000FF03
(1757372497.088407) can0 0D1#00000080
(1757372497.088683) can0 0D2#0000FFFF10000000
(1757372497.088890) can0 0D3#080EC00E000000
(1757372497.089132) can0 0D4#0000000000000000
(1757372497.090257) can0 140#0009984300001081
(1757372497.090456) can0 141#B42710279BC32702
(1757372497.090786) can0 144#C00085010028A004
(1757372497.091546) can0 152#E17C00000000088C
(1757372497.098018) can0 002#FF73700DEF000000
(1757372497.100263) can0 140#000A9E4300001081
(1757372497.100418) can0 141#B4270F279B832702
(1757372497.100650) can0 360#AD00007A11441100
(1757372497.100888) can0 361#002200E906000000
(1757372497.105113) can0 280#0002100000000000
(1757372497.107977) can0 002#FF73700FF1000000
(1757372497.107992) can0 156#0100000000000025
(1757372497.108256) can0 0D0#820000000000FF03
(1757372497.108414) can0 0D1#00000080
(1757372497.108684) can0 0D2#0000FFFF10000000
(1757372497.108898) can0 0D3#880EC00E000001
(1757372497.109133) can0 0D4#0000000000000000
(1757372497.110241) can0 140#000B9E4300001001
(1757372497.110465) can0 141#B4270F279B832702
(1757372497.110726) can0 144#C00184010028A004
(1757372497.111426) can0 152#E18C00000000088C
(1757372497.117951) can0 002#FF737001E3000000
(1757372497.117965) can0 282#C641008AA1832A04
(1757372497.120487) can0 140#000C9E4300001081
(1757372497.120501) can0 141#B4270F279CC32702
(1757372497.121324) can0 376#FA
(1757372497.125377) can0 280#0003100000000000
(1757372497.127975) can0 002#FF737003E5000000
(1757372497.127988) can0 156#0100000000000025
(1757372497.128275) can0 0D0#820000000000FF03
(1757372497.128413) can0 0D1#00000080
(1757372497.128691) can0 0D2#0000FFFF10000000
(1757372497.128872) can0 0D3#880EC00E000002
(1757372497.129138) can0 0D4#0000000000000000
(1757372497.129413) can0 3D1#351100004E000000
(1757372497.130247) can0 140#000D974300001001
(1757372497.130463) can0 141#B4270F279CC32702
(1757372497.130721) can0 144#C00184010028A004
(1757372497.131446) can0 152#E99C00000000088C
(1757372497.133233) can0 380#180A000000000022
(1757372497.138028) can0 002#FF737005E7000000
(1757372497.140551) can0 140#000E974300001001
(1757372497.140565) can0 141#B42710279BC32702
(1757372497.145347) can0 280#0004100000000000
(1757372497.146789) can0 284#C108000E00000000
(1757372497.147952) can0 002#FF737007E9000000
(1757372497.148108) can0 0D0#820000000000FF03
(1757372497.148290) can0 0D1#00000080
(1757372497.148523) can0 0D2#0000FFFF10000000
(1757372497.148724) can0 0D3#080EC00E000003
(1757372497.149013) can0 0D4#0000000000000000
(1757372497.149272) can0 156#0100000000000025
(1757372497.150264) can0 140#000F974300001081
(1757372497.150460) can0 141#B42710279A832702
(1757372497.150690) can0 144#C00085010028A004
(1757372497.150952) can0 360#AD00007A11441100
(1757372497.151157) can0 361#003200E907000000
(1757372497.151417) can0 152#E9AC00000000088C
(1757372497.158035) can0 002#FF737009EB000000
(1757372497.160476) can0 140#00009B4300001081
(1757372497.160489) can0 141#B42710279A832702
(1757372497.165083) can0 280#0005100000000000
(1757372497.167143) can0 372#0058000000000000
(1757372497.167914) can0 002#FF73700BED000000
(1757372497.167960) can0 156#0100000000000025
(1757372497.168247) can0 0D0#820000000000FF03
(1757372497.168424) can0 0D1#00000080
(1757372497.168686) can0 0D2#0000FFFF10000000
(1757372497.168889) can0 0D3#880EC00E000004
(1757372497.169151) can0 0D4#0000000000000000
(1757372497.169367) can0 282#CB51008AA1832A04
(1757372497.170221) can0 140#00019B4300001001
(1757372497.170451) can0 141#B4270F279AC32702
(1757372497.170693) can0 144#C00085010028A004
(1757372497.171682) can0 152#E1BC00000000088C
(1757372497.171696) can0 376#FA
(1757372497.177989) can0 002#FF73700DEF000000
(1757372497.180535) can0 140#00029B4300001001
(1757372497.180549) can0 141#B4270F279AC32702
(1757372497.185394) can0 280#0006100000000000
(1757372497.188001) can0 002#FF73700FF1000000
(1757372497.188014) can0 156#0100000000000025
(1757372497.188251) can0 0D0#820000000000FF03
(1757372497.188431) can0 0D1#00000080
(1757372497.188692) can0 0D2#0000FFFF10000000
(1757372497.188889) can0 0D3#080EC00E000005
(1757372497.189149) can0 0D4#0000000000000000
(1757372497.190228) can0 140#00039B4300001081
(1757372497.190456) can0 141#B4270F279AC32702
(1757372497.190686) can0 144#C00085010028A004
(1757372497.191420) can0 152#E9CC00000000088C
(1757372497.197822) can0 002#FF737001E3000000
(1757372497.200228) can0 140#00049A4300001081
(1757372497.200459) can0 141#B42710279A832702
(1757372497.200686) can0 360#AE00007A11441100
(1757372497.200929) can0 361#003200E908000000
(1757372497.205212) can0 280#0007100000000000
(1757372497.208006) can0 002#FF737003E5000000
(1757372497.208020) can0 156#0100000000000025
(1757372497.208269) can0 0D0#820000000000FF03
(1757372497.208413) can0 0D1#00000080
(1757372497.208686) can0 0D2#0000FFFF10000000
(1757372497.208894) can0 0D3#080EC00E000006
(1757372497.209155) can0 0D4#0000000000000000
(1757372497.210205) can0 140#00059A4300001001
(1757372497.210468) can0 141#B42710279A832702
(1757372497.210691) can0 144#C00085010028A004
(1757372497.211395) can0 152#E1DC00000000088C
(1757372497.218051) can0 002#FF737005E7000000
(1757372497.218065) can0 282#CB61008AA1832A04
(1757372497.220545) can0 140#00069A4300001001
(1757372497.220559) can0 141#B42710279A832702
(1757372497.221259) can0 376#FA
(1757372497.225194) can0 280#0008100000000000
(1757372497.227939) can0 002#FF737007E9000000
(1757372497.227955) can0 156#0100000000000025
(1757372497.228280) can0 0D0#820000000000FF03
(1757372497.228420) can0 0D1#00000080
(1757372497.228700) can0 0D2#0000FFFF10000000
(1757372497.228882) can0 0D3#880EC00E000007
(1757372497.229162) can0 0D4#0000000000000000
(1757372497.229389) can0 3D1#361100004E000000
(1757372497.230275) can0 140#0007A04300001081
(1757372497.230481) can0 141#B42710279BC32702
(1757372497.230717) can0 144#C00184010028A004
(1757372497.231551) can0 152#E1EC00000000088C
(1757372497.233814) can0 380#190A000000000023
(1757372497.238004) can0 002#FF737009EB000000
(1757372497.240552) can0 140#0008A04300001081
(1757372497.240566) can0 141#B42710279C832702
(1757372497.245269) can0 280#0009100000000000
(1757372497.246998) can0 284#C109000E00000000
(1757372497.247786) can0 002#FF73700BED000000
(1757372497.248186) can0 0D0#8200000000000003
(1757372497.248277) can0 0D1#00000080
(1757372497.248594) can0 0D2#0000FFFF10000000
(1757372497.248837) can0 0D3#880EC00E000008
(1757372497.249041) can0 0D4#0000000000000000
(1757372497.249309) can0 156#0100000000000025
(1757372497.250229) can0 140#0009A04300001001
(1757372497.250439) can0 141#B42710279C832702
(1757372497.250705) can0 144#C00184010028A004
(1757372497.250915) can0 360#AE00007A11441100
(1757372497.251169) can0 361#002200E909000000
(1757372497.251425) can0 152#E9FC00000000088C
(1757372497.257993) can0 002#FF73700DEF000000
(1757372497.260461) can0 140#000A9B4300001081
(1757372497.260475) can0 141#B42712279CC32702
(1757372497.261593) can0 374#4840008200000000
(1757372497.261638) can0 375#0302008B00000000
(1757372497.264991) can0 280#000A100000000000
(1757372497.267070) can0 372#0068000000000000
(1757372497.267805) can0 002#FF73700FF1000000
(1757372497.267935) can0 156#0100000000000025
(1757372497.268442) can0 0D0#820000000000FF03
(1757372497.268456) can0 0D1#00000080
(1757372497.268617) can0 0D2#0000FFFF10000000
(1757372497.269000) can0 0D3#080EC00E000009
(1757372497.269085) can0 0D4#0000000000000000
(1757372497.269425) can0 282#C871008AA1832A04
(1757372497.270141) can0 140#000B9B4300001001
(1757372497.270561) can0 141#B42712279CC32702
(1757372497.270645) can0 144#C00085010028A004
(1757372497.271690) can0 152#E90C00000000088C
(1757372497.271704) can0 376#FA
(1757372497.278066) can0 002#FF737001E3000000
(1757372497.280542) can0 140#000C9B4300001081
(1757372497.280556) can0 141#B42712279CC32702
(1757372497.285272) can0 280#000B100000000000
(1757372497.287958) can0 002#FF737003E5000000
(1757372497.287972) can0 156#0100000000000025
(1757372497.288254) can0 0D0#820000000000FF03
(1757372497.288394) can0 0D1#00000080
(1757372497.288786) can0 0D2#0000FFFF10000000
(1757372497.288875) can0 0D3#080EC00E00000A
(1757372497.289159) can0 0D4#0000000000000000
(1757372497.290343) can0 140#000DA34300001081
(1757372497.290420) can0 141#B52710279CC32702
(1757372497.290642) can0 144#C00184010028A004
(1757372497.291491) can0 152#E11C00000000088C
(1757372497.297731) can0 002#FF737005E7000000
(1757372497.300178) can0 140#000EA34300001081
(1757372497.300459) can0 141#B52710279E832702
(1757372497.300685) can0 360#AE00007A11441100
(1757372497.300905) can0 361#002200E90A000000
(1757372497.305107) can0 280#000C100000000000
(1757372497.307961) can0 002#FF737007E9000000
(1757372497.307975) can0 156#0100000000000025
(1757372497.308254) can0 0D0#8200000000000003
(1757372497.308435) can0 0D1#00000080
(1757372497.308662) can0 0D2#0000FFFF10000000
(1757372497.308879) can0 0D3#880EC00E00000B
(1757372497.309144) can0 0D4#0000000000000000
(1757372497.310195) can0 140#000FA34300001001
(1757372497.310430) can0 141#B52710279E832702
(1757372497.310688) can0 144#C00184010028A004
(1757372497.311504) can0 152#E12C00000000088C
(1757372497.318005) can0 002#FF737009EB000000
(1757372497.318019) can0 282#C881008AA1832A04
(1757372497.320449) can0 140#0000A24300001081
(1757372497.320463) can0 141#B52710279FC32702
(1757372497.321347) can0 376#FA
(1757372497.324884) can0 280#000D100000000000
(1757372497.327761) can0 002#FF73700BED000000
(1757372497.328011) can0 156#0100000000000025
(1757372497.328266) can0 0D0#820000000000FF03
(1757372497.328422) can0 0D1#00000080
(1757372497.328676) can0 0D2#0000FFFF10000000
(1757372497.328891) can0 0D3#080EC00E00000C
(1757372497.329149) can0 0D4#0000000000000000
(1757372497.329369) can0 3D1#361100004E000000
(1757372497.330165) can0 140#0001A24300001001
(1757372497.330374) can0 141#B42710279F832702
(1757372497.330630) can0 144#C00184010028A004
(1757372497.331408) can0 152#E93C00000000088C
(1757372497.333909) can0 380#1A0A000000000024
(1757372497.337722) can0 002#FF73700DEF000000
(1757372497.340533) can0 140#0002A24300001001
(1757372497.340548) can0 141#B4271027A0832702
(1757372497.345070) can0 280#000E100000000000
(1757372497.346789) can0 284#C10A000E00000000
(1757372497.347752) can0 002#FF73700FF1000000
(1757372497.348189) can0 0D0#820000000000FF03
(1757372497.348340) can0 0D1#00000080
(1757372497.348599) can0 0D2#0000FFFF10000000
(1757372497.348867) can0 0D3#880EC00E00000D
(1757372497.349064) can0 0D4#0000000000000000
(1757372497.349327) can0 156#0100000000000025
(1757372497.350197) can0 140#0003A24300001081
(1757372497.350437) can0 141#B4271027A0832702
(1757372497.350664) can0 144#C00184010028A004
(1757372497.350860) can0 360#AE00007A11441100
(1757372497.351100) can0 361#003200E90B000000
(1757372497.351403) can0 152#E14C00000000088C
(1757372497.357773) can0 002#FF737001E3000000
(1757372497.360371) can0 140#0004A84300001001
(1757372497.360385) can0 141#B5271027A1832702
(1757372497.364995) can0 280#000F100000000000
(1757372497.367017) can0 372#0070000000000000
(1757372497.367768) can0 002#FF737003E5000000
(1757372497.368026) can0 156#0100000000000025
(1757372497.368251) can0 0D0#820000000000FF03
(1757372497.368433) can0 0D1#00000080
(1757372497.368665) can0 0D2#0000FFFF10000000
(1757372497.368896) can0 0D3#880EC00E00000E
(1757372497.369165) can0 0D4#0000000000000000
(1757372497.369360) can0 282#CE91008AA1832A04
(1757372497.370211) can0 140#0005A84300001081
(1757372497.370440) can0 141#B5271027A2832702
(1757372497.370673) can0 144#C00184010028A004
(1757372497.371615) can0 152#E95C00000000088C
(1757372497.371623) can0 376#FA
(1757372497.377978) can0 002#FF737005E7000000
(1757372497.380449) can0 140#0006A84300001081
(1757372497.380463) can0 141#B5271027A3C32702
(1757372497.385099) can0 280#0000100000000000
(1757372497.387987) can0 002#FF737007E9000000
(1757372497.388001) can0 156#0100000000000025
(1757372497.388254) can0 0D0#820000000000FF03
(1757372497.388436) can0 0D1#00000080
(1757372497.388693) can0 0D2#0000FFFF10000000
(1757372497.388872) can0 0D3#080EC00E00000F
(1757372497.389150) can0 0D4#0000000000000000
(1757372497.390189) can0 140#0007A94300001081
(1757372497.390432) can0 141#B5271027A4832702
(1757372497.390661) can0 144#C00184010028A004
(1757372497.391464) can0 152#E96C00000000088C
(1757372497.398031) can0 002#FF737009EB000000
(1757372497.400501) can0 140#0008A94300001081
(1757372497.400515) can0 141#B5271027A5C32702
(1757372497.400674) can0 360#B000007A11441100
(1757372497.400916) can0 361#002200E90C000000
(1757372497.405018) can0 280#0001100000000000
(1757372497.408002) can0 002#FF73700BED000000
(1757372497.408017) can0 156#0100000000000025
(1757372497.408234) can0 0D0#820000000000FF03
(1757372497.408413) can0 0D1#00000080
(1757372497.408647) can0 0D2#0000FFFF10000000
(1757372497.408912) can0 0D3#880EC00E000010
(1757372497.409139) can0 0D4#0000000000000000
(1757372497.410212) can0 140#0009A94300001001
(1757372497.410423) can0 141#B5271027A5C32702
(1757372497.410662) can0 144#C00184010028A004
(1757372497.411511) can0 152#E17C00000000088C
(1757372497.418036) can0 002#FF73700DEF000000
(1757372497.418050) can0 282#CEA1008AA1832A04
(1757372497.420493) can0 140#000AAD4300001081
(1757372497.420507) can0 141#B5271027A6C32702
(1757372497.421399) can0 376#FA
(1757372497.425012) can0 280#0002100000000000
(1757372497.427980) can0 002#FF73700FF1000000
(1757372497.428000) can0 156#0100000000000025
(1757372497.428333) can0 0D0#820000000000FF03
(1757372497.428504) can0 0D1#00000080
(1757372497.428729) can0 0D2#0000FFFF10000000
(1757372497.428945) can0 0D3#080EC00E000011
(1757372497.429221) can0 0D4#0000000000000000
(1757372497.429433) can0 3D1#361100004E000000
(1757372497.430216) can0 140#000BAD4300001001
(1757372497.430444) can0 141#B5271027A7832702
(1757372497.430680) can0 144#C00083010028A004
(1757372497.431658) can0 152#E18C00000000088C
(1757372497.434310) can0 380#1B0A000000000025
(1757372497.437967) can0 002#FF737001E3000000
(1757372497.440510) can0 140#000CAD4300001081
(1757372497.440525) can0 141#B5271027A8832702
(1757372497.444959) can0 280#0003100000000000
(1757372497.447030) can0 284#C10B000E00000000
(1757372497.447714) can0 002#FF737003E5000000
(1757372497.448328) can0 0D0#820000000000FF03
(1757372497.448342) can0 0D1#00000080
(1757372497.448641) can0 0D2#0000FFFF10000000
(1757372497.448899) can0 0D3#080EC00E000012
(1757372497.449094) can0 0D4#0000000000000000
(1757372497.449356) can0 156#0100000000000025
(1757372497.450124) can0 140#000DA14300001001
(1757372497.450414) can0 141#B4271027A9832702
(1757372497.450646) can0 144#C00184010028A004
(1757372497.450897) can0 360#AE00007A11441100
(1757372497.451159) can0 361#003200E90D000000
(1757372497.451553) can0 152#E99C00000000088C
(1757372497.457996) can0 002#FF737005E7000000
(1757372497.460436) can0 140#000EA14300001001
(1757372497.460450) can0 141#B4271027A7C32702
(1757372497.465001) can0 280#0004100000000000
(1757372497.466999) can0 372#0080000000000000
(1757372497.467722) can0 002#FF737007E9000000
(1757372497.468047) can0 156#0100000000000025
(1757372497.468257) can0 0D0#820000000000FF03
(1757372497.468437) can0 0D1#00000080
(1757372497.468716) can0 0D2#0000FFFF10000000
(1757372497.468902) can0 0D3#880EC00E000013
(1757372497.469180) can0 0D4#0000000000000000
(1757372497.469390) can0 282#CBB1008AA1832A04
(1757372497.470216) can0 140#000FA14300001081
(1757372497.470418) can0 141#B4271027A6832702
(1757372497.470688) can0 144#C00184010028A004
(1757372497.471636) can0 152#E9AC00000000088C
(1757372497.471645) can0 376#FA
(1757372497.471899) can0 660#FFFF71E800000438
(1757372497.478035) can0 002#FF737009EB000000
(1757372497.480505) can0 140#0000A14300001081
(1757372497.480519) can0 141#B4271027A5832702
(1757372497.484980) can0 280#0005100000000000
(1757372497.487977) can0 002#FF73700BED000000
(1757372497.487992) can0 156#0100000000000025
(1757372497.488262) can0 0D0#820000000000FF03
(1757372497.488442) can0 0D1#00000080
(1757372497.488716) can0 0D2#0000FFFF10000000
(1757372497.488908) can0 0D3#080EC00E000014
(1757372497.489173) can0 0D4#0000000000000000
(1757372497.490186) can0 140#00019E4300001001
(1757372497.490410) can0 141#B4270F27A5C32702
(1757372497.490644) can0 144#C00085010028A004
(1757372497.491519) can0 152#E1BC00000000088C
(1757372497.498015) can0 002#FF73700DEF000000
(1757372497.500505) can0 140#00029E4300001001
(1757372497.500519) can0 141#B4270F27A3C32702
(1757372497.500585) can0 360#AE00007A11441100
(1757372497.500935) can0 361#003200E90E000000
(1757372497.505044) can0 280#0006100000000000
(1757372497.507986) can0 002#FF73700FF1000000
(1757372497.508000) can0 156#0100000000000025
(1757372497.508291) can0 0D0#820000000000FF03
(1757372497.508468) can0 0D1#00000080
(1757372497.508726) can0 0D2#0000FFFF10000000
(1757372497.508938) can0 0D3#880EC00E000015
(1757372497.509196) can0 0D4#0000000000000000
(1757372497.510189) can0 140#00039E4300001081
(1757372497.510408) can0 141#B4270F27A2832702
(1757372497.510636) can0 144#C00085010028A004
(1757372497.511527) can0 152#E9CC00000000088C
(1757372497.518020) can0 002#FF737001E3000000
(1757372497.518034) can0 282#CBC1008AA1832A04
(1757372497.520466) can0 140#0004984300001001
(1757372497.520481) can0 141#B4270E27A1C32702
(1757372497.521379) can0 376#FA
(1757372497.525013) can0 280#0007100000000000
(1757372497.527993) can0 002#FF737003E5000000
(1757372497.528043) can0 156#0100000000000025
(1757372497.528348) can0 0D0#820000000000FF03
(1757372497.528533) can0 0D1#00000080
(1757372497.528764) can0 0D2#0000FFFF10000000
(1757372497.528999) can0 0D3#880EC00E000016
(1757372497.529266) can0 0D4#0000000000000000
(1757372497.529487) can0 3D1#361100004E000000
(1757372497.530169) can0 140#0005984300001081
(1757372497.530401) can0 141#B4270E27A0832702
(1757372497.530654) can0 144#C00085010028A004
(1757372497.531507) can0 152#E1DC00000000088C
(1757372497.534901) can0 380#1C0A000000000026
(1757372497.537995) can0 002#FF737005E7000000
(1757372497.540566) can0 140#0006984300001081
(1757372497.540580) can0 141#B4270E279EC32702
(1757372497.544902) can0 280#0008100000000000
(1757372497.547257) can0 284#C10C000E00000000
(1757372497.547735) can0 002#FF737007E9000000
(1757372497.548416) can0 0D0#820000000000FF03
(1757372497.548427) can0 0D1#00000080
(1757372497.548676) can0 0D2#0000FFFF10000000
(1757372497.548941) can0 0D3#080EC00E000017
(1757372497.549130) can0 0D4#0000000000000000
(1757372497.549393) can0 156#0100000000000025
(1757372497.550140) can0 140#00079C4300001081
(1757372497.550428) can0 141#B4270F279E832702
(1757372497.550635) can0 144#C00085010028A004
(1757372497.550934) can0 360#AD00007A11441100
(1757372497.551107) can0 361#002200E90F000000
(1757372497.551681) can0 152#E1EC00000000088C
(1757372497.558026) can0 002#FF737009EB000000
(1757372497.560405) can0 140#00089C4300001081
(1757372497.560419) can0 141#B4270D279DC32702
(1757372497.564945) can0 280#0009100000000000
(1757372497.566976) can0 372#0098000000000000
(1757372497.567809) can0 002#FF73700BED000000
(1757372497.568080) can0 156#0100000000000025
(1757372497.568348) can0 0D0#820000000000FF03
(1757372497.568493) can0 0D1#00000080
(1757372497.568746) can0 0D2#0000FFFF10000000
(1757372497.568961) can0 0D3#080EC00E000018
(1757372497.569223) can0 0D4#0000000000000000
(1757372497.569448) can0 282#CBD1008AA1832A04
(1757372497.570182) can0 140#00099C4300001001
(1757372497.570386) can0 141#B4270D279DC32702
(1757372497.570647) can0 144#C00085010028A004
(1757372497.571622) can0 152#E9FC00000000088C
(1757372497.571630) can0 376#FA
(1757372497.578030) can0 002#FF73700DEF000000
(1757372497.580477) can0 140#000A984300001081
(1757372497.580491) can0 141#B4270D279C832702
(1757372497.584922) can0 280#000A100000000000
(1757372497.588011) can0 002#FF73700FF1000000
(1757372497.588031) can0 156#0100000000000025
(1757372497.588330) can0 0D0#820000000000FF03
(1757372497.588501) can0 0D1#00000080
(1757372497.588727) can0 0D2#0000FFFF10000000
(1757372497.588961) can0 0D3#880EC00E000019
(1757372497.589225) can0 0D4#0000000000000000
(1757372497.590188) can0 140#000B984300001001
(1757372497.590380) can0 141#B4270F279CC32702
(1757372497.590633) can0 144#C00085010028A004
(1757372497.591549) can0 152#E90C00000000088C
(1757372497.598042) can0 002#FF737001E3000000
(1757372497.600287) can0 140#000C984300001081
(1757372497.600333) can0 141#B4270F279B832702
(1757372497.600630) can0 360#AD00007A11441100
(1757372497.600859) can0 361#002200E900000000
(1757372497.604517) can0 280#000B100000000000
(1757372497.607816) can0 002#FF737003E5000000
(1757372497.608089) can0 156#0100000000000025
(1757372497.608354) can0 0D0#820000000000FF03
(1757372497.608506) can0 0D1#00000080
(1757372497.608758) can0 0D2#0000FFFF10000000
(1757372497.608991) can0 0D3#880EC00E00001A
(1757372497.609247) can0 0D4#0000000000000000
(1757372497.610168) can0 140#000D984300001001
(1757372497.610386) can0 141#B4270F279B832702
(1757372497.610616) can0 144#C00085010028A004
(1757372497.611556) can0 152#E11C00000000088C
(1757372497.617959) can0 002#FF737005E7000000
(1757372497.618220) can0 282#CBE1008AA1832A04
(1757372497.620440) can0 140#000EA04300001081
(1757372497.620454) can0 141#B4270E279C832702
(1757372497.621487) can0 376#FA
(1757372497.624883) can0 280#000C100000000000
(1757372497.627958) can0 002#FF737007E9000000
(1757372497.628153) can0 156#0100000000000025
(1757372497.628438) can0 0D0#820000000000FF03
(1757372497.628597) can0 0D1#00000080
(1757372497.628816) can0 0D2#0000FFFF10000000
(1757372497.629024) can0 0D3#080EC00E00001B
(1757372497.629296) can0 0D4#0000000000000000
(1757372497.629536) can0 3D1#361100004E000000
(1757372497.630441) can0 140#000FA04300001001
(1757372497.630455) can0 141#B4270E279DC32702
(1757372497.630618) can0 144#C00184010028A004
(1757372497.631583) can0 152#E12C00000000088C
(1757372497.635305) can0 380#1D0A000000000027
(1757372497.637984) can0 002#FF737009EB000000
(1757372497.640389) can0 140#0000A04300001001
(1757372497.640403) can0 141#B4270E279DC32702
(1757372497.644751) can0 280#000D100000000000
(1757372497.647288) can0 284#C10D000E00000000
(1757372497.647877) can0 002#FF73700BED000000
(1757372497.648417) can0 0D0#820000000000FF03
(1757372497.648432) can0 0D1#00000080
(1757372497.648688) can0 0D2#0000FFFF10000000
(1757372497.648953) can0 0D3#880EC00E00001C
(1757372497.649159) can0 0D4#0000000000000000
(1757372497.649389) can0 156#0100000000000025
(1757372497.650183) can0 140#00019C4300001081
(1757372497.650395) can0 141#B42710279EC32702
(1757372497.650643) can0 144#C00085010028A004
(1757372497.650870) can0 360#AE00007A11441100
(1757372497.651104) can0 361#003200E901000000
(1757372497.651773) can0 152#E93C00000000088C
(1757372497.658031) can0 002#FF73700DEF000000
(1757372497.660337) can0 140#00029C4300001081
(1757372497.660351) can0 141#B42710279DC32702
(1757372497.664860) can0 280#000E100000000000
(1757372497.667063) can0 372#00A8000000000000
(1757372497.667751) can0 002#FF73700FF1000000
(1757372497.668157) can0 156#0100000000000025
(1757372497.668366) can0 0D0#820000000000FF03
(1757372497.668546) can0 0D1#00000080
(1757372497.668778) can0 0D2#0000FFFF10000000
(1757372497.668993) can0 0D3#080EC00E00001D
(1757372497.669261) can0 0D4#0000000000000000
(1757372497.669476) can0 282#C6F1008AA1832A04
(1757372497.670138) can0 140#00039C4300001001
(1757372497.670365) can0 141#B42710279DC32702
(1757372497.670650) can0 144#C00085010028A004
(1757372497.671557) can0 152#E14C00000000088C
(1757372497.671714) can0 376#FA
(1757372497.677999) can0 002#FF737001E3000000
(1757372497.680457) can0 140#0004A34300001081
(1757372497.680470) can0 141#B42710279DC32702
(1757372497.684851) can0 280#000F100000000000
(1757372497.688035) can0 002#FF737003E5000000
(1757372497.688053) can0 156#0100000000000025
(1757372497.688386) can0 0D0#820000000000FF03
(1757372497.688530) can0 0D1#00000080
(1757372497.688781) can0 0D2#0000FFFF10000000
(1757372497.688997) can0 0D3#080EC00E00001E
(1757372497.689264) can0 0D4#0000000000000000
(1757372497.690133) can0 140#0005A34300001001
(1757372497.690365) can0 141#B5270F279EC32702
(1757372497.690595) can0 144#C00184010028A004
(1757372497.691579) can0 152#E95C00000000088C
(1757372497.698098) can0 002#FF737005E7000000
(1757372497.700453) can0 140#0006A34300001001
(1757372497.700467) can0 141#B5270F279F832702
(1757372497.700623) can0 360#AE00007A11441100
(1757372497.700847) can0 361#003200E902000000
(1757372497.701111) can0 6C8#C000000000000000
(1757372497.704806) can0 280#0000100000000000
(1757372497.708065) can0 002#FF737007E9000000
(1757372497.708083) can0 156#0100000000000025
(1757372497.708404) can0 0D0#820000000000FF03
(1757372497.708564) can0 0D1#00000080
(1757372497.708829) can0 0D2#0000FFFF10000000
(1757372497.709027) can0 0D3#880EC00E00001F
(1757372497.709294) can0 0D4#0000000000000000
(1757372497.710079) can0 140#00079F4300001081
(1757372497.710400) can0 141#B52710279FC32702
(1757372497.710621) can0 144#C00184010028A004
(1757372497.711549) can0 152#E96C00000000088C
(1757372497.718156) can0 002#FF737009EB000000
(1757372497.718170) can0 282#C601008AA1832A04
(1757372497.720338) can0 140#00089F4300001081
(1757372497.720349) can0 141#B42712279FC32702
(1757372497.721495) can0 376#FA
(1757372497.724785) can0 280#0001100000000000
(1757372497.727988) can0 002#FF73700BED000000
(1757372497.728198) can0 156#0100000000000025
(1757372497.728468) can0 0D0#820000000000FF03
(1757372497.728609) can0 0D1#00000080
(1757372497.728890) can0 0D2#0000FFFF10000000
(1757372497.729074) can0 0D3#880EC00E000020
(1757372497.729339) can0 0D4#0000000000000000
(1757372497.729559) can0 3D1#361100004E000000
(1757372497.730261) can0 140#00099F4300001001
(1757372497.730305) can0 141#B42712279FC32702
(1757372497.730620) can0 144#C00184010028A004
(1757372497.731567) can0 152#E17C00000000088C
(1757372497.735720) can0 380#1E0A000000000028
(1757372497.738078) can0 002#FF73700DEF000000
(1757372497.738125) can0 6D1#0B150F0000000000
(1757372497.740428) can0 140#000AA44300001081
(1757372497.740442) can0 141#B42712279FC32702
(1757372497.744744) can0 280#0002100000000000
(1757372497.747555) can0 284#C10E000E00000000
(1757372497.747752) can0 002#FF73700FF1000000
(1757372497.748573) can0 0D0#820000000000FF03
(1757372497.748587) can0 0D1#00000080
(1757372497.748743) can0 0D2#0000FFFF10000000
(1757372497.749006) can0 0D3#080EC00E000021
(1757372497.749191) can0 0D4#0000000000000000
(1757372497.749476) can0 156#0100000000000025
(1757372497.750134) can0 140#000BA44300001001
(1757372497.750363) can0 141#B5271027A0C32702
(1757372497.750596) can0 144#C00184010028A004
(1757372497.750873) can0 360#AF00007A11441100
(1757372497.751084) can0 361#002200E903000000
(1757372497.751844) can0 152#E18C00000000088C
(1757372497.758121) can0 002#FF737001E3000000
(1757372497.760389) can0 140#000CA44300001081
(1757372497.760403) can0 141#B5271027A0C32702
(1757372497.764741) can0 280#0003100000000000
(1757372497.767045) can0 372#00B0000000000000
(1757372497.767730) can0 002#FF737003E5000000
(1757372497.768277) can0 156#0100000000000025
(1757372497.768350) can0 0D0#820000000000FF03
(1757372497.768577) can0 0D1#00000080
(1757372497.768842) can0 0D2#0000FFFF10000000
(1757372497.769039) can0 0D3#080EC00E000022
(1757372497.769312) can0 0D4#0000000000000000
(1757372497.769524) can0 282#CE11008AA1832A04
(1757372497.770142) can0 140#000DA44300001001
(1757372497.770372) can0 141#B5271027A1832702
(1757372497.770600) can0 144#C00184010028A004
(1757372497.771603) can0 152#E99C00000000088C
(1757372497.771745) can0 376#FA
(1757372497.777964) can0 002#FF737005E7000000
(1757372497.780454) can0 140#000EA34300001081
(1757372497.780467) can0 141#B5271027A1832702
(1757372497.784702) can0 280#0004100000000000
(1757372497.788091) can0 002#FF737007E9000000
(1757372497.788104) can0 156#0100000000000025
(1757372497.788392) can0 0D0#820000000000FF03
(1757372497.788573) can0 0D1#00000080
(1757372497.788837) can0 0D2#0000FFFF10000000
(1757372497.789051) can0 0D3#880EC00E000023
(1757372497.789284) can0 0D4#0000000000000000
(1757372497.790136) can0 140#000FA34300001001
(1757372497.790365) can0 141#B5271027A2832702
(1757372497.790593) can0 144#C00184010028A004
(1757372497.791610) can0 152#E9AC00000000088C
(1757372497.798122) can0 002#FF737009EB000000
(1757372497.800444) can0 140#0000A34300001001
(1757372497.800458) can0 141#B5271027A2832702
(1757372497.800616) can0 360#AF00007A11441100
(1757372497.800833) can0 361#003200E904000000
(1757372497.804689) can0 280#0005100000000000
(1757372497.807762) can0 002#FF73700BED000000
(1757372497.808197) can0 156#0100000000000025
(1757372497.808433) can0 0D0#820000000000FF03
(1757372497.808613) can0 0D1#00000080
(1757372497.808843) can0 0D2#0000FFFF10000000
(1757372497.809092) can0 0D3#080EC00E000024
(1757372497.809313) can0 0D4#0000000000000000
(1757372497.810092) can0 140#0001AB4300001001
(1757372497.810370) can0 141#B5271027A2832702
(1757372497.810602) can0 144#C00083010028A004
(1757372497.811641) can0 152#E1BC00000000088C
(1757372497.817755) can0 002#FF73700DEF000000
(1757372497.818207) can0 282#CE21008AA1832A04
(1757372497.820105) can0 140#0002AB4300001001
(1757372497.820355) can0 141#B5271027A4832702
(1757372497.821461) can0 376#FA
(1757372497.822304) can0 37A#0000000000040000
(1757372497.824306) can0 280#0006100000000000
(1757372497.824623) can0 281#0000FCFC70000000
(1757372497.827724) can0 002#FF73700FF1000000
(1757372497.828218) can0 156#0100000000000025
(1757372497.828520) can0 0D0#820000000000FF03
(1757372497.828617) can0 0D1#00000080
(1757372497.828888) can0 0D2#0000FFFF10000000
(1757372497.829132) can0 0D3#880EC00E000025
(1757372497.829389) can0 0D4#0000000000000000
(1757372497.829572) can0 3D1#361100004E000000
(1757372497.830095) can0 140#0003AB4300001081
(1757372497.830291) can0 141#B5271027A5C32702
(1757372497.830561) can0 144#C00083010028A004
(1757372497.831570) can0 152#E9CC00000000088C
(1757372497.836070) can0 380#1F0A000000000029
(1757372497.837944) can0 002#FF737001E3000000
(1757372497.840430) can0 140#0004A54300001081
(1757372497.840444) can0 141#B5271027A6C32702
(1757372497.844264) can0 280#0007100000000000
(1757372497.847270) can0 284#C10F000E00000000
(1757372497.847749) can0 002#FF737003E5000000
(1757372497.848341) can0 0D0#820000000000FF03
(1757372497.848495) can0 0D1#00000080
(1757372497.848760) can0 0D2#0000FFFF10000000
(1757372497.849020) can0 0D3#880EC00E000026
(1757372497.849217) can0 0D4#0000000000000000
(1757372497.849481) can0 156#0100000000000025
(1757372497.850086) can0 140#0005A54300001001
(1757372497.850358) can0 141#B5271027A6C32702
(1757372497.850617) can0 144#C00184010028A004
(1757372497.850829) can0 360#AF00007A11441100
(1757372497.851070) can0 361#002200E905000000
(1757372497.851563) can0 152#E1DC00000000088C
(1757372497.857792) can0 002#FF737005E7000000
(1757372497.860380) can0 140#0006A54300001001
(1757372497.860394) can0 141#B5271027A5C32702
(1757372497.864261) can0 280#0008100000000000
(1757372497.866766) can0 372#00C8000000000000
(1757372497.867694) can0 002#FF737007E9000000
(1757372497.868158) can0 156#0100000000000025
(1757372497.868389) can0 0D0#820000000000FF02
(1757372497.868567) can0 0D1#00000080
(1757372497.868797) can0 0D2#0000FFFF10000000
(1757372497.869032) can0 0D3#080EC00E000027
(1757372497.869288) can0 0D4#0000000000000000
(1757372497.869517) can0 282#CB31008AA1832A04
(1757372497.870059) can0 140#0007AA4300001081
(1757372497.870345) can0 141#B5271027A5C32702
(1757372497.870574) can0 144#C00184010028A004
(1757372497.871593) can0 152#E1EC00000000088C
(1757372497.871764) can0 376#FA
(1757372497.877692) can0 002#FF737009EB000000
(1757372497.880063) can0 140#0008AA4300001081
(1757372497.880266) can0 141#B5270F27A6832702
(1757372497.884224) can0 280#0009100000000000
(1757372497.887697) can0 002#FF73700BED000000
(1757372497.888134) can0 156#0100000000000025
(1757372497.888388) can0 0D0#820000000000FF03
(1757372497.888543) can0 0D1#00000080
(1757372497.888799) can0 0D2#0000FFFF10000000
(1757372497.889033) can0 0D3#080EC00E000028
(1757372497.889316) can0 0D4#0000000000000000
(1757372497.890123) can0 140#0009AA4300001001
(1757372497.890317) can0 141#B5270F27A6832702
(1757372497.890573) can0 144#C00184010028A004
(1757372497.891596) can0 152#E9FC00000000088C
(1757372497.897735) can0 002#FF73700DEF000000
(1757372497.900131) can0 140#000AAA4300001001
(1757372497.900327) can0 141#B5270F27A7C32702
(1757372497.900570) can0 360#AF00007A11441100
(1757372497.900799) can0 361#002200E906000000
(1757372497.904605) can0 280#000A100000000000
(1757372497.908129) can0 002#FF73700FF1000000
(1757372497.908180) can0 156#0100000000000025
(1757372497.908620) can0 0D0#820000000000FF03
(1757372497.908629) can0 0D1#00000080
(1757372497.909075) can0 0D2#0000FFFF10000000
(1757372497.909084) can0 0D3#880EC00E000029
(1757372497.909517) can0 0D4#0000000000000000
(1757372497.910162) can0 140#000BA04300001081
(1757372497.910393) can0 141#B4271127A6C32702
(1757372497.910655) can0 144#C00184010028A004
(1757372497.911642) can0 152#E90C00000000088C
(1757372497.917744) can0 002#FF737001E3000000
(1757372497.918173) can0 282#CB41008AA1832A04
(1757372497.920078) can0 140#000CA04300001001
(1757372497.920319) can0 141#B4271127A6C32702
(1757372497.921499) can0 376#FA
(1757372497.924181) can0 280#000B100000000000
(1757372497.927736) can0 002#FF737003E5000000
(1757372497.928259) can0 156#0100000000000025
(1757372497.928510) can0 0D0#820000000000FF03
(1757372497.928668) can0 0D1#00000080
(1757372497.928923) can0 0D2#0000FFFF10000000
(1757372497.929129) can0 0D3#880EC00E00002A
(1757372497.929384) can0 0D4#0000000000000000
(1757372497.929639) can0 3D1#361100004E000000
(1757372497.930082) can0 140#000DA04300001081
(1757372497.930433) can0 141#B4271127A5C32702
(1757372497.930563) can0 144#C00184010028A004
(1757372497.931758) can0 152#E11C00000000088C
(1757372497.936490) can0 380#100A00000000001A
(1757372497.938098) can0 002#FF737005E7000000
(1757372497.940481) can0 140#000EA54300001081
(1757372497.940490) can0 141#B5270F27A5832702
(1757372497.944481) can0 280#000C100000000000
(1757372497.947335) can0 284#C100000E00000000
(1757372497.947766) can0 002#FF737007E9000000
(1757372497.948346) can0 0D0#820000000000FF03
(1757372497.948507) can0 0D1#00000080
(1757372497.948762) can0 0D2#0000FFFF10000000
(1757372497.949029) can0 0D3#080EC00E00002B
(1757372497.949211) can0 0D4#0000000000000000
(1757372497.949467) can0 156#0100000000000025
(1757372497.950124) can0 140#000FA54300001001
(1757372497.950341) can0 141#B5270F27A5832702
(1757372497.950564) can0 144#C00184010028A004
(1757372497.950797) can0 360#AF00007A11441100
(1757372497.951030) can0 361#003200E907000000
(1757372497.951581) can0 152#E12C00000000088C
(1757372497.958126) can0 002#FF737009EB000000
(1757372497.960326) can0 140#0000A54300001001
(1757372497.960337) can0 141#B5270F27A5832702
(1757372497.964492) can0 280#000D100000000000
(1757372497.967065) can0 372#00D0000000000000
(1757372497.967752) can0 002#FF73700BED000000
(1757372497.968488) can0 156#0100000000000025
(1757372497.968500) can0 0D0#820000000000FF02
(1757372497.968603) can0 0D1#00000080
(1757372497.969002) can0 0D2#0000FFFF10000000
(1757372497.969118) can0 0D3#880EC00E00002C
(1757372497.969503) can0 0D4#0000000000000000
(1757372497.969572) can0 282#CB51008AA1832A04
(1757372497.970156) can0 140#00019E4300001001
(1757372497.970271) can0 141#B4271027A5832702
(1757372497.970679) can0 144#C00085010028A004
(1757372497.971820) can0 152#E93C00000000088C
(1757372497.971834) can0 376#FA
(1757372497.972005) can0 660#FFFF71E80000043D
(1757372497.978002) can0 002#FF73700DEF000000
(1757372497.980413) can0 140#00029E4300001001
(1757372497.980427) can0 141#B4271027A3832702
(1757372497.984478) can0 280#000E100000000000
(1757372497.988045) can0 002#FF73700FF1000000
(1757372497.988210) can0 156#0100000000000025
(1757372497.988608) can0 0D0#820000000000FF02
(1757372497.988622) can0 0D1#00000080
(1757372497.988921) can0 0D2#0000FFFF10000000
(1757372497.989141) can0 0D3#080EC00E00002D
(1757372497.989390) can0 0D4#0000000000000000
(1757372497.990072) can0 140#00039E4300001081
(1757372497.990339) can0 141#B4271027A3832702
(1757372497.990574) can0 144#C00184010028A004
(1757372497.991669) can0 152#E14C00000000088C
(1757372497.997720) can0 002#FF737001E3000000
(1757372497.998292) can0 378#E100000000000000
(1757372498.000049) can0 140#00049E4300001001
(1757372498.000270) can0 141#B4271027A2C32702
(1757372498.000570) can0 360#AE00007A11441100
(1757372498.000797) can0 361#003200E908000000
(1757372498.004461) can0 280#000F100000000000
(1757372498.008028) can0 002#FF737003E5000000
(1757372498.008221) can0 156#0100000000000025
(1757372498.008628) can0 0D0#820000000000FF03
(1757372498.008644) can0 0D1#00000080
(1757372498.008942) can0 0D2#0000FFFF10000000
(1757372498.009166) can0 0D3#080EC00E00002E
(1757372498.009388) can0 0D4#0000000000000000
(1757372498.010072) can0 140#00059E4300001081
(1757372498.010341) can0 141#B4271027A2C32702
(1757372498.010568) can0 144#C00184010028A004
(1757372498.011697) can0 152#E95C00000000088C
(1757372498.018106) can0 002#FF737005E7000000
(1757372498.018243) can0 282#CB61008AA1832A04
(1757372498.020230) can0 140#00069E4300001081
(1757372498.020252) can0 141#B4271027A1C32702
(1757372498.021775) can0 376#FA
(1757372498.024357) can0 280#0000100000000000
(1757372498.027960) can0 002#FF737007E9000000
(1757372498.028372) can0 156#0100000000000025
(1757372498.028574) can0 0D0#820000000000FF03
(1757372498.028778) can0 0D1#00000080
(1757372498.028986) can0 0D2#0000FFFF10000000
(1757372498.029216) can0 0D3#880EC00E00002F
(1757372498.029492) can0 0D4#0000000000000000
(1757372498.029702) can0 3D1#361100004E000000
(1757372498.030192) can0 140#0007964300001081
(1757372498.030421) can0 141#B4271027A0832702
(1757372498.030694) can0 144#C00184010028A004
(1757372498.031655) can0 152#E96C00000000088C
(1757372498.036710) can0 380#110A00000000001B
(1757372498.037895) can0 002#FF737009EB000000
(1757372498.040331) can0 140#0008964300001081
(1757372498.040345) can0 141#B42710279F832702
(1757372498.044341) can0 280#0001100000000000
(1757372498.047724) can0 284#C101000E00000000
(1757372498.047738) can0 002#FF73700BED000000
(1757372498.048669) can0 0D0#820000000000FF03
(1757372498.048683) can0 0D1#00000080
(1757372498.048750) can0 0D2#0000FFFF10000000
(1757372498.049099) can0 0D3#080EC00E000030
(1757372498.049280) can0 0D4#0000000000000000
(1757372498.049577) can0 156#0100000000000025
(1757372498.050097) can0 140#0009964300001001
(1757372498.050327) can0 141#B42710279EC32702
(1757372498.050560) can0 144#C00085010028A004
(1757372498.050787) can0 360#AC00007A11441100
(1757372498.051070) can0 361#002200E909000000
(1757372498.051828) can0 152#E17C00000000088C
(1757372498.058114) can0 002#FF73700DEF000000
(1757372498.060351) can0 140#000A964300001001
(1757372498.060366) can0 141#B42710279C832702
(1757372498.064258) can0 280#0002100000000000
(1757372498.067085) can0 372#00E0000000000000
(1757372498.067778) can0 002#FF73700FF1000000
(1757372498.068560) can0 156#0100000000000025
(1757372498.068574) can0 0D0#820000000000FF03
(1757372498.068732) can0 0D1#00000080
(1757372498.068955) can0 0D2#0000FFFF10000000
(1757372498.069177) can0 0D3#880EC00E000031
(1757372498.069444) can0 0D4#0000000000000000
(1757372498.069665) can0 282#CB71008AA1832A04
(1757372498.070117) can0 140#000B984300001001
(1757372498.070311) can0 141#B4270E279C832702
(1757372498.070578) can0 144#C00085010028A004
(1757372498.071780) can0 152#E18C00000000088C
(1757372498.071795) can0 376#FA
(1757372498.078026) can0 002#FF737001E3000000
(1757372498.080259) can0 140#000C984300001081
(1757372498.080273) can0 141#B4270E279BC32702
