;$FILEVERSION=1.1
;$STARTTIME=46042.7057604977
;
;   Start time: 1/20/2026 16:56:17.707.0
;   Generated by PCAN-View v4.3.4.615
;
;   Message Number
;   |         Time Offset (ms)
;   |         |        Type
;   |         |        |        ID (hex)
;   |         |        |        |     Data Length
;   |         |        |        |     |   Data Bytes (hex) ...
;   |         |        |        |     |   |
;---+--   ----+----  --+--  ----+---  +  -+ -- -- -- -- -- -- --
     1)         1.3  Rx         00AA  8  1A 6F 1A 6F 1A 6F 1A 6F 
     2)         5.2  Rx         0351  4  00 00 00 00 
     3)         5.5  Rx         01C4  8  03 46 25 08 34 00 3E B5 
     4)         7.2  Rx         0020  7  00 00 07 00 00 00 2E 
     5)         7.5  Rx         0224  8  00 00 00 00 00 00 00 08 
     6)         8.0  Rx         0024  8  02 02 01 FB 62 08 80 16 
     7)         8.3  Rx         0025  8  0F FB 0F FE 78 78 78 AC 
     8)        11.6  Rx         02C1  8  08 02 62 02 50 D3 00 5C 
     9)        13.3  Rx         00AA  8  1A 6F 1A 6F 1A 6F 1A 6F 
    10)        15.4  Rx         0260  8  08 00 09 00 00 00 03 7E 
    11)        19.3  Rx         0020  7  00 00 07 00 00 00 2E 
    12)        19.5  Rx         00B4  8  00 00 00 00 04 00 00 C0 
    13)        19.8  Rx         0223  8  00 00 00 00 00 00 00 2D 
    14)        20.2  Rx         0025  8  0F FB 0F FE 78 78 78 AC 
    15)        20.4  Rx         0024  8  02 01 01 FB 62 09 80 16 
    16)        25.3  Rx         00AA  8  1A 6F 1A 6F 1A 6F 1A 6F 
    17)        29.1  Rx         01C4  8  03 42 25 08 34 00 3E B1 
    18)        30.1  Rx         03F9  8  57 38 03 01 00 00 00 97 
    19)        31.3  Rx         0020  7  00 00 07 00 00 00 2E 
    20)        31.6  Rx         0224  8  00 00 00 00 00 00 00 08 
    21)        32.1  Rx         0361  8  00 18 00 00 00 00 00 00 
    22)        32.3  Rx         0025  8  0F FB 0F FE 78 78 78 AC 
    23)        32.6  Rx         0024  8  02 01 01 FA 62 08 80 14 
    24)        35.7  Rx         0260  8  08 00 09 00 00 00 08 83 
    25)        37.3  Rx         00AA  8  1A 6F 1A 6F 1A 6F 1A 6F 
    26)        37.5  Rx         01AA  6  00 00 00 00 00 B1 
    27)        43.4  Rx         0020  7  00 00 07 00 00 00 2E 
    28)        43.6  Rx         00B4  8  00 00 00 00 04 00 00 C0 
    29)        43.9  Rx         0223  8  00 00 00 00 00 00 00 2D 
    30)        44.1  Rx         0024  8  02 01 01 FA 62 08 80 14 
    31)        44.3  Rx         0025  8  0F FB 0F FE 78 78 78 AC 
    32)        44.5  Rx         02C1  8  08 02 63 02 4D D3 00 5A 
    33)        45.9  Rx         04C8  8  09 00 00 00 00 00 00 00 
    34)        49.4  Rx         00AA  8  1A 6F 1A 6F 1A 6F 1A 6F 
    35)        52.6  Rx         01C4  8  03 3D 25 08 34 00 3E AC 
    36)        53.0  Rx         0442  8  40 02 00 00 00 00 00 00 
    37)        54.6  Rx         03A0  8  11 A2 00 00 00 00 00 2B 
    38)        55.3  Rx         0020  7  00 00 07 00 00 00 2E 
    39)        55.6  Rx         0224  8  00 00 00 00 00 00 00 08 
    40)        55.9  Rx         0260  8  08 00 08 00 00 FF FD 76 
    41)        56.2  Rx         0024  8  02 02 01 FC 62 08 80 17 
    42)        56.4  Rx         0025  8  0F FB 0F FE 78 78 78 AC 
    43)        61.4  Rx         00AA  8  1A 6F 1A 6F 1A 6F 1A 6F 
    44)        65.8  Rx         0351  4  00 00 00 00 
    45)        67.4  Rx         0020  7  00 00 07 00 00 00 2E 
    46)        67.7  Rx         00B4  8  00 00 00 00 04 00 00 C0 
    47)        67.9  Rx         0223  8  00 00 00 00 00 00 00 2D 
    48)        68.2  Rx         0025  8  0F FB 0F FE 78 78 78 AC 
    49)        68.5  Rx         0024  8  02 02 01 FD 62 07 80 17 
    50)        71.9  Rx         03D3  2  00 ED 
    51)        73.4  Rx         00AA  8  1A 6F 1A 6F 1A 6F 1A 6F 
    52)        75.1  Rx         02C1  8  08 02 6C 02 55 D3 00 6B 
    53)        76.0  Rx         0260  8  08 00 09 00 00 00 04 7F 
    54)        76.3  Rx         01C4  8  03 3F 25 08 34 00 3E AE 
    55)        79.5  Rx         0020  7  00 00 07 00 00 00 2E 
    56)        79.7  Rx         0224  8  00 00 00 00 00 00 00 08 
    57)        80.3  Rx         0025  8  0F FB 0F FE 78 78 78 AC 
    58)        80.7  Rx         0024  8  02 02 01 FC 62 07 80 16 
    59)        85.5  Rx         00AA  8  1A 6F 1A 6F 1A 6F 1A 6F 
    60)        85.7  Rx         01AA  6  00 00 00 00 00 B1 
    61)        91.5  Rx         0020  7  00 00 07 00 00 00 2E 
    62)        91.8  Rx         00B4  8  00 00 00 00 04 00 00 C0 
    63)        92.0  Rx         0223  8  00 00 00 00 00 00 00 2D 
    64)        92.2  Rx         0024  8  02 02 01 FA 62 09 80 16 
    65)        92.5  Rx         0025  8  0F FB 0F FE 78 78 78 AC 
    66)        96.4  Rx         0260  8  08 00 09 00 00 00 04 7F 
    67)        96.6  Rx         0361  8  00 18 00 00 00 00 00 00 
    68)        97.6  Rx         00AA  8  1A 6F 1A 6F 1A 6F 1A 6F 
    69)        99.7  Rx         01C4  8  03 42 25 08 34 00 3E B1 
    70)       103.5  Rx         0020  7  00 00 07 00 00 00 2E 
    71)       103.8  Rx         0224  8  00 00 00 00 00 00 00 08 
    72)       104.3  Rx         0024  8  02 01 01 FA 62 0A 80 16 
    73)       104.5  Rx         0025  8  0F FB 0F FE 78 78 78 AC 
    74)       106.9  Rx         02C1  8  08 02 6A 02 54 D3 00 68 
    75)       109.6  Rx         00AA  8  1A 6F 1A 6F 1A 6F 1A 6F 
    76)       115.6  Rx         0020  7  00 00 07 00 00 00 2E 
    77)       115.8  Rx         00B4  8  00 00 00 00 04 00 00 C0 
    78)       116.1  Rx         0223  8  00 00 00 00 00 00 00 2D 
    79)       116.3  Rx         0025  8  0F FB 0F FE 78 78 78 AC 
    80)       116.6  Rx         0024  8  02 01 01 FC 62 08 80 16 
    81)       116.8  Rx         0260  8  08 00 09 00 00 00 03 7E 
    82)       121.6  Rx         00AA  8  1A 6F 1A 6F 1A 6F 1A 6F 
    83)       123.2  Rx         01C4  8  03 47 25 08 34 00 3E B6 
    84)       126.5  Rx         0351  4  00 00 00 00 
    85)       127.6  Rx         0020  7  00 00 07 00 00 00 2E 
    86)       127.9  Rx         0224  8  00 00 00 00 00 00 00 08 
    87)       128.3  Rx         0025  8  0F FB 0F FE 78 78 78 AC 
    88)       128.8  Rx         0024  8  02 01 01 FC 62 06 80 14 
    89)       133.7  Rx         00AA  8  1A 6F 1A 6F 1A 6F 1A 6F 
    90)       133.9  Rx         01AA  6  00 00 00 00 00 B1 
    91)       136.7  Rx         0260  8  08 00 09 00 00 00 05 80 
    92)       138.6  Rx         02C1  8  08 02 68 02 53 D3 00 65 
    93)       139.7  Rx         0020  7  00 00 07 00 00 00 2E 
    94)       139.9  Rx         00B4  8  00 00 00 00 04 00 00 C0 
    95)       140.2  Rx         0223  8  00 00 00 00 00 00 00 2D 
    96)       140.4  Rx         0024  8  02 02 01 FA 62 07 80 14 
    97)       140.6  Rx         0025  8  0F FB 0F FE 78 78 78 AC 
    98)       145.7  Rx         00AA  8  1A 6F 1A 6F 1A 6F 1A 6F 
    99)       146.8  Rx         01C4  8  03 4A 25 08 34 00 3E B9 
   100)       150.9  Rx         0440  8  42 02 00 00 00 00 00 00 
   101)       151.7  Rx         0020  7  00 00 07 00 00 00 2E 
   102)       152.0  Rx         0224  8  00 00 00 00 00 00 00 08 
   103)       152.1  Rx         0394  1  00 
   104)       152.3  Rx         0025  8  0F FB 0F FE 78 78 78 AC 
   105)       152.6  Rx         0024  8  02 02 01 FB 62 09 80 17 
   106)       154.7  Rx         03A0  8  11 A2 00 00 00 00 00 2B 
   107)       157.1  Rx         0260  8  08 00 09 00 00 00 06 81 
   108)       157.7  Rx         00AA  8  1A 6F 1A 6F 1A 6F 1A 6F 
   109)       161.1  Rx         0361  8  00 18 00 00 00 00 00 00 
   110)       163.8  Rx         0020  7  00 00 07 00 00 00 2E 
   111)       164.0  Rx         00B4  8  00 00 00 00 04 00 00 C0 
   112)       164.2  Rx         0223  8  00 00 00 00 00 00 00 2D 
   113)       164.6  Rx         0025  8  0F FB 0F FE 82 82 82 CA 
   114)       164.8  Rx         0024  8  02 02 01 FC 62 08 80 17 
   115)       169.8  Rx         00AA  8  1A 6F 1A 6F 1A 6F 1A 6F 
   116)       170.3  Rx         01C4  8  03 49 25 08 34 00 3E B8 
   117)       170.5  Rx         02C1  8  08 02 69 02 54 D3 00 67 
   118)       175.6  Rx         04DC  8  1D 00 00 00 00 00 00 00 
   119)       175.8  Rx         0020  7  00 00 07 00 00 00 2E 
   120)       176.0  Rx         0224  8  00 00 00 00 00 00 00 08 
   121)       176.6  Rx         0025  8  0F FB 0F FE 78 78 78 AC 
   122)       176.9  Rx         0260  8  08 00 09 00 00 00 02 7D 
   123)       177.2  Rx         0024  8  02 02 01 FC 62 07 80 16 
   124)       181.8  Rx         00AA  8  1A 6F 1A 6F 1A 6F 1A 6F 
   125)       182.0  Rx         01AA  6  00 00 00 00 00 B1 
   126)       187.2  Rx         0351  4  00 00 00 00 
   127)       187.8  Rx         0020  7  00 00 07 00 00 00 2E 
   128)       188.0  Rx         00B4  8  00 00 00 00 04 00 00 C0 
   129)       188.3  Rx         0223  8  00 00 00 00 00 00 00 2D 
   130)       188.5  Rx         0024  8  02 02 01 FB 62 08 80 16 
   131)       188.8  Rx         0025  8  0F FB 0F FE 78 78 78 AC 
   132)       193.8  Rx         00AA  8  1A 6F 1A 6F 1A 6F 1A 6F 
   133)       194.1  Rx         01C4  8  03 48 25 08 34 00 3E B7 
   134)       197.4  Rx         0260  8  08 00 09 00 00 FF FD 77 
   135)       199.8  Rx         0020  7  00 00 07 00 00 00 2E 
   136)       200.1  Rx         0224  8  00 00 00 00 00 00 00 08 
   137)       200.5  Rx         0024  8  02 01 01 FB 62 08 80 15 
   138)       200.8  Rx         0025  8  0F FB 0F FE 78 78 78 AC 
   139)       202.0  Rx         02C1  8  08 02 68 02 53 D3 00 65 
   140)       205.9  Rx         00AA  8  1A 6F 1A 6F 1A 6F 1A 6F 
   141)       211.9  Rx         0020  7  00 00 07 00 00 00 2E 
   142)       212.1  Rx         00B4  8  00 00 00 00 04 00 00 C0 
   143)       212.4  Rx         0223  8  00 00 00 00 00 00 00 2D 
   144)       212.6  Rx         0025  8  0F FB 0F FE 78 78 78 AC 
   145)       212.8  Rx         0024  8  02 01 01 FC 62 08 81 17 
   146)       217.4  Rx         01C4  8  03 49 25 08 34 00 3E B8 
   147)       217.7  Rx         0260  8  08 00 09 00 00 FF F6 70 
   148)       218.0  Rx         00AA  8  1A 6F 1A 6F 1A 6F 1A 6F 
   149)       223.9  Rx         0020  7  00 00 07 00 00 00 2E 
   150)       224.2  Rx         0224  8  00 00 00 00 00 00 00 08 
   151)       224.5  Rx         0025  8  0F FB 0F FE 78 78 78 AC 
   152)       225.1  Rx         0024  8  02 02 01 FB 62 08 80 16 
   153)       225.6  Rx         0361  8  00 18 00 00 00 00 00 00 
   154)       230.0  Rx         00AA  8  1A 6F 1A 6F 1A 6F 1A 6F 
   155)       230.2  Rx         01AA  6  00 00 00 00 00 B1 
   156)       233.8  Rx         02C1  8  08 02 68 02 51 D3 00 63 
   157)       234.7  Rx         03B0  6  00 00 00 4B 00 00 
   158)       236.0  Rx         0020  7  00 00 07 00 00 00 2E 
   159)       236.2  Rx         00B4  8  00 00 00 00 04 00 00 C0 
   160)       236.4  Rx         0024  8  02 02 01 FB 62 09 80 17 
   161)       236.7  Rx         0025  8  0F FB 0F FE 78 78 78 AC 
   162)       237.0  Rx         0223  8  00 00 00 00 00 00 00 2D 
   163)       238.0  Rx         0260  8  08 00 09 00 00 00 06 81 
   164)       240.9  Rx         01C4  8  03 49 25 08 34 00 3E B8 
   165)       242.0  Rx         00AA  8  1A 6F 1A 6F 1A 6F 1A 6F 
   166)       242.8  Rx         0442  8  40 02 00 00 00 00 00 00 
   167)       242.9  Rx         03B3  3  03 4A 28 
   168)       247.7  Rx         0351  4  00 00 00 00 
   169)       248.0  Rx         0020  7  00 00 07 00 00 00 2E 
   170)       248.2  Rx         0224  8  00 00 00 00 00 00 00 08 
   171)       248.5  Rx         0025  8  0F FB 0F FE 78 78 78 AC 
   172)       248.7  Rx         0024  8  02 01 01 FD 62 08 80 17 
   173)       251.2  Rx         0399  7  00 00 00 00 00 00 00 
   174)       254.0  Rx         00AA  8  1A 6F 1A 6F 1A 6F 1A 6F 
   175)       254.8  Rx         03A0  8  11 A2 00 00 00 00 00 2B 
   176)       256.0  Rx         0620  8  10 00 00 00 30 60 00 50 
   177)       257.9  Rx         0260  8  08 00 09 00 00 FF F6 70 
   178)       260.0  Rx         0020  7  00 00 07 00 00 00 2E 
   179)       260.3  Rx         00B4  8  00 00 00 00 04 00 00 C0 
   180)       260.5  Rx         0223  8  00 00 00 00 00 00 00 2D 
   181)       260.9  Rx         0024  8  02 02 01 FD 62 06 80 16 
   182)       261.2  Rx         0025  8  0F FB 0F FE 78 78 78 AC 
   183)       262.5  Rx         03BC  8  00 00 00 00 00 00 00 00 
   184)       264.5  Rx         01C4  8  03 41 25 08 34 00 3E B0 
   185)       265.5  Rx         02C1  8  08 02 6A 02 50 D3 00 64 
   186)       265.7  Rx         038A  5  08 00 00 00 00 
   187)       266.2  Rx         00AA  8  1A 6F 1A 6F 1A 6F 1A 6F 
   188)       272.3  Rx         0020  7  00 00 07 00 00 00 2E 
   189)       272.5  Rx         0224  8  00 00 00 00 00 00 00 08 
   190)       273.1  Rx         0025  8  0F FB 0F FE 78 78 78 AC 
   191)       273.4  Rx         0024  8  02 01 01 FB 62 07 80 14 
   192)       274.8  Rx         0380  8  00 00 00 00 00 00 2B 00 
   193)       278.3  Rx         00AA  8  1A 6F 1A 6F 1A 6F 1A 6F 
   194)       278.5  Rx         01AA  6  00 00 00 00 00 B1 
   195)       278.7  Rx         0260  8  08 00 09 00 00 FF FD 77 
   196)       279.8  Rx         03F9  8  57 38 03 01 00 00 00 97 
   197)       284.3  Rx         0020  7  00 00 07 00 00 00 2E 
   198)       284.5  Rx         00B4  8  00 00 00 00 04 00 00 C0 
   199)       284.8  Rx         0223  8  00 00 00 00 00 00 00 2D 
   200)       285.1  Rx         0025  8  0F FB 0F FE 78 78 78 AC 
   201)       285.5  Rx         0024  8  02 01 01 FA 62 09 81 16 
   202)       288.0  Rx         01C4  8  03 3A 25 08 34 00 3E A9 
   203)       290.1  Rx         0361  8  00 18 00 00 00 00 00 00 
   204)       290.3  Rx         00AA  8  1A 6F 1A 6F 1A 6F 1A 6F 
   205)       290.6  Rx         03B7  8  00 00 00 00 00 00 00 00 
   206)       296.3  Rx         0020  7  00 00 07 00 00 00 2E 
   207)       296.5  Rx         0224  8  00 00 00 00 00 00 00 08 
   208)       296.8  Rx         0024  8  02 01 01 FC 62 09 80 17 
   209)       297.1  Rx         0025  8  0F FB 0F FE 78 78 78 AC 
   210)       297.3  Rx         02C1  8  08 02 6D 02 51 D3 00 68 
   211)       298.6  Rx         0260  8  08 00 09 00 00 FF FC 76 
   212)       301.0  Rx         0621  8  11 00 00 00 00 00 00 00 
   213)       302.3  Rx         00AA  8  1A 6F 1A 6F 1A 6F 1A 6F 
   214)       308.4  Rx         0020  7  00 00 07 00 00 00 2E 
   215)       308.6  Rx         00B4  8  00 00 00 00 04 00 00 C0 
   216)       308.9  Rx         0223  8  00 00 00 00 00 00 00 2D 
   217)       309.1  Rx         0024  8  02 02 01 FB 62 07 80 15 
   218)       309.3  Rx         0025  8  0F FB 0F FE 78 78 78 AC 
   219)       309.5  Rx         0351  4  00 00 00 00 
   220)       309.8  Rx         0622  8  12 00 00 00 00 00 00 00 
   221)       311.6  Rx         01C4  8  03 3F 25 08 34 00 3E AE 
   222)       314.4  Rx         00AA  8  1A 6F 1A 6F 1A 6F 1A 6F 
   223)       318.5  Rx         0260  8  08 00 08 00 00 00 03 7D 
   224)       320.4  Rx         0020  7  00 00 07 00 00 00 2E 
   225)       320.7  Rx         0224  8  00 00 00 00 00 00 00 08 
   226)       321.0  Rx         0624  8  1A 00 41 49 49 40 00 00 
   227)       321.3  Rx         0025  8  0F FB 0F FE 78 78 78 AC 
   228)       321.5  Rx         0024  8  02 01 01 FA 62 08 7F 13 
   229)       326.4  Rx         00AA  8  1A 6F 1A 6F 1A 6F 1A 6F 
   230)       326.6  Rx         01AA  6  00 00 00 00 00 B1 
   231)       329.0  Rx         02C1  8  08 02 6B 02 50 D3 00 65 
   232)       331.0  Rx         0638  8  13 00 19 00 00 00 00 00 
   233)       332.4  Rx         0020  7  00 00 07 00 00 00 2E 
   234)       332.7  Rx         00B4  8  00 00 00 00 04 00 00 C0 
   235)       332.9  Rx         0223  8  00 00 00 00 00 00 00 2D 
   236)       333.2  Rx         0025  8  0F FB 0F FE 78 78 78 AC 
   237)       333.6  Rx         0024  8  02 01 01 FA 62 09 81 16 
   238)       335.1  Rx         01C4  8  03 43 25 08 34 00 3E B2 
   239)       338.5  Rx         00AA  8  1A 6F 1A 6F 1A 6F 1A 6F 
   240)       339.0  Rx         0260  8  08 00 09 00 00 00 03 7E 
   241)       341.0  Rx         0440  8  42 02 00 00 00 00 00 00 
   242)       341.2  Rx         063B  8  16 00 59 CE 00 00 04 15 
   243)       344.5  Rx         0020  7  00 00 07 00 00 00 2E 
   244)       344.7  Rx         0224  8  00 00 00 00 00 00 00 08 
   245)       345.0  Rx         0024  8  02 01 01 FD 62 08 81 18 
   246)       345.2  Rx         0025  8  0F FB 0F FE 78 78 78 AC 
   247)       350.5  Rx         00AA  8  1A 6F 1A 6F 1A 6F 1A 6F 
   248)       351.0  Rx         0680  8  D8 00 01 00 00 00 00 00 
   249)       354.6  Rx         0361  8  00 18 00 00 00 00 00 00 
   250)       355.0  Rx         03A0  8  11 A2 00 00 00 00 00 2A 
   251)       356.5  Rx         0020  7  00 00 07 00 00 00 2E 
   252)       356.8  Rx         00B4  8  00 00 00 00 04 00 00 C0 
   253)       357.0  Rx         0223  8  00 00 00 00 00 00 00 2D 
   254)       357.2  Rx         0024  8  02 01 01 FD 62 06 7F 14 
   255)       357.5  Rx         0025  8  0F FB 0F FE 78 78 78 AC 
   256)       358.7  Rx         01C4  8  03 42 25 08 34 00 3E B1 
   257)       359.3  Rx         0260  8  08 00 08 00 00 FF EE 67 
   258)       360.7  Rx         02C1  8  08 02 6A 02 51 D3 00 65 
   259)       362.5  Rx         00AA  8  1A 6F 1A 6F 1A 6F 1A 6F 
   260)       368.5  Rx         0020  7  00 00 07 00 00 00 2E 
   261)       368.8  Rx         0224  8  00 00 00 00 00 00 00 08 
   262)       369.0  Rx         0351  4  00 00 00 00 
   263)       369.2  Rx         0025  8  0F FB 0F FE 78 78 78 AC 
   264)       369.5  Rx         0024  8  02 01 01 FB 62 08 80 15 
   265)       374.6  Rx         00AA  8  1A 6F 1A 6F 1A 6F 1A 6F 
   266)       374.8  Rx         01AA  6  00 00 00 00 00 B1 
   267)       379.4  Rx         0260  8  08 00 08 00 00 00 05 7F 
   268)       380.6  Rx         0020  7  00 00 07 00 00 00 2E 
   269)       380.9  Rx         00B4  8  00 00 00 00 04 00 00 C0 
   270)       381.1  Rx         0223  8  00 00 00 00 00 00 00 2D 
   271)       381.3  Rx         0025  8  0F FB 0F FE 78 78 78 AC 
   272)       381.8  Rx         0024  8  02 01 01 FA 62 0A 80 16 
   273)       382.2  Rx         01C4  8  03 42 25 08 34 00 3E B1 
   274)       386.6  Rx         00AA  8  1A 6F 1A 6F 1A 6F 1A 6F 
   275)       392.4  Rx         02C1  8  08 02 6A 02 53 D3 00 67 
   276)       392.7  Rx         0020  7  00 00 07 00 00 00 2E 
   277)       392.9  Rx         0224  8  00 00 00 00 00 00 00 08 
   278)       393.1  Rx         0024  8  02 01 01 FB 62 09 80 16 
   279)       393.4  Rx         0025  8  0F FB 0F FE 78 78 78 AC 
   280)       398.7  Rx         00AA  8  1A 6F 1A 6F 1A 6F 1A 6F 
   281)       399.6  Rx         0260  8  08 00 09 00 00 FF FC 76 
   282)       404.7  Rx         0020  7  00 00 07 00 00 00 2E 
   283)       404.9  Rx         00B4  8  00 00 00 00 04 00 00 C0 
   284)       405.2  Rx         0223  8  00 00 00 00 00 00 00 2D 
   285)       405.4  Rx         0024  8  02 01 01 FB 62 07 80 14 
   286)       405.7  Rx         0025  8  0F FB 0F FE 82 82 82 CA 
   287)       405.9  Rx         01C4  8  03 40 25 08 34 00 3E AF 
   288)       410.8  Rx         00AA  8  1A 6F 1A 6F 1A 6F 1A 6F 
   289)       416.8  Rx         0020  7  00 00 07 00 00 00 2E 
   290)       417.0  Rx         0224  8  00 00 00 00 00 00 00 08 
   291)       417.5  Rx         0025  8  0F FB 0F FE 78 78 78 AC 
   292)       417.8  Rx         0024  8  02 01 01 FB 62 08 80 15 
   293)       419.1  Rx         0361  8  00 18 00 00 00 00 00 00 
   294)       419.9  Rx         0260  8  08 00 09 00 00 00 07 82 
   295)       422.8  Rx         00AA  8  1A 6F 1A 6F 1A 6F 1A 6F 
   296)       423.0  Rx         01AA  6  00 00 00 00 00 B1 
   297)       424.2  Rx         02C1  8  08 02 72 02 5C D3 00 78 
   298)       428.8  Rx         0020  7  00 00 07 00 00 00 2E 
   299)       429.0  Rx         00B4  8  00 00 00 00 04 00 00 C0 
   300)       429.3  Rx         0223  8  00 00 00 00 00 00 00 2D 
   301)       429.5  Rx         0025  8  0F FB 0F FE 78 78 78 AC 
   302)       429.7  Rx         01C4  8  03 40 25 08 34 00 3E AF 
   303)       430.0  Rx         0024  8  02 01 01 FC 62 08 80 16 
   304)       430.2  Rx         0351  4  00 00 00 00 
   305)       432.7  Rx         0442  8  40 02 00 00 00 00 00 00 
   306)       434.8  Rx         00AA  8  1A 6F 1A 6F 1A 6F 1A 6F 
   307)       439.9  Rx         0260  8  08 00 08 00 00 00 00 7A 
   308)       440.8  Rx         0020  7  00 00 07 00 00 00 2E 
   309)       441.1  Rx         0224  8  00 00 00 00 00 00 00 08 
   310)       441.3  Rx         0024  8  02 01 01 FC 62 07 7F 14 
   311)       441.6  Rx         0025  8  0F FB 0F FE 78 78 78 AC 
   312)       446.9  Rx         00AA  8  1A 6F 1A 6F 1A 6F 1A 6F 
   313)       452.8  Rx         01C4  8  03 44 25 08 34 00 3E B3 
   314)       453.0  Rx         0020  7  00 00 07 00 00 00 2E 
   315)       453.3  Rx         00B4  8  00 00 00 00 04 00 00 C0 
   316)       453.6  Rx         0024  8  02 02 01 FA 62 08 80 15 
   317)       453.8  Rx         0223  8  00 00 00 00 00 00 00 2D 
   318)       454.0  Rx         0025  8  0F FB 0F FE 78 78 78 AC 
   319)       455.0  Rx         03A0  8  11 A2 00 00 00 00 00 2A 
   320)       455.3  Rx         0394  1  00 
   321)       455.9  Rx         02C1  8  08 02 71 02 5D D3 00 78 
   322)       458.9  Rx         00AA  8  1A 6F 1A 6F 1A 6F 1A 6F 
   323)       460.3  Rx         0260  8  08 00 08 00 00 00 05 7F 
   324)       462.7  Rx         0610  8  20 00 00 57 00 00 00 00 
   325)       464.9  Rx         0020  7  00 00 07 00 00 00 2E 
   326)       465.2  Rx         0224  8  00 00 00 00 00 00 00 08 
   327)       465.4  Rx         04C3  8  03 00 13 07 00 00 00 00 
   328)       465.6  Rx         0025  8  0F FB 0F FE 78 78 78 AC 
   329)       465.9  Rx         0024  8  02 01 01 FA 62 0A 80 16 
   330)       470.9  Rx         00AA  8  1A 6F 1A 6F 1A 6F 1A 6F 
   331)       471.1  Rx         01AA  6  00 00 00 00 00 B1 
   332)       476.4  Rx         01C4  8  03 44 25 08 34 00 3E B3 
   333)       477.0  Rx         0020  7  00 00 07 00 00 00 2E 
   334)       477.2  Rx         00B4  8  00 00 00 00 04 00 00 C0 
   335)       477.5  Rx         0223  8  00 00 00 00 00 00 00 2D 
   336)       478.0  Rx         0025  8  0F FB 0F FE 78 78 78 AC 
   337)       478.2  Rx         0024  8  02 01 01 FC 62 09 80 17 
   338)       480.7  Rx         0260  8  08 00 09 00 00 00 00 7B 
   339)       483.0  Rx         00AA  8  1A 6F 1A 6F 1A 6F 1A 6F 
   340)       483.6  Rx         0361  8  00 18 00 00 00 00 00 00 
   341)       487.6  Rx         02C1  8  08 02 70 02 5E D3 00 78 
   342)       489.0  Rx         0020  7  00 00 07 00 00 00 2E 
   343)       489.2  Rx         0224  8  00 00 00 00 00 00 00 08 
   344)       489.5  Rx         0024  8  02 01 01 FE 62 06 80 16 
   345)       490.0  Rx         0025  8  0F FB 0F FE 78 78 78 AC 
   346)       490.6  Rx         0351  4  00 00 00 00 
   347)       495.0  Rx         00AA  8  1A 6F 1A 6F 1A 6F 1A 6F 
   348)       497.8  Rx         03BB  4  00 00 B1 00 
   349)       499.9  Rx         01C4  8  03 40 25 08 34 00 3E AF 
   350)       500.6  Rx         0260  8  08 00 09 00 00 00 05 80 
   351)       501.0  Rx         0020  7  00 00 07 00 00 00 2E 
   352)       501.3  Rx         00B4  8  00 00 00 00 04 00 00 C0 
   353)       501.5  Rx         0223  8  00 00 00 00 00 00 00 2D 
   354)       501.7  Rx         0024  8  02 01 01 FC 62 07 80 15 
   355)       502.0  Rx         0420  8  00 00 00 00 FC FB 00 23 
   356)       502.2  Rx         0025  8  0F FB 0F FE 78 78 78 AC 
   357)       502.7  Rx         0611  8  21 00 00 00 00 02 69 27 
   358)       507.0  Rx         00AA  8  1A 6F 1A 6F 1A 6F 1A 6F 
   359)       513.1  Rx         0020  7  00 00 07 00 00 00 2E 
   360)       513.3  Rx         0224  8  00 00 00 00 00 00 00 08 
   361)       513.9  Rx         0024  8  02 01 01 FB 62 09 80 16 
   362)       514.1  Rx         0025  8  0F FB 0F FE 78 78 78 AC 
   363)       519.2  Rx         00AA  8  1A 6F 1A 6F 1A 6F 1A 6F 
   364)       519.5  Rx         01AA  6  00 00 00 00 00 B1 
   365)       519.7  Rx         02C1  8  08 02 72 02 5C D3 00 78 
   366)       521.0  Rx         0260  8  08 00 08 00 00 FF FD 76 
   367)       523.5  Rx         01C4  8  03 3E 25 08 34 00 3E AD 
   368)       525.3  Rx         0020  7  00 00 07 00 00 00 2E 
   369)       525.5  Rx         00B4  8  00 00 00 00 04 00 00 C0 
   370)       525.7  Rx         0223  8  00 00 00 00 00 00 00 2D 
   371)       526.0  Rx         0025  8  0F FB 0F FE 78 78 78 AC 
   372)       526.2  Rx         0024  8  02 01 01 FB 62 09 80 16 
   373)       529.6  Rx         03F9  8  57 38 03 01 00 00 00 97 
   374)       530.9  Rx         0440  8  42 02 00 00 00 00 00 00 
   375)       531.3  Rx         00AA  8  1A 6F 1A 6F 1A 6F 1A 6F 
   376)       537.3  Rx         0020  7  00 00 07 00 00 00 2E 
   377)       537.6  Rx         0224  8  00 00 00 00 00 00 00 08 
   378)       538.1  Rx         0025  8  0F FB 0F FE 78 78 78 AC 
   379)       538.5  Rx         0024  8  02 01 01 FC 62 07 80 15 
   380)       541.3  Rx         0260  8  08 00 08 00 00 FF F8 71 
   381)       543.3  Rx         00AA  8  1A 6F 1A 6F 1A 6F 1A 6F 
   382)       547.0  Rx         01C4  8  03 3D 25 08 34 00 3E AC 
   383)       548.1  Rx         0361  8  00 18 00 00 00 00 00 00 
   384)       549.3  Rx         0020  7  00 00 07 00 00 00 2E 
   385)       549.6  Rx         00B4  8  00 00 00 00 04 00 00 C0 
   386)       549.8  Rx         0024  8  02 01 01 FB 62 08 80 15 
   387)       550.1  Rx         0223  8  00 00 00 00 00 00 00 2D 
   388)       550.3  Rx         0025  8  0F FB 0F FE 78 78 78 AC 
   389)       551.1  Rx         02C1  8  08 02 73 02 5E D3 00 7B 
   390)       551.4  Rx         0351  4  00 00 00 00 
   391)       555.1  Rx         03A0  8  11 A2 00 00 00 00 00 2A 
   392)       555.4  Rx         00AA  8  1A 6F 1A 6F 1A 6F 1A 6F 
   393)       556.1  Rx         0620  8  10 00 00 00 30 60 00 50 
   394)       561.2  Rx         0260  8  08 00 09 00 00 00 09 84 
   395)       561.4  Rx         0020  7  00 00 07 00 00 00 2E 
   396)       561.7  Rx         0224  8  00 00 00 00 00 00 00 08 
   397)       562.0  Rx         0024  8  02 01 01 FB 62 08 80 15 
   398)       562.2  Rx         0025  8  0F FB 0F FE 78 78 78 AC 
   399)       567.4  Rx         00AA  8  1A 6F 1A 6F 1A 6F 1A 6F 
   400)       567.6  Rx         01AA  6  00 00 00 00 00 B1 
   401)       570.6  Rx         01C4  8  03 3C 25 08 34 00 3E AB 
   402)       573.5  Rx         0020  7  00 00 07 00 00 00 2E 
   403)       573.7  Rx         00B4  8  00 00 00 00 04 00 00 C0 
   404)       574.0  Rx         0223  8  00 00 00 00 00 00 00 2D 
   405)       574.2  Rx         0025  8  0F FB 0F FE 78 78 78 AC 
   406)       574.4  Rx         0024  8  02 01 01 FC 62 08 7F 15 
   407)       579.5  Rx         00AA  8  1A 6F 1A 6F 1A 6F 1A 6F 
   408)       581.4  Rx         0260  8  08 00 09 00 00 00 01 7C 
   409)       582.8  Rx         02C1  8  08 02 73 02 60 D3 00 7D 
   410)       585.5  Rx         0020  7  00 00 07 00 00 00 2E 
   411)       585.7  Rx         0224  8  00 00 00 00 00 00 00 08 
   412)       586.1  Rx         0025  8  0F FB 0F FE 78 78 78 AC 
   413)       586.6  Rx         0024  8  02 02 01 FC 62 07 80 16 
   414)       591.5  Rx         00AA  8  1A 6F 1A 6F 1A 6F 1A 6F 
   415)       591.8  Rx         03B7  8  00 00 00 00 00 00 00 00 
   416)       594.1  Rx         01C4  8  03 3B 25 08 34 00 3E AA 
   417)       596.0  Rx         03D3  2  00 D9 
   418)       597.6  Rx         0020  7  00 00 07 00 00 00 2E 
   419)       597.8  Rx         00B4  8  00 00 00 00 04 00 00 C0 
   420)       598.0  Rx         0024  8  02 01 01 FB 62 08 7F 14 
   421)       598.3  Rx         0025  8  0F FB 0F FE 78 78 78 AC 
   422)       598.5  Rx         0223  8  00 00 00 00 00 00 00 2D 
   423)       600.9  Rx         04C7  8  08 00 01 21 00 00 00 00 
   424)       602.0  Rx         0260  8  08 00 09 00 00 00 00 7B 
   425)       603.6  Rx         00AA  8  1A 6F 1A 6F 1A 6F 1A 6F 
   426)       609.6  Rx         0020  7  00 00 07 00 00 00 2E 
   427)       609.9  Rx         0224  8  00 00 00 00 00 00 00 08 
   428)       610.1  Rx         0024  8  02 02 01 FB 62 09 80 17 
   429)       610.4  Rx         0025  8  0F FB 0F FE 82 82 82 CA 
   430)       611.9  Rx         0351  4  00 00 00 00 
   431)       612.5  Rx         0361  8  00 18 00 00 00 00 00 00 
   432)       614.6  Rx         02C1  8  08 02 74 02 60 D3 00 7E 
   433)       615.6  Rx         00AA  8  1A 6F 1A 6F 1A 6F 1A 6F 
   434)       615.8  Rx         01AA  6  00 00 00 00 00 B1 
   435)       617.6  Rx         01C4  8  03 3C 25 08 34 00 3E AB 
   436)       621.6  Rx         0020  7  00 00 07 00 00 00 2E 
   437)       621.9  Rx         00B4  8  00 00 00 00 04 00 00 C0 
   438)       622.1  Rx         0223  8  00 00 00 00 00 00 00 2D 
   439)       622.4  Rx         0260  8  08 00 09 00 00 FF F4 6E 
   440)       622.6  Rx         0024  8  02 02 01 FC 62 08 80 17 
   441)       622.8  Rx         0025  8  0F FB 0F FE 78 78 78 AC 
   442)       623.1  Rx         0442  8  40 02 00 00 00 00 00 00 
   443)       627.7  Rx         00AA  8  1A 6F 1A 6F 1A 6F 1A 6F 
   444)       633.7  Rx         0020  7  00 00 07 00 00 00 2E 
   445)       633.9  Rx         0224  8  00 00 00 00 00 00 00 08 
   446)       634.4  Rx         0025  8  0F FB 0F FE 78 78 78 AC 
   447)       634.7  Rx         0024  8  02 02 01 FC 62 07 80 16 
   448)       635.3  Rx         04C6  8  07 00 02 00 00 00 00 00 
   449)       639.7  Rx         00AA  8  1A 6F 1A 6F 1A 6F 1A 6F 
   450)       641.2  Rx         01C4  8  03 3E 25 08 34 00 3E AD 
   451)       642.3  Rx         0260  8  08 00 09 00 00 00 03 7E 
   452)       645.8  Rx         0020  7  00 00 07 00 00 00 2E 
   453)       646.0  Rx         00B4  8  00 00 00 00 04 00 00 C0 
   454)       646.3  Rx         0223  8  00 00 00 00 00 00 00 2D 
   455)       646.5  Rx         0025  8  0F FB 0F FE 78 78 78 AC 
   456)       646.7  Rx         02C1  8  08 02 73 02 62 D3 00 7F 
   457)       647.0  Rx         0024  8  02 02 01 FB 62 08 80 16 
   458)       651.8  Rx         00AA  8  1A 6F 1A 6F 1A 6F 1A 6F 
   459)       655.2  Rx         03A0  8  11 A2 00 00 00 00 00 2B 
   460)       657.8  Rx         0020  7  00 00 07 00 00 00 2E 
   461)       658.0  Rx         0224  8  00 00 00 00 00 00 00 08 
   462)       658.3  Rx         0024  8  02 01 01 FB 62 09 80 16 
   463)       658.5  Rx         0025  8  0F FB 0F FE 78 78 78 AC 
   464)       662.5  Rx         0260  8  08 00 09 00 00 FF FA 74 
   465)       663.8  Rx         00AA  8  1A 6F 1A 6F 1A 6F 1A 6F 
   466)       664.0  Rx         01AA  6  00 00 00 00 00 B1 
   467)       664.7  Rx         01C4  8  03 43 25 08 34 00 3E B2 
   468)       669.8  Rx         0020  7  00 00 07 00 00 00 2E 
   469)       670.1  Rx         00B4  8  00 00 00 00 04 00 00 C0 
   470)       670.3  Rx         0223  8  00 00 00 00 00 00 00 2D 
   471)       670.6  Rx         0024  8  02 02 01 FC 62 07 80 16 
   472)       670.8  Rx         0025  8  0F FB 0F FE 78 78 78 AC 
   473)       672.7  Rx         0351  4  00 00 00 00 
   474)       675.8  Rx         00AA  8  1A 6F 1A 6F 1A 6F 1A 6F 
   475)       677.0  Rx         0361  8  00 18 00 00 00 00 00 00 
   476)       678.0  Rx         02C1  8  08 02 70 02 60 D3 00 7A 
   477)       681.9  Rx         0020  7  00 00 07 00 00 00 2E 
   478)       682.1  Rx         0224  8  00 00 00 00 00 00 00 08 
   479)       682.7  Rx         0260  8  08 00 09 00 00 FF FA 74 
   480)       683.0  Rx         0024  8  02 01 01 FB 62 07 80 14 
   481)       683.2  Rx         0025  8  0F FB 0F FE 78 78 78 AC 
   482)       687.9  Rx         00AA  8  1A 6F 1A 6F 1A 6F 1A 6F 
   483)       688.3  Rx         01C4  8  03 4A 25 08 34 00 3E B9 
   484)       693.9  Rx         0020  7  00 00 07 00 00 00 2E 
   485)       694.2  Rx         00B4  8  00 00 00 00 04 00 00 C0 
   486)       694.4  Rx         0223  8  00 00 00 00 00 00 00 2D 
   487)       694.9  Rx         0025  8  0F FB 0F FE 78 78 78 AC 
   488)       695.2  Rx         0024  8  02 02 01 FA 62 09 80 16 
   489)       699.9  Rx         00AA  8  1A 6F 1A 6F 1A 6F 1A 6F 
   490)       702.8  Rx         0260  8  08 00 08 00 00 00 01 7B 
   491)       705.9  Rx         0020  7  00 00 07 00 00 00 2E 
   492)       706.2  Rx         0224  8  00 00 00 00 00 00 00 08 
   493)       706.4  Rx         0024  8  02 01 01 FB 62 09 80 16 
   494)       706.9  Rx         0025  8  0F FB 0F FE 78 78 78 AC 
   495)       708.8  Rx         04C1  8  01 00 00 01 00 00 00 00 
   496)       709.7  Rx         02C1  8  08 02 68 02 5A D3 00 6C 
   497)       711.8  Rx         01C4  8  03 49 25 08 34 00 3E B8 
   498)       712.0  Rx         00AA  8  1A 6F 1A 6F 1A 6F 1A 6F 
   499)       712.3  Rx         01AA  6  00 00 00 00 00 B1 
   500)       718.0  Rx         0020  7  00 00 07 00 00 00 2E 
   501)       718.2  Rx         00B4  8  00 00 00 00 04 00 00 C0 
   502)       718.4  Rx         0223  8  00 00 00 00 00 00 00 2D 
   503)       718.7  Rx         0024  8  02 01 01 FC 62 07 80 15 
   504)       719.0  Rx         0025  8  0F FB 0F FE 78 78 78 AC 
   505)       721.0  Rx         0440  8  42 02 00 00 00 00 00 00 
   506)       723.3  Rx         0260  8  08 00 08 00 00 FF F8 71 
   507)       724.0  Rx         00AA  8  1A 6F 1A 6F 1A 6F 1A 6F 
   508)       730.0  Rx         0020  7  00 00 07 00 00 00 2E 
   509)       730.3  Rx         0224  8  00 00 00 00 00 00 00 08 
   510)       730.9  Rx         0025  8  0F FB 0F FE 78 78 78 AC 
   511)       731.2  Rx         0024  8  02 01 01 FC 62 06 80 14 
   512)       733.2  Rx         0351  4  00 00 00 00 
   513)       735.4  Rx         01C4  8  03 3E 25 08 34 00 3E AD 
   514)       736.1  Rx         00AA  8  1A 6F 1A 6F 1A 6F 1A 6F 
   515)       741.5  Rx         02C1  8  08 02 6C 02 59 D3 00 6F 
   516)       741.7  Rx         0361  8  00 18 00 00 00 00 00 00 
   517)       742.1  Rx         0020  7  00 00 07 00 00 00 2E 
   518)       742.3  Rx         00B4  8  00 00 00 00 04 00 00 C0 
   519)       742.6  Rx         0223  8  00 00 00 00 00 00 00 2D 
   520)       742.9  Rx         0025  8  0F FB 0F FE 78 78 78 AC 
   521)       743.2  Rx         0024  8  02 01 01 FB 62 08 80 15 
   522)       743.5  Rx         0260  8  08 00 09 00 00 FF F6 70 
   523)       748.3  Rx         00AA  8  1A 6F 1A 6F 1A 6F 1A 6F 
   524)       754.3  Rx         0020  7  00 00 07 00 00 00 2E 
   525)       754.5  Rx         0224  8  00 00 00 00 00 00 00 08 
   526)       754.7  Rx         03B3  3  03 4C 28 
   527)       755.0  Rx         0025  8  0F FB 0F FE 78 78 78 AC 
   528)       755.5  Rx         03A0  8  11 A2 00 00 00 00 00 2B 
   529)       755.7  Rx         0024  8  02 01 01 FB 62 09 80 16 
   530)       758.5  Rx         0394  1  00 
   531)       758.9  Rx         01C4  8  03 3D 25 08 34 00 3E AC 
   532)       760.3  Rx         00AA  8  1A 6F 1A 6F 1A 6F 1A 6F 
   533)       760.5  Rx         01AA  6  00 00 00 00 00 B1 
   534)       762.6  Rx         0640  8  A8 00 00 00 01 7A 00 00 
   535)       763.8  Rx         0260  8  08 00 08 00 00 00 05 7F 
   536)       766.3  Rx         0020  7  00 00 07 00 00 00 2E 
   537)       766.6  Rx         00B4  8  00 00 00 00 04 00 00 C0 
   538)       766.8  Rx         0223  8  00 00 00 00 00 00 00 2D 
   539)       767.1  Rx         0024  8  02 01 01 FB 62 08 80 15 
   540)       767.3  Rx         0025  8  0F FB 0F FE 78 78 78 AC 
   541)       772.4  Rx         00AA  8  1A 6F 1A 6F 1A 6F 1A 6F 
   542)       773.3  Rx         02C1  8  08 02 6C 02 5B D3 00 71 
   543)       778.4  Rx         0020  7  00 00 07 00 00 00 2E 
   544)       778.6  Rx         0224  8  00 00 00 00 00 00 00 08 
   545)       779.0  Rx         0025  8  0F FB 0F FE 78 78 78 AC 
   546)       779.3  Rx         0024  8  02 01 01 F9 62 09 7F 13 
   547)       779.5  Rx         03F9  8  57 38 03 01 00 00 00 97 
   548)       782.5  Rx         01C4  8  03 3E 25 08 34 00 3E AD 
   549)       784.0  Rx         0260  8  08 00 09 00 00 00 09 84 
   550)       784.5  Rx         00AA  8  1A 6F 1A 6F 1A 6F 1A 6F 
   551)       790.5  Rx         0020  7  00 00 07 00 00 00 2E 
   552)       790.7  Rx         00B4  8  00 00 00 00 04 00 00 C0 
   553)       790.9  Rx         0223  8  00 00 00 00 00 00 00 2D 
   554)       791.2  Rx         0025  8  0F FB 0F FE 78 78 78 AC 
   555)       791.4  Rx         0024  8  02 01 01 FB 62 09 7F 15 
   556)       794.1  Rx         0351  4  00 00 00 00 
   557)       796.5  Rx         00AA  8  1A 6F 1A 6F 1A 6F 1A 6F 
   558)       802.5  Rx         0020  7  00 00 07 00 00 00 2E 
   559)       802.8  Rx         0224  8  00 00 00 00 00 00 00 08 
   560)       803.1  Rx         0025  8  0F FB 0F FE 78 78 78 AC 
   561)       803.7  Rx         0024  8  02 01 01 FD 62 07 80 16 
   562)       804.1  Rx         0260  8  08 00 09 00 00 FF F6 70 
   563)       805.0  Rx         02C1  8  08 02 6C 02 5B D3 00 71 
   564)       806.0  Rx         01C4  8  03 3C 25 08 34 00 3E AB 
   565)       806.3  Rx         0361  8  00 19 00 00 00 00 00 00 
   566)       808.5  Rx         00AA  8  1A 6F 1A 6F 1A 6F 1A 6F 
   567)       808.7  Rx         01AA  6  00 00 00 00 00 B1 
   568)       812.5  Rx         0442  8  40 02 00 00 00 00 00 00 
   569)       814.5  Rx         0020  7  00 00 07 00 00 00 2E 
   570)       814.8  Rx         00B4  8  00 00 00 00 04 00 00 C0 
   571)       815.1  Rx         0024  8  02 01 01 FD 62 06 80 15 
   572)       815.3  Rx         0223  8  00 00 00 00 00 00 00 2D 
   573)       815.5  Rx         0025  8  0F FB 0F FE 82 82 82 CA 
   574)       820.6  Rx         00AA  8  1A 6F 1A 6F 1A 6F 1A 6F 
   575)       824.1  Rx         0260  8  08 00 08 00 00 00 07 81 
   576)       826.6  Rx         0020  7  00 00 07 00 00 00 2E 
   577)       826.9  Rx         0224  8  00 00 00 00 00 00 00 08 
   578)       827.2  Rx         0024  8  02 01 01 FB 62 07 80 14 
   579)       827.5  Rx         0025  8  0F FB 0F FE 78 78 78 AC 
   580)       829.6  Rx         01C4  8  03 38 25 08 34 00 3E A7 
   581)       832.6  Rx         00AA  8  1A 6F 1A 6F 1A 6F 1A 6F 
   582)       836.7  Rx         02C1  8  08 02 6D 02 5D D3 00 74 
   583)       837.1  Rx         0423  1  00 
   584)       838.7  Rx         0020  7  00 00 07 00 00 00 2E 
   585)       838.9  Rx         00B4  8  00 00 00 00 04 00 00 C0 
   586)       839.2  Rx         0223  8  00 00 00 00 00 00 00 2D 
   587)       839.4  Rx         0025  8  0F FB 0F FE 78 78 78 AC 
   588)       839.6  Rx         0024  8  02 01 01 FA 62 0A 80 16 
   589)       841.2  Rx         063B  8  16 00 59 CE 00 00 04 1A 
   590)       844.7  Rx         0260  8  08 00 0A 00 00 00 07 83 
   591)       844.9  Rx         00AA  8  1A 6F 1A 6F 1A 6F 1A 6F 
   592)       850.7  Rx         0020  7  00 00 07 00 00 00 2E 
   593)       851.0  Rx         0224  8  00 00 00 00 00 00 00 08 
   594)       851.3  Rx         0025  8  0F FB 0F FE 78 78 78 AC 
   595)       851.8  Rx         0024  8  02 01 01 FB 62 09 80 16 
   596)       853.1  Rx         01C4  8  03 39 25 08 34 00 3E A8 
   597)       854.7  Rx         0351  4  00 00 00 00 
   598)       855.4  Rx         03A0  8  11 A2 00 00 00 00 00 2A 
   599)       856.3  Rx         0620  8  10 00 00 00 30 60 00 50 
   600)       856.7  Rx         00AA  8  1A 6F 1A 6F 1A 6F 1A 6F 
   601)       856.9  Rx         01AA  6  00 00 00 00 00 B1 
   602)       862.7  Rx         0020  7  00 00 07 00 00 00 2E 
   603)       863.0  Rx         00B4  8  00 00 00 00 04 00 00 C0 
   604)       863.2  Rx         0024  8  02 02 01 FB 62 07 80 15 
   605)       863.5  Rx         0025  8  0F FB 0F FE 78 78 78 AC 
   606)       863.7  Rx         0223  8  00 00 00 00 00 00 00 2D 
   607)       864.9  Rx         0260  8  08 00 09 00 00 FF FA 74 
   608)       868.5  Rx         02C1  8  08 02 6E 02 5E D3 00 76 
   609)       868.7  Rx         00AA  8  1A 6F 1A 6F 1A 6F 1A 6F 
   610)       870.5  Rx         0361  8  00 19 00 00 00 00 00 00 
   611)       874.8  Rx         0020  7  00 00 07 00 00 00 2E 
   612)       875.0  Rx         0224  8  00 00 00 00 00 00 00 08 
   613)       875.3  Rx         0025  8  0F FB 0F FE 78 78 78 AC 
   614)       875.5  Rx         0024  8  02 02 01 FB 62 08 80 16 
   615)       876.6  Rx         01C4  8  03 3F 25 08 34 00 3E AE 
   616)       880.8  Rx         00AA  8  1A 6F 1A 6F 1A 6F 1A 6F 
   617)       884.2  Rx         03B1  8  00 00 01 01 00 08 00 00 
   618)       884.8  Rx         0260  8  08 00 09 00 00 00 07 82 
   619)       886.8  Rx         0020  7  00 00 07 00 00 00 2E 
   620)       887.1  Rx         00B4  8  00 00 00 00 04 00 00 C0 
   621)       887.3  Rx         0223  8  00 00 00 00 00 00 00 2D 
   622)       887.7  Rx         0024  8  02 01 01 FB 62 08 7F 14 
   623)       887.9  Rx         0025  8  0F FB 0F FE 78 78 78 AC 
   624)       892.9  Rx         00AA  8  1A 6F 1A 6F 1A 6F 1A 6F 
   625)       893.1  Rx         03B7  8  00 00 00 00 00 00 00 00 
   626)       898.9  Rx         0020  7  00 00 07 00 00 00 2E 
   627)       899.1  Rx         0224  8  00 00 00 00 00 00 00 08 
   628)       899.9  Rx         0025  8  0F FB 0F FE 78 78 78 AC 
   629)       900.1  Rx         0024  8  02 02 01 FD 62 07 80 17 
   630)       900.4  Rx         01C4  8  03 41 25 08 34 00 3E B0 
   631)       900.6  Rx         02C1  8  08 02 72 02 65 D3 00 81 
   632)       904.9  Rx         00AA  8  1A 6F 1A 6F 1A 6F 1A 6F 
   633)       905.1  Rx         01AA  6  00 00 00 00 00 B1 
   634)       905.4  Rx         0260  8  08 00 08 00 00 FF F7 70 
   635)       910.9  Rx         0020  7  00 00 07 00 00 00 2E 
   636)       911.1  Rx         00B4  8  00 00 00 00 04 00 00 C0 
   637)       911.4  Rx         0024  8  02 02 01 FD 62 07 80 17 
   638)       911.6  Rx         0223  8  00 00 00 00 00 00 00 2D 
   639)       911.9  Rx         0440  8  42 02 00 00 00 00 00 00 
   640)       912.1  Rx         0025  8  0F FB 0F FE 78 78 78 AC 
   641)       915.4  Rx         0351  4  00 00 00 00 
   642)       916.9  Rx         00AA  8  1A 6F 1A 6F 1A 6F 1A 6F 
   643)       923.0  Rx         0020  7  00 00 07 00 00 00 2E 
   644)       923.2  Rx         0224  8  00 00 00 00 00 00 00 08 
   645)       923.5  Rx         0024  8  02 01 01 FA 62 09 81 16 
   646)       923.7  Rx         01C4  8  03 45 25 08 34 00 3E B4 
   647)       924.0  Rx         0025  8  0F FB 0F FE 78 78 78 AC 
   648)       925.6  Rx         0260  8  08 00 08 00 00 FF FC 75 
   649)       929.0  Rx         00AA  8  1A 6F 1A 6F 1A 6F 1A 6F 
   650)       931.9  Rx         02C1  8  08 02 70 02 63 D3 00 7D 
   651)       935.0  Rx         0361  8  00 18 00 00 00 00 00 00 
   652)       935.2  Rx         0020  7  00 00 07 00 00 00 2E 
   653)       935.5  Rx         00B4  8  00 00 00 00 04 00 00 C0 
   654)       935.7  Rx         0223  8  00 00 00 00 00 00 00 2D 
   655)       936.0  Rx         0024  8  02 01 01 FA 62 0A 80 16 
   656)       936.2  Rx         0025  8  0F FB 0F FE 78 78 78 AC 
   657)       941.0  Rx         00AA  8  1A 6F 1A 6F 1A 6F 1A 6F 
   658)       945.5  Rx         0260  8  08 00 09 00 00 00 04 7F 
   659)       947.0  Rx         0020  7  00 00 07 00 00 00 2E 
   660)       947.3  Rx         0224  8  00 00 00 00 00 00 00 08 
   661)       947.5  Rx         01C4  8  03 44 25 08 34 00 3E B3 
   662)       947.9  Rx         0025  8  0F FB 0F FE 78 78 78 AC 
   663)       948.1  Rx         0024  8  02 02 01 FB 62 08 80 16 
   664)       953.0  Rx         00AA  8  1A 6F 1A 6F 1A 6F 1A 6F 
   665)       953.3  Rx         01AA  6  00 00 00 00 00 B1 
   666)       955.6  Rx         03A0  8  11 A2 00 00 00 00 00 2A 
   667)       959.1  Rx         0020  7  00 00 07 00 00 00 2E 
   668)       959.3  Rx         00B4  8  00 00 00 00 04 00 00 C0 
   669)       959.6  Rx         0223  8  00 00 00 00 00 00 00 2D 
   670)       959.9  Rx         0025  8  0F FB 0F FE 78 78 78 AC 
   671)       960.3  Rx         0024  8  02 01 01 FC 62 07 80 15 
   672)       962.4  Rx         0610  8  20 00 00 57 00 00 00 00 
   673)       963.6  Rx         02C1  8  08 02 71 02 62 D3 00 7D 
   674)       965.1  Rx         00AA  8  1A 6F 1A 6F 1A 6F 1A 6F 
   675)       965.9  Rx         0260  8  08 00 09 00 00 00 08 83 
   676)       970.8  Rx         01C4  8  03 43 25 08 34 00 3E B2 
   677)       971.1  Rx         0020  7  00 00 07 00 00 00 2E 
   678)       971.4  Rx         0224  8  00 00 00 00 00 00 00 08 
   679)       971.6  Rx         0024  8  02 01 01 FB 62 07 80 14 
   680)       972.0  Rx         0025  8  0F FB 0F FE 78 78 78 AC 
   681)       976.0  Rx         0351  4  00 00 00 00 
   682)       977.3  Rx         00AA  8  1A 6F 1A 6F 1A 6F 1A 6F 
   683)       982.2  Rx         04DD  8  1E 00 00 02 00 00 00 00 
   684)       983.3  Rx         0020  7  00 00 07 00 00 00 2E 
   685)       983.6  Rx         00B4  8  00 00 00 00 04 00 00 C0 
   686)       983.8  Rx         0223  8  00 00 00 00 00 00 00 2D 
   687)       984.1  Rx         0024  8  02 01 01 FC 62 07 80 15 
   688)       984.3  Rx         0025  8  0F FB 0F FE 78 78 78 AC 
   689)       986.3  Rx         0260  8  08 00 08 00 00 00 07 81 
   690)       989.4  Rx         00AA  8  1A 6F 1A 6F 1A 6F 1A 6F 
   691)       994.4  Rx         01C4  8  03 44 25 08 34 00 3E B3 
   692)       995.3  Rx         0020  7  00 00 07 00 00 00 2E 
   693)       995.6  Rx         0224  8  00 00 00 00 00 00 00 08 
   694)       995.9  Rx         02C1  8  08 02 70 02 61 D3 00 7B 
   695)       996.1  Rx         0025  8  0F FB 0F FE 78 78 78 AC 
   696)       996.3  Rx         0024  8  02 01 01 FD 62 07 80 16 
   697)       999.5  Rx         0361  8  00 18 00 00 00 00 00 00 
   698)      1001.4  Rx         00AA  8  1A 6F 1A 6F 1A 6F 1A 6F 
   699)      1001.6  Rx         01AA  6  00 00 00 00 00 B1 
   700)      1002.3  Rx         0442  8  40 02 00 00 00 00 00 00 
   701)      1006.4  Rx         0260  8  08 00 08 00 00 00 05 7F 
   702)      1007.4  Rx         0020  7  00 00 07 00 00 00 2E 
   703)      1007.6  Rx         00B4  8  00 00 00 00 04 00 00 C0 
   704)      1007.9  Rx         0223  8  00 00 00 00 00 00 00 2D 
   705)      1008.1  Rx         0025  8  0F FB 0F FE 78 78 78 AC 
   706)      1008.5  Rx         0024  8  02 01 01 FB 62 08 80 15 
   707)      1013.4  Rx         00AA  8  1A 6F 1A 6F 1A 6F 1A 6F 
   708)      1017.9  Rx         01C4  8  03 45 25 08 34 00 3E B4 
   709)      1019.4  Rx         0020  7  00 00 07 00 00 00 2E 
   710)      1019.7  Rx         0224  8  00 00 00 00 00 00 00 08 
   711)      1019.9  Rx         0024  8  02 01 01 FA 62 0A 7F 15 
   712)      1020.1  Rx         0025  8  0F FB 0F FE 78 78 78 AC 
   713)      1025.4  Rx         00AA  8  1A 6F 1A 6F 1A 6F 1A 6F 
   714)      1026.4  Rx         0260  8  08 00 09 00 00 00 00 7B 
   715)      1027.1  Rx         02C1  8  08 02 71 02 61 D3 00 7C 
   716)      1029.1  Rx         03F9  8  57 38 03 01 00 00 00 97 
   717)      1031.4  Rx         0020  7  00 00 07 00 00 00 2E 
   718)      1031.7  Rx         00B4  8  00 00 00 00 04 00 00 C0 
   719)      1031.9  Rx         0223  8  00 00 00 00 00 00 00 2D 
   720)      1032.2  Rx         0024  8  02 01 01 FC 62 09 80 17 
   721)      1032.4  Rx         0025  8  0F FB 0F FE 78 78 78 AC 
   722)      1036.7  Rx         0351  4  00 00 00 00 
   723)      1037.0  Rx         04C8  8  09 00 00 00 00 00 00 00 
   724)      1037.5  Rx         00AA  8  1A 6F 1A 6F 1A 6F 1A 6F 
   725)      1041.4  Rx         01C4  8  03 48 25 08 34 00 3E B7 
   726)      1043.5  Rx         0020  7  00 00 07 00 00 00 2E 
   727)      1043.7  Rx         0224  8  00 00 00 00 00 00 00 08 
   728)      1044.3  Rx         0025  8  0F FB 0F FE 82 82 82 CA 
   729)      1044.6  Rx         0024  8  02 01 01 FD 62 06 80 15 
   730)      1046.9  Rx         0260  8  08 00 09 00 00 00 0A 85 
   731)      1049.5  Rx         00AA  8  1A 6F 1A 6F 1A 6F 1A 6F 
   732)      1049.7  Rx         01AA  6  00 00 00 00 00 B1 
   733)      1055.5  Rx         0020  7  00 00 07 00 00 00 2E 
   734)      1055.8  Rx         00B4  8  00 00 00 00 04 00 00 C0 
   735)      1056.0  Rx         0223  8  00 00 00 00 00 00 00 2D 
   736)      1056.2  Rx         03A0  8  11 A2 00 00 00 00 00 2A 
   737)      1056.5  Rx         0025  8  0F FB 0F FE 78 78 78 AC 
   738)      1056.7  Rx         0024  8  02 02 01 FB 62 07 80 15 
   739)      1058.9  Rx         02C1  8  08 02 6F 02 5F D3 00 78 
   740)      1061.5  Rx         00AA  8  1A 6F 1A 6F 1A 6F 1A 6F 
   741)      1061.8  Rx         0394  1  00 
   742)      1064.0  Rx         0361  8  00 18 00 00 00 00 00 00 
   743)      1065.0  Rx         01C4  8  03 4D 25 08 34 00 3E BC 
   744)      1067.0  Rx         0260  8  08 00 09 00 00 00 06 81 
   745)      1067.6  Rx         0020  7  00 00 07 00 00 00 2E 
   746)      1067.8  Rx         0224  8  00 00 00 00 00 00 00 08 
   747)      1068.0  Rx         0024  8  02 02 01 FA 62 09 80 16 
   748)      1068.3  Rx         0025  8  0F FB 0F FE 78 78 78 AC 
   749)      1073.6  Rx         00AA  8  1A 6F 1A 6F 1A 6F 1A 6F 
   750)      1079.6  Rx         0020  7  00 00 07 00 00 00 2E 
   751)      1079.8  Rx         00B4  8  00 00 00 00 04 00 00 C0 
   752)      1080.1  Rx         0223  8  00 00 00 00 00 00 00 2D 
   753)      1080.3  Rx         0024  8  02 01 01 FC 62 09 7F 16 
   754)      1080.6  Rx         0025  8  0F FB 0F FE 78 78 78 AC 
   755)      1085.6  Rx         00AA  8  1A 6F 1A 6F 1A 6F 1A 6F 
   756)      1087.1  Rx         0260  8  08 00 09 00 00 FF FA 74 
   757)      1088.6  Rx         01C4  8  03 48 25 08 34 00 3E B7 
   758)      1090.6  Rx         02C1  8  08 02 6F 02 5F D3 00 78 
   759)      1091.7  Rx         0020  7  00 00 07 00 00 00 2E 
   760)      1091.9  Rx         0224  8  00 00 00 00 00 00 00 08 
   761)      1092.3  Rx         0025  8  0F FB 0F FE 78 78 78 AC 
   762)      1092.5  Rx         0024  8  02 02 01 FC 62 07 80 16 
   763)      1097.3  Rx         0351  4  00 00 00 00 
   764)      1097.7  Rx         00AA  8  1A 6F 1A 6F 1A 6F 1A 6F 
   765)      1097.9  Rx         01AA  6  00 00 00 00 00 B1 
   766)      1101.2  Rx         0440  8  42 02 00 00 00 00 00 00 
   767)      1103.7  Rx         0020  7  00 00 07 00 00 00 2E 
   768)      1103.9  Rx         00B4  8  00 00 00 00 04 00 00 C0 
   769)      1104.2  Rx         0223  8  00 00 00 00 00 00 00 2D 
   770)      1104.4  Rx         0025  8  0F FB 0F FE 78 78 78 AC 
   771)      1104.8  Rx         0024  8  02 01 01 FB 62 08 80 15 
   772)      1107.6  Rx         0260  8  08 00 09 00 00 FF FE 78 
   773)      1109.7  Rx         00AA  8  1A 6F 1A 6F 1A 6F 1A 6F 
   774)      1112.1  Rx         01C4  8  03 45 25 08 34 00 3E B4 
   775)      1115.7  Rx         0020  7  00 00 07 00 00 00 2E 
   776)      1116.0  Rx         0224  8  00 00 00 00 00 00 00 08 
   777)      1116.3  Rx         0025  8  0F FB 0F FE 78 78 78 AC 
   778)      1117.0  Rx         0024  8  02 01 01 FB 62 09 7F 15 
   779)      1120.2  Rx         03D3  2  00 EE 
   780)      1121.8  Rx         00AA  8  1A 6F 1A 6F 1A 6F 1A 6F 
   781)      1122.3  Rx         02C1  8  08 02 71 02 5E D3 00 79 
   782)      1127.7  Rx         0260  8  08 00 09 00 00 FF FB 75 
   783)      1127.9  Rx         0020  7  00 00 07 00 00 00 2E 
   784)      1128.2  Rx         00B4  8  00 00 00 00 04 00 00 C0 
   785)      1128.4  Rx         0024  8  02 01 01 FB 62 09 80 16 
   786)      1128.6  Rx         0223  8  00 00 00 00 00 00 00 2D 
   787)      1128.9  Rx         0025  8  0F FB 0F FE 78 78 78 AC 
   788)      1129.1  Rx         0361  8  00 18 00 00 00 00 00 00 
   789)      1133.8  Rx         00AA  8  1A 6F 1A 6F 1A 6F 1A 6F 
   790)      1135.6  Rx         01C4  8  03 47 25 08 34 00 3E B6 
   791)      1139.9  Rx         0020  7  00 00 07 00 00 00 2E 
   792)      1140.1  Rx         0224  8  00 00 00 00 00 00 00 08 
   793)      1140.6  Rx         0024  8  02 01 01 FB 62 08 80 15 
   794)      1140.8  Rx         0025  8  0F FB 0F FE 78 78 78 AC 
   795)      1145.9  Rx         00AA  8  1A 6F 1A 6F 1A 6F 1A 6F 
   796)      1146.1  Rx         01AA  6  00 00 00 00 00 B1 
   797)      1147.9  Rx         0260  8  08 00 09 00 00 FF FD 77 
   798)      1151.9  Rx         0020  7  00 00 07 00 00 00 2E 
   799)      1152.2  Rx         00B4  8  00 00 00 00 04 00 00 C0 
   800)      1152.4  Rx         0223  8  00 00 00 00 00 00 00 2D 
   801)      1152.8  Rx         0025  8  0F FB 0F FE 78 78 78 AC 
   802)      1153.0  Rx         0024  8  02 01 01 FA 62 08 80 14 
   803)      1154.1  Rx         02C1  8  08 02 6F 02 5A D3 00 73 
   804)      1155.8  Rx         03A0  8  11 A2 00 00 00 00 00 2A 
   805)      1156.3  Rx         0620  8  10 00 00 00 30 60 00 50 
   806)      1157.9  Rx         00AA  8  1A 6F 1A 6F 1A 6F 1A 6F 
   807)      1158.1  Rx         0351  4  00 00 00 00 
   808)      1159.2  Rx         01C4  8  03 48 25 08 34 00 3E B7 
   809)      1163.9  Rx         0020  7  00 00 07 00 00 00 2E 
   810)      1164.1  Rx         0224  8  00 00 00 00 00 00 00 08 
   811)      1164.8  Rx         0025  8  0F FB 0F FE 78 78 78 AC 
   812)      1165.2  Rx         0024  8  02 01 01 FC 62 09 80 17 
   813)      1168.3  Rx         0260  8  08 00 09 00 00 00 03 7E 
   814)      1169.9  Rx         00AA  8  1A 6F 1A 6F 1A 6F 1A 6F 
   815)      1175.9  Rx         04DC  8  1D 00 00 00 00 00 00 00 
   816)      1176.1  Rx         0020  7  00 00 07 00 00 00 2E 
   817)      1176.4  Rx         00B4  8  00 00 00 00 04 00 00 C0 
   818)      1176.6  Rx         0024  8  02 01 01 FD 62 07 80 16 
   819)      1176.9  Rx         0223  8  00 00 00 00 00 00 00 2D 
   820)      1177.1  Rx         0025  8  0F FB 0F FE 78 78 78 AC 
   821)      1182.0  Rx         00AA  8  1A 6F 1A 6F 1A 6F 1A 6F 
   822)      1182.7  Rx         01C4  8  03 45 25 08 34 00 3E B4 
   823)      1185.8  Rx         02C1  8  08 02 71 02 59 D3 00 74 
   824)      1188.0  Rx         0020  7  00 00 07 00 00 00 2E 
   825)      1188.3  Rx         0224  8  00 00 00 00 00 00 00 08 
   826)      1188.5  Rx         0260  8  08 00 09 00 00 00 09 84 
   827)      1188.8  Rx         0024  8  02 01 01 FC 62 07 80 15 
   828)      1189.0  Rx         0025  8  0F FB 0F FE 78 78 78 AC 
   829)      1192.1  Rx         0442  8  40 02 00 00 00 00 00 00 
   830)      1193.0  Rx         0361  8  00 18 00 00 00 00 00 00 
   831)      1194.0  Rx         00AA  8  1A 6F 1A 6F 1A 6F 1A 6F 
   832)      1194.2  Rx         01AA  6  00 00 00 00 00 B1 
   833)      1194.5  Rx         03B7  8  00 00 00 00 00 00 00 00 
   834)      1200.0  Rx         0020  7  00 00 07 00 00 00 2E 
   835)      1200.3  Rx         00B4  8  00 00 00 00 04 00 00 C0 
   836)      1200.6  Rx         0223  8  00 00 00 00 00 00 00 2D 
   837)      1200.9  Rx         0025  8  0F FB 0F FE 78 78 78 AC 
   838)      1201.1  Rx         0024  8  02 01 01 FA 62 09 80 15 
   839)      1206.1  Rx         00AA  8  1A 6F 1A 6F 1A 6F 1A 6F 
   840)      1206.3  Rx         01C4  8  03 43 25 08 34 00 3E B2 
   841)      1208.6  Rx         0260  8  08 00 09 00 00 00 01 7C 
   842)      1212.1  Rx         0020  7  00 00 07 00 00 00 2E 
   843)      1212.4  Rx         0224  8  00 00 00 00 00 00 00 08 
   844)      1212.9  Rx         0025  8  0F FB 0F FE 78 78 78 AC 
   845)      1213.3  Rx         0024  8  02 01 01 FB 62 09 80 16 
   846)      1217.5  Rx         02C1  8  08 02 71 02 5B D3 00 76 
   847)      1218.1  Rx         00AA  8  1A 6F 1A 6F 1A 6F 1A 6F 
   848)      1218.6  Rx         0351  4  00 00 00 00 
   849)      1224.2  Rx         0020  7  00 00 07 00 00 00 2E 
   850)      1224.4  Rx         00B4  8  00 00 00 00 04 00 00 C0 
   851)      1224.6  Rx         0024  8  02 01 01 FC 62 07 80 15 
   852)      1224.9  Rx         0223  8  00 00 00 00 00 00 00 2D 
   853)      1225.1  Rx         0025  8  0F FB 0F FE 78 78 78 AC 
   854)      1228.9  Rx         0260  8  08 00 03 00 00 00 00 75 
   855)      1229.8  Rx         01C4  8  03 43 25 08 34 00 3E B2 
   856)      1230.3  Rx         00AA  8  1A 6F 1A 6F 1A 6F 1A 6F 
   857)      1235.8  Rx         03B0  6  00 00 00 4B 00 00 
   858)      1236.4  Rx         0020  7  00 00 07 00 00 00 2E 
   859)      1236.6  Rx         0224  8  00 00 00 00 00 00 00 08 
   860)      1236.9  Rx         0024  8  02 01 01 FC 62 07 7F 14 
   861)      1237.1  Rx         0025  8  0F FB 0F FE 78 78 78 AC 
   862)      1242.4  Rx         00AA  8  1A 6F 1A 6F 1A 6F 1A 6F 
   863)      1242.6  Rx         01AA  6  00 00 00 00 00 B1 
   864)      1248.4  Rx         0020  7  00 00 07 00 00 00 2E 
   865)      1248.7  Rx         00B4  8  00 00 00 00 04 00 00 C0 
   866)      1248.9  Rx         0223  8  00 00 00 00 00 00 00 2D 
   867)      1249.1  Rx         0024  8  02 01 01 FA 62 08 7F 13 
   868)      1249.4  Rx         0025  8  0F FB 0F FE 82 82 82 CA 
   869)      1249.6  Rx         0260  8  08 00 1C 00 00 00 20 AE 
   870)      1249.8  Rx         02C1  8  08 02 70 02 5B D3 00 75 
   871)      1253.3  Rx         01C4  8  03 44 25 08 34 00 3E B3 
   872)      1254.5  Rx         00AA  8  1A 6F 1A 6F 1A 6F 1A 6F 
   873)      1256.0  Rx         03A0  8  11 A2 00 00 00 00 00 2A 
   874)      1257.5  Rx         0361  8  00 18 00 00 00 00 00 00 
   875)      1260.5  Rx         0020  7  00 00 07 00 00 00 2E 
   876)      1260.7  Rx         0224  8  00 00 00 00 00 00 00 08 
   877)      1261.2  Rx         0025  8  0F FB 0F FE 78 78 78 AC 
   878)      1261.4  Rx         0024  8  02 01 01 FC 62 08 80 16 
   879)      1266.5  Rx         00AA  8  1A 6F 1A 6F 1A 6F 1A 6F 
   880)      1266.7  Rx         03B3  3  03 43 28 
   881)      1269.1  Rx         0260  8  08 00 7D 00 00 00 F2 E1 
   882)      1272.5  Rx         0020  7  00 00 07 00 00 00 2E 
   883)      1272.8  Rx         00B4  8  00 00 00 00 04 00 00 C0 
   884)      1273.0  Rx         0223  8  00 00 00 00 00 00 00 2D 
   885)      1273.2  Rx         0025  8  0F FB 0F FE 78 78 78 AC 
   886)      1273.7  Rx         0024  8  02 01 01 FD 62 07 7F 15 
   887)      1274.9  Rx         0399  7  00 00 00 00 00 00 00 
   888)      1275.9  Rx         0380  8  00 00 00 00 00 00 2B 00 
   889)      1276.9  Rx         01C4  8  03 47 25 08 34 00 3E B6 
   890)      1278.5  Rx         00AA  8  1A 6F 1A 6F 1A 6F 1A 6F 
   891)      1279.0  Rx         03F9  8  57 38 03 01 00 00 00 97 
   892)      1279.5  Rx         0351  4  00 00 00 00 
   893)      1281.0  Rx         02C1  8  08 02 70 02 5D D3 00 77 
   894)      1284.5  Rx         0020  7  00 00 07 00 00 00 2E 
   895)      1284.8  Rx         0224  8  00 00 00 00 00 00 00 08 
   896)      1285.1  Rx         0024  8  02 01 01 FB 62 07 80 14 
   897)      1285.3  Rx         0025  8  0F FB 0F FE 78 78 78 AC 
   898)      1286.1  Rx         03BC  8  00 00 00 00 00 00 00 00 
   899)      1289.6  Rx         0260  8  08 00 76 00 00 00 F5 DD 
   900)      1290.6  Rx         00AA  8  1A 6F 1A 6F 1A 6F 1A 6F 
   901)      1290.8  Rx         01AA  6  00 00 00 00 00 B1 
   902)      1291.3  Rx         0440  8  42 02 00 00 00 00 00 00 
   903)      1296.6  Rx         0020  7  00 00 07 00 00 00 2E 
   904)      1296.8  Rx         00B4  8  00 00 00 00 04 00 00 C0 
   905)      1297.1  Rx         0223  8  00 00 00 00 00 00 00 2D 
   906)      1297.3  Rx         0024  8  02 02 01 FB 62 08 80 16 
   907)      1297.5  Rx         0025  8  0F FB 0F FE 78 78 78 AC 
   908)      1300.5  Rx         01C4  8  03 49 25 08 34 00 3E B8 
   909)      1301.4  Rx         0621  8  11 00 00 00 00 00 00 00 
   910)      1302.6  Rx         00AA  8  1A 6F 1A 6F 1A 6F 1A 6F 
   911)      1308.6  Rx         0020  7  00 00 07 00 00 00 2E 
   912)      1308.9  Rx         0224  8  00 00 00 00 00 00 00 08 
   913)      1309.2  Rx         0025  8  0F FB 0F FE 78 78 78 AC 
   914)      1309.6  Rx         0024  8  02 01 01 FC 62 08 80 16 
   915)      1309.8  Rx         0260  8  08 00 8E 00 00 01 51 52 
   916)      1310.2  Rx         0622  8  12 00 00 00 00 00 00 00 
   917)      1312.8  Rx         02C1  8  08 02 6F 02 5B D3 00 74 
   918)      1314.6  Rx         00AA  8  1A 6F 1A 6F 1A 6F 1A 6F 
   919)      1320.7  Rx         0020  7  00 00 07 00 00 00 2E 
   920)      1320.9  Rx         00B4  8  00 00 00 00 04 00 00 C0 
   921)      1321.2  Rx         0223  8  00 00 00 00 00 00 00 2D 
   922)      1321.4  Rx         0624  8  1A 00 41 49 49 40 00 00 
   923)      1321.8  Rx         0025  8  0F FC 0F FE 78 78 78 AD 
   924)      1322.0  Rx         0024  8  02 01 01 FB 62 06 81 14 
   925)      1322.2  Rx         0361  8  00 18 00 00 00 00 00 00 
   926)      1324.0  Rx         01C4  8  03 4C 25 08 34 00 3E BB 
   927)      1326.7  Rx         00AA  8  1A 6F 1A 6F 1A 6F 1A 6F 
   928)      1330.0  Rx         0260  8  08 00 A0 00 00 01 C5 D8 
   929)      1331.5  Rx         0638  8  13 00 19 00 00 00 00 00 
   930)      1332.7  Rx         0020  7  00 00 07 00 00 00 2E 
   931)      1332.9  Rx         0224  8  00 00 00 00 00 00 00 08 
   932)      1333.2  Rx         0024  8  02 01 01 FA 62 07 80 13 
   933)      1333.8  Rx         0025  8  0F FC 0F FE 78 78 78 AD 
   934)      1338.7  Rx         00AA  8  1A 6F 1A 6F 1A 6F 1A 6F 
   935)      1338.9  Rx         01AA  6  00 00 00 00 00 B1 
   936)      1340.0  Rx         0351  4  00 00 00 00 
   937)      1341.4  Rx         063B  8  16 00 59 CE 00 00 04 1F 
   938)      1344.5  Rx         02C1  8  08 02 6F 02 5C D3 00 75 
   939)      1344.8  Rx         0020  7  00 00 07 00 00 00 2E 
   940)      1345.0  Rx         00B4  8  00 00 00 00 04 00 00 C0 
   941)      1345.2  Rx         0223  8  00 00 00 00 00 00 00 2D 
   942)      1345.5  Rx         0024  8  02 01 01 FB 62 09 80 16 
   943)      1345.8  Rx         0025  8  0F FD 0F FE 32 32 78 22 
   944)      1347.5  Rx         01C4  8  03 4E 25 08 34 00 3E BD 
   945)      1350.4  Rx         0260  8  08 00 BF 00 00 02 AB DE 
   946)      1350.8  Rx         00AA  8  1A 6F 1A 6F 1A 6F 1A 6F 
   947)      1351.5  Rx         0680  8  D8 00 01 00 00 00 00 00 
   948)      1356.0  Rx         03A0  8  11 A2 00 00 00 00 00 2A 
   949)      1356.8  Rx         0020  7  00 00 07 00 00 00 2E 
   950)      1357.1  Rx         0224  8  00 00 00 00 00 00 00 08 
   951)      1357.7  Rx         0024  8  02 01 01 FC 62 07 80 15 
   952)      1357.9  Rx         0025  8  0F FE 0F FE 3C 3C 78 37 
   953)      1362.9  Rx         00AA  8  1A 6F 1A 6F 1A 6F 1A 6F 
   954)      1365.2  Rx         0394  1  00 
   955)      1368.9  Rx         0020  7  00 00 07 00 00 00 2E 
   956)      1369.1  Rx         00B4  8  00 00 00 00 04 00 00 C0 
   957)      1369.4  Rx         0223  8  00 00 00 00 00 00 00 2D 
   958)      1369.7  Rx         0025  8  0F FF 0F FE 28 28 78 10 
   959)      1370.0  Rx         0024  8  02 01 01 FB 62 07 80 14 
   960)      1370.5  Rx         0260  8  08 00 E4 00 00 03 3E 97 
   961)      1371.1  Rx         01C4  8  03 4B 25 08 34 00 3E BA 
   962)      1374.9  Rx         00AA  8  1A 6F 1A 6F 1A 6F 1A 6F 
   963)      1376.2  Rx         02C1  8  08 02 70 02 5B D3 00 75 
   964)      1380.9  Rx         0020  7  00 00 07 00 00 00 2E 
   965)      1381.2  Rx         0224  8  00 00 00 00 00 00 00 08 
   966)      1381.4  Rx         0024  8  02 01 01 FB 62 08 80 15 
   967)      1381.7  Rx         0025  8  00 01 0F FE 14 6E 78 35 
   968)      1382.0  Rx         0442  8  40 02 00 00 00 00 00 00 
   969)      1386.5  Rx         0361  8  00 18 00 00 00 00 00 00 
   970)      1386.9  Rx         00AA  8  1A 6F 1A 6F 1A 6F 1A 6F 
   971)      1387.2  Rx         01AA  6  00 00 00 00 00 B1 
   972)      1390.7  Rx         0260  8  08 01 07 00 00 04 71 EF 
   973)      1393.0  Rx         0020  7  00 00 07 00 00 00 2E 
   974)      1393.2  Rx         00B4  8  00 00 00 00 04 00 00 C0 
   975)      1393.5  Rx         0223  8  00 00 00 00 00 00 00 2D 
   976)      1393.7  Rx         0024  8  02 01 01 FA 62 09 80 15 
   977)      1393.9  Rx         0025  8  00 02 0F FE 46 46 78 40 
   978)      1394.6  Rx         01C4  8  03 47 25 08 34 00 3E B6 
   979)      1399.0  Rx         00AA  8  1A 6F 1A 6F 1A 6F 1A 6F 
   980)      1399.3  Rx         04C3  8  03 00 13 07 00 00 00 00 
   981)      1400.7  Rx         0351  4  00 00 00 00 
   982)      1405.0  Rx         0020  7  00 00 07 00 00 00 2E 
   983)      1405.3  Rx         0224  8  00 00 00 00 00 00 00 08 
   984)      1405.8  Rx         0024  8  02 01 01 FB 62 08 80 15 
   985)      1406.1  Rx         0025  8  00 04 0F FE 1E 64 78 38 
   986)      1407.9  Rx         02C1  8  08 02 71 02 59 D3 00 74 
   987)      1411.0  Rx         0260  8  08 01 16 00 00 05 4A D8 
   988)      1411.2  Rx         00AA  8  1A 6F 1A 6F 1A 6F 1A 6F 
   989)      1417.1  Rx         0020  7  00 00 07 00 00 00 2E 
   990)      1417.3  Rx         00B4  8  00 00 00 00 04 00 00 C0 
   991)      1417.6  Rx         0223  8  00 00 00 00 00 00 00 2D 
   992)      1417.8  Rx         038A  5  08 00 00 00 00 
   993)      1418.0  Rx         0025  8  00 06 0F FE 32 78 78 62 
   994)      1418.3  Rx         0024  8  02 02 01 FA 62 07 80 14 
   995)      1418.5  Rx         01C4  8  03 42 25 08 34 00 3E B1 
   996)      1423.1  Rx         00AA  8  1A 6F 1A 6F 1A 6F 1A 6F 
   997)      1429.2  Rx         0020  7  00 00 07 00 00 00 2E 
   998)      1429.4  Rx         0224  8  00 00 00 00 00 00 00 08 
   999)      1429.8  Rx         0025  8  00 07 0F FE 46 46 78 45 
  1000)      1430.4  Rx         0024  8  02 02 01 FA 62 09 80 16 
  1001)      1431.2  Rx         0260  8  08 01 19 00 00 06 22 B4 
  1002)      1435.2  Rx         00AA  8  1A 6F 1A 6F 1A 6F 1A 6F 
  1003)      1435.4  Rx         01AA  6  00 00 00 00 00 B1 
  1004)      1439.7  Rx         02C1  8  08 02 72 02 59 D3 00 75 
  1005)      1441.2  Rx         0020  7  00 00 07 00 00 00 2E 
  1006)      1441.4  Rx         00B4  8  00 00 00 00 04 00 00 C0 
  1007)      1441.7  Rx         0223  8  00 00 00 00 00 00 00 2D 
  1008)      1441.9  Rx         0024  8  02 02 01 FB 62 08 80 16 
  1009)      1442.1  Rx         0025  8  00 09 0F FE 0A 50 78 15 
  1010)      1442.4  Rx         01C4  8  03 3F 25 08 34 00 3E AE 
  1011)      1447.2  Rx         00AA  8  1A 6F 1A 6F 1A 6F 1A 6F 
  1012)      1451.0  Rx         0361  8  00 18 00 00 00 00 00 00 
  1013)      1451.3  Rx         0260  8  08 01 36 00 00 07 AA 5A 
  1014)      1453.4  Rx         0020  7  00 00 07 00 00 00 2E 
  1015)      1453.6  Rx         0224  8  00 00 00 00 00 00 00 08 
  1016)      1453.9  Rx         0024  8  02 02 01 FC 62 06 80 15 
  1017)      1454.2  Rx         0025  8  00 0B 0F FE 14 50 82 2B 
  1018)      1456.1  Rx         03A0  8  11 A2 00 00 00 00 00 2B 
  1019)      1456.5  Rx         0620  8  10 00 00 00 30 60 00 50 
  1020)      1459.4  Rx         00AA  8  1A 6F 1A 6F 1A 6F 1A 6F 
  1021)      1461.3  Rx         0351  4  00 00 00 00 
  1022)      1462.1  Rx         0610  8  20 00 00 57 00 00 00 00 
  1023)      1465.3  Rx         01C4  8  03 3D 25 08 34 00 3E AC 
  1024)      1465.5  Rx         0020  7  00 00 07 00 00 00 2E 
  1025)      1465.7  Rx         00B4  8  00 00 00 00 04 00 00 C0 
  1026)      1466.0  Rx         0223  8  00 00 00 00 00 00 00 2D 
  1027)      1466.2  Rx         0025  8  00 0E 0F FE 0A 78 78 42 
  1028)      1466.5  Rx         0024  8  02 02 01 FB 62 07 80 15 
  1029)      1471.4  Rx         02C1  8  08 02 73 02 5B D3 00 78 
  1030)      1471.6  Rx         00AA  8  1A 6F 1A 6F 1A 6F 1A 6F 
  1031)      1471.9  Rx         0260  8  09 01 45 00 00 08 BF 80 
  1032)      1477.5  Rx         0020  7  00 00 07 00 00 00 2E 
  1033)      1477.7  Rx         0224  8  00 00 00 00 00 00 00 08 
  1034)      1478.1  Rx         0025  8  00 10 0F FE 3C 78 78 76 
  1035)      1478.5  Rx         0024  8  02 02 01 FA 62 09 80 16 
  1036)      1481.3  Rx         0440  8  42 02 00 00 00 00 00 00 
  1037)      1483.5  Rx         00AA  8  1A 6F 1A 6F 1A 6F 1A 6F 
  1038)      1483.7  Rx         01AA  6  00 00 00 00 00 B1 
  1039)      1488.8  Rx         01C4  8  03 3A 25 08 34 00 3E A9 
  1040)      1489.5  Rx         0020  7  00 00 07 00 00 00 2E 
  1041)      1489.8  Rx         00B4  8  00 00 00 00 04 00 00 C0 
  1042)      1490.0  Rx         0024  8  02 02 01 FA 62 08 80 15 
  1043)      1490.2  Rx         0025  8  00 12 0F FE 32 64 78 5A 
  1044)      1490.5  Rx         0223  8  00 00 00 00 00 00 00 2D 
  1045)      1491.9  Rx         0260  8  09 01 4B 00 00 09 DB A3 
  1046)      1495.6  Rx         00AA  8  1A 6F 1A 6F 1A 6F 1A 6F 
  1047)      1495.8  Rx         03B7  8  00 00 00 00 00 00 00 00 
  1048)      1501.6  Rx         0020  7  00 00 07 00 00 00 2E 
  1049)      1501.8  Rx         0224  8  00 00 00 00 00 00 00 08 
  1050)      1502.1  Rx         0611  8  21 00 00 00 00 02 69 27 
  1051)      1502.3  Rx         0024  8  02 02 01 FC 62 07 80 16 
  1052)      1502.5  Rx         0025  8  00 14 0F FE 28 5A 78 48 
  1053)      1503.2  Rx         02C1  8  08 02 65 02 4C D3 00 5B 
  1054)      1507.6  Rx         00AA  8  1A 6F 1A 6F 1A 6F 1A 6F 
  1055)      1507.9  Rx         0420  8  00 00 00 00 FC FB 00 23 
  1056)      1512.1  Rx         0260  8  09 01 2C 00 00 0A 80 2A 
  1057)      1512.4  Rx         01C4  8  03 37 25 08 34 00 3E A6 
  1058)      1513.6  Rx         0020  7  00 00 07 00 00 00 2E 
  1059)      1513.8  Rx         00B4  8  00 00 00 00 04 00 00 C0 
  1060)      1514.1  Rx         0223  8  00 00 00 00 00 00 00 2D 
  1061)      1514.4  Rx         0024  8  02 02 01 FC 62 07 80 16 
  1062)      1514.7  Rx         0025  8  00 16 0F FE 1E 50 78 36 
  1063)      1515.5  Rx         0361  8  00 19 00 00 00 00 00 00 
  1064)      1519.6  Rx         00AA  8  1A 6F 1A 6F 1A 6F 1A 6F 
  1065)      1521.5  Rx         03BB  4  00 00 B1 00 
  1066)      1522.0  Rx         0351  4  00 00 00 00 
  1067)      1525.7  Rx         0020  7  00 00 07 00 00 00 2E 
  1068)      1525.9  Rx         0224  8  00 00 00 00 00 00 00 08 
  1069)      1526.7  Rx         0024  8  02 02 01 FB 62 08 80 16 
  1070)      1526.9  Rx         0025  8  00 19 0F FE 0A 6E 78 43 
  1071)      1528.7  Rx         03F9  8  57 38 03 01 00 00 00 97 
  1072)      1531.7  Rx         00AA  8  1A 6F 1A 6F 1A 6F 1A 6F 
  1073)      1531.9  Rx         01AA  6  00 00 00 00 00 B1 
  1074)      1532.4  Rx         0260  8  09 01 49 00 00 0B 4E 16 
  1075)      1534.9  Rx         02C1  8  08 03 C1 02 46 DE 00 BD 
  1076)      1535.9  Rx         01C4  8  03 34 25 08 34 00 3E A3 
  1077)      1537.7  Rx         0020  7  00 00 07 00 00 00 2E 
  1078)      1537.9  Rx         00B4  8  00 00 00 00 04 00 00 C0 
  1079)      1538.2  Rx         0223  8  00 00 00 00 00 00 00 2D 
  1080)      1538.7  Rx         0025  8  00 1B 0F FE 1E 50 78 3B 
  1081)      1539.0  Rx         0024  8  02 02 01 FC 62 07 80 16 
  1082)      1543.7  Rx         00AA  8  1A 6F 1A 6F 1A 6F 1A 6F 
  1083)      1549.8  Rx         0020  7  00 00 07 00 00 00 2E 
  1084)      1550.0  Rx         0224  8  00 00 00 00 00 00 00 08 
  1085)      1550.2  Rx         0024  8  02 02 01 FC 62 07 80 16 
  1086)      1550.7  Rx         0025  8  00 1E 0F FE 0A 64 78 3E 
  1087)      1552.5  Rx         0260  8  09 01 58 00 00 0C 3D 15 
  1088)      1555.8  Rx         00AA  8  1A 6F 1A 6F 1A 6F 1A 6F 
  1089)      1556.3  Rx         03A0  8  11 A2 00 00 00 00 00 2B 
  1090)      1559.5  Rx         01C4  8  03 32 25 08 34 00 3E A1 
  1091)      1561.8  Rx         0020  7  00 00 07 00 00 00 2E 
  1092)      1562.1  Rx         00B4  8  00 00 00 00 04 00 00 C0 
  1093)      1562.3  Rx         0223  8  00 00 00 00 00 00 00 2D 
  1094)      1562.5  Rx         0024  8  02 02 01 FB 62 08 80 16 
  1095)      1562.8  Rx         0025  8  00 20 0F FE 1E 50 78 40 
  1096)      1566.6  Rx         02C1  8  08 03 BC 02 45 DD 00 B6 
  1097)      1567.8  Rx         00AA  8  1A 6F 1A 6F 1A 6F 1A 6F 
  1098)      1570.7  Rx         04C7  8  08 00 01 21 00 00 00 00 
  1099)      1571.9  Rx         0442  8  40 02 00 00 00 00 00 00 
  1100)      1572.7  Rx         0260  8  09 01 48 00 00 0C 55 1D 
  1101)      1573.8  Rx         0020  7  00 00 07 00 00 00 2E 
  1102)      1574.1  Rx         0224  8  00 00 00 00 00 00 00 08 
  1103)      1574.7  Rx         0025  8  00 23 0F FE 0A 64 78 43 
  1104)      1574.9  Rx         0024  8  02 02 01 FB 62 0A 80 18 
  1105)      1579.9  Rx         00AA  8  1A 6F 1A 6F 1A 6F 1A 6F 
  1106)      1580.1  Rx         01AA  6  00 00 00 00 00 B1 
  1107)      1580.3  Rx         0361  8  00 1A 00 00 00 00 00 00 
  1108)      1582.7  Rx         0351  4  00 00 00 00 
  1109)      1583.0  Rx         01C4  8  03 31 25 08 34 00 3E A0 
  1110)      1585.9  Rx         0020  7  00 00 07 00 00 00 2E 
  1111)      1586.1  Rx         00B4  8  00 00 00 00 04 00 00 C0 
  1112)      1586.4  Rx         0223  8  00 00 00 00 00 00 00 2D 
  1113)      1586.7  Rx         0025  8  00 26 0F FE 14 78 78 64 
  1114)      1587.1  Rx         0024  8  02 02 01 FC 62 07 80 16 
  1115)      1591.9  Rx         00AA  8  1A 6F 1A 6F 1A 6F 1A 6F 
  1116)      1592.7  Rx         0260  8  09 01 44 00 00 0C CC 90 
  1117)      1595.0  Rx         04C6  8  07 00 02 00 00 00 00 00 
  1118)      1598.0  Rx         0020  7  00 00 07 00 00 00 2E 
  1119)      1598.2  Rx         0224  8  00 00 00 00 00 00 00 08 
  1120)      1598.5  Rx         0024  8  02 02 01 FC 62 07 80 16 
  1121)      1598.7  Rx         02C1  8  08 03 BC 02 4E DD 00 BF 
  1122)      1598.9  Rx         0025  8  00 28 0F FE 28 50 78 52 
  1123)      1604.0  Rx         00AA  8  1A 6F 1A 6F 1A 6F 1A 6F 
  1124)      1606.5  Rx         01C4  8  03 34 25 08 34 00 3E A3 
  1125)      1610.0  Rx         0020  7  00 00 07 00 00 00 2E 
  1126)      1610.2  Rx         00B4  8  00 00 00 00 04 00 00 C0 
  1127)      1610.5  Rx         0223  8  00 00 00 00 00 00 00 2D 
  1128)      1610.7  Rx         0024  8  02 02 01 FA 62 09 80 16 
  1129)      1610.9  Rx         0025  8  00 2B 0F FE 0A 64 78 4B 
  1130)      1613.3  Rx         0260  8  09 01 46 00 00 0C F7 BD 
  1131)      1616.0  Rx         00AA  8  1A 6F 1A 6F 1A 6F 1A 6F 
  1132)      1618.8  Rx         04C1  8  01 00 00 01 00 00 00 00 
  1133)      1622.0  Rx         0020  7  00 00 07 00 00 00 2E 
  1134)      1622.2  Rx         0224  8  00 00 00 00 00 00 00 08 
  1135)      1622.8  Rx         0025  8  00 2E 0F FE 14 78 78 6C 
  1136)      1623.1  Rx         0024  8  02 02 01 FB 62 0A 80 18 
  1137)      1628.0  Rx         00AA  8  1A 6F 1A 6F 1A 6F 1A 6F 
  1138)      1628.3  Rx         01AA  6  00 00 00 00 00 B1 
  1139)      1630.1  Rx         01C4  8  03 34 25 08 34 00 3E A3 
  1140)      1630.3  Rx         02C1  8  08 03 B2 02 53 DD 00 BA 
  1141)      1633.5  Rx         0260  8  09 01 31 00 00 0C CE 7F 
  1142)      1634.1  Rx         0020  7  00 00 07 00 00 00 2E 
  1143)      1634.3  Rx         00B4  8  00 00 00 00 04 00 00 C0 
  1144)      1634.6  Rx         0223  8  00 00 00 00 00 00 00 2D 
  1145)      1634.8  Rx         0025  8  00 30 0F FE 28 50 78 5A 
  1146)      1635.2  Rx         0024  8  02 02 01 FE 62 07 80 18 
  1147)      1640.1  Rx         00AA  8  1A 6F 1A 6F 1A 6F 1A 6F 
  1148)      1643.4  Rx         0351  4  00 00 00 00 
  1149)      1644.4  Rx         0361  8  00 1A 00 00 00 00 00 00 
  1150)      1644.6  Rx         03D3  2  00 DE 
  1151)      1646.1  Rx         0020  7  00 00 07 00 00 00 2E 
  1152)      1646.4  Rx         0224  8  00 00 00 00 00 00 00 08 
  1153)      1646.6  Rx         0024  8  02 02 01 FE 62 07 80 18 
  1154)      1646.9  Rx         0025  8  00 33 0F FE 0A 64 78 53 
  1155)      1652.2  Rx         00AA  8  1A 6F 1A 6F 1A 6F 1A 6F 
  1156)      1653.6  Rx         0260  8  09 01 27 00 00 0C 84 2B 
  1157)      1653.8  Rx         01C4  8  03 34 25 08 34 00 3E A3 
  1158)      1656.4  Rx         03A0  8  11 A2 00 00 00 00 00 2A 
  1159)      1658.2  Rx         0020  7  00 00 07 00 00 00 2E 
  1160)      1658.4  Rx         00B4  8  00 00 00 00 04 00 00 C0 
  1161)      1658.6  Rx         0223  8  00 00 00 00 00 00 00 2D 
  1162)      1658.9  Rx         0024  8  02 02 01 FB 62 09 80 17 
  1163)      1659.2  Rx         0025  8  00 36 0F FE 14 6E 78 6A 
  1164)      1661.8  Rx         02C1  8  08 03 AC 02 58 DD 00 B9 
  1165)      1664.2  Rx         00AA  8  1A 6F 1A 6F 1A 6F 1A 6F 
  1166)      1668.5  Rx         0394  1  00 
  1167)      1670.3  Rx         0020  7  00 00 07 00 00 00 2E 
  1168)      1670.5  Rx         0224  8  00 00 00 00 00 00 00 08 
  1169)      1670.8  Rx         0025  8  00 38 0F FE 28 5A 78 6C 
  1170)      1671.1  Rx         0024  8  02 02 01 FA 62 0A 80 17 
  1171)      1671.4  Rx         0440  8  42 02 00 00 00 00 00 00 
  1172)      1673.9  Rx         0260  8  09 01 30 00 00 0C A9 59 
  1173)      1676.4  Rx         00AA  8  1A 6F 1A 6F 1A 6F 1A 6F 
  1174)      1676.7  Rx         01AA  6  00 00 00 00 00 B1 
  1175)      1677.2  Rx         01C4  8  03 32 25 08 34 00 3E A1 
  1176)      1682.4  Rx         0020  7  00 00 07 00 00 00 2E 
  1177)      1682.7  Rx         00B4  8  00 00 00 00 04 00 00 C0 
  1178)      1682.9  Rx         0223  8  00 00 00 00 00 00 00 2D 
  1179)      1683.2  Rx         0025  8  00 3B 0F FE 0A 6E 82 6F 
  1180)      1683.4  Rx         0024  8  02 02 01 FC 62 08 80 17 
  1181)      1688.5  Rx         00AA  8  1A 6F 1A 6F 1A 6F 1A 6F 
  1182)      1693.6  Rx         02C1  8  08 03 87 02 66 DC 00 A1 
  1183)      1694.0  Rx         0260  8  09 01 32 00 00 0C 7C 2E 
  1184)      1694.5  Rx         0020  7  00 00 07 00 00 00 2E 
  1185)      1694.8  Rx         0224  8  00 00 00 00 00 00 00 08 
  1186)      1695.1  Rx         0025  8  00 3E 0F FE 14 78 78 7C 
  1187)      1695.7  Rx         0024  8  02 02 01 FC 62 07 80 16 
  1188)      1700.5  Rx         00AA  8  1A 6F 1A 6F 1A 6F 1A 6F 
  1189)      1700.8  Rx         01C4  8  03 31 25 08 34 00 3E A0 
  1190)      1704.1  Rx         0351  4  00 00 00 00 
  1191)      1706.5  Rx         0020  7  00 00 07 00 00 00 2E 
  1192)      1706.8  Rx         00B4  8  00 00 00 00 04 00 00 C0 
  1193)      1707.0  Rx         0024  8  02 02 01 FC 62 08 80 17 
  1194)      1707.3  Rx         0025  8  00 40 0F FE 28 5A 78 74 
  1195)      1707.5  Rx         0223  8  00 00 00 00 00 00 00 2D 
  1196)      1708.9  Rx         0361  8  00 1A 00 00 00 00 00 00 
  1197)      1712.6  Rx         00AA  8  1A 6F 1A 6F 1A 6F 1A 6F 
  1198)      1714.2  Rx         0260  8  09 01 36 00 00 0C D7 8D 
  1199)      1718.6  Rx         0020  7  00 00 07 00 00 00 2E 
  1200)      1718.9  Rx         0224  8  00 00 00 00 00 00 00 08 
  1201)      1719.2  Rx         0024  8  02 02 01 FC 62 09 80 18 
  1202)      1719.6  Rx         0025  8  00 43 0F FE 14 78 78 81 
  1203)      1724.3  Rx         01C4  8  03 31 25 08 34 00 3E A0 
  1204)      1724.7  Rx         00AA  8  1A 6F 1A 6F 1A 6F 1A 6F 
  1205)      1724.9  Rx         01AA  6  00 00 00 00 00 B1 
  1206)      1725.3  Rx         02C1  8  08 03 7F 02 6C DB 00 9E 
  1207)      1730.7  Rx         0020  7  00 00 07 00 00 00 2E 
  1208)      1730.9  Rx         00B4  8  00 00 00 00 04 00 00 C0 
  1209)      1731.2  Rx         0223  8  00 00 00 00 00 00 00 2D 
  1210)      1731.5  Rx         0024  8  02 02 01 FC 62 06 80 15 
  1211)      1731.7  Rx         0025  8  00 45 0F FE 28 5A 78 79 
  1212)      1734.6  Rx         0260  8  09 01 3D 00 00 0C A5 62 
  1213)      1736.7  Rx         00AA  8  1A 6F 1A 6F 1A 6F 1A 6F 
  1214)      1742.7  Rx         0020  7  00 00 07 00 00 00 2E 
  1215)      1742.9  Rx         0224  8  00 00 00 00 00 00 00 08 
  1216)      1743.6  Rx         0025  8  00 48 0F FE 14 78 78 86 
  1217)      1743.9  Rx         0024  8  02 02 01 FB 62 07 80 15 
  1218)      1747.8  Rx         01C4  8  03 35 25 08 34 00 3E A4 
  1219)      1748.7  Rx         00AA  8  1A 6F 1A 6F 1A 6F 1A 6F 
  1220)      1754.5  Rx         0260  8  09 01 3C 00 00 0C E8 A4 
  1221)      1754.8  Rx         0020  7  00 00 07 00 00 00 2E 
  1222)      1755.0  Rx         00B4  8  00 00 00 00 04 00 00 C0 
  1223)      1755.2  Rx         0024  8  02 02 01 FA 62 09 80 16 
  1224)      1755.5  Rx         0223  8  00 00 00 00 00 00 00 2D 
  1225)      1755.7  Rx         0025  8  00 4A 0F FE 32 64 78 92 
  1226)      1756.5  Rx         03A0  8  11 A2 00 00 00 00 00 2A 
  1227)      1756.8  Rx         0620  8  10 00 00 00 30 60 00 50 
  1228)      1757.1  Rx         02C1  8  08 03 4F 02 73 DA 00 74 
  1229)      1760.8  Rx         00AA  8  1A 6F 1A 6F 1A 6F 1A 6F 
  1230)      1761.8  Rx         0442  8  40 02 00 00 00 00 00 00 
  1231)      1764.8  Rx         0351  4  00 00 00 00 
  1232)      1766.8  Rx         0020  7  00 00 07 00 00 00 2E 
  1233)      1767.0  Rx         0224  8  00 00 00 00 00 00 00 08 
  1234)      1767.3  Rx         0024  8  02 02 01 FB 62 08 80 16 
  1235)      1767.6  Rx         0025  8  00 4D 0F FE 1E 78 78 95 
  1236)      1771.4  Rx         01C4  8  03 37 25 08 34 00 3E A6 
  1237)      1772.8  Rx         00AA  8  1A 6F 1A 6F 1A 6F 1A 6F 
  1238)      1773.1  Rx         01AA  6  00 00 00 00 00 B1 
  1239)      1773.3  Rx         0640  8  A8 00 00 00 01 7A 00 00 
  1240)      1773.5  Rx         0361  8  00 1B 00 00 00 00 00 00 
  1241)      1775.1  Rx         0260  8  09 01 45 00 00 0D 17 DD 
  1242)      1778.5  Rx         03B3  3  03 35 28 
  1243)      1778.7  Rx         03F9  8  57 38 03 01 00 00 00 97 
  1244)      1778.9  Rx         0020  7  00 00 07 00 00 00 2E 
  1245)      1779.2  Rx         00B4  8  00 00 00 00 04 00 00 C0 
  1246)      1779.4  Rx         0223  8  00 00 00 00 00 00 00 2D 
  1247)      1779.7  Rx         0024  8  02 02 01 FE 62 05 80 16 
  1248)      1779.9  Rx         0025  8  00 4F 0F FE 32 64 78 97 
  1249)      1784.9  Rx         00AA  8  1A 6F 1A 6F 1A 6F 1A 6F 
  1250)      1788.8  Rx         02C1  8  08 03 1A 02 77 D8 00 41 
  1251)      1790.9  Rx         0020  7  00 00 07 00 00 00 2E 
  1252)      1791.2  Rx         0224  8  00 00 00 00 00 00 00 08 
  1253)      1791.7  Rx         0025  8  00 52 0F FE 14 78 78 90 
  1254)      1791.9  Rx         0024  8  02 02 01 FB 62 06 80 14 
  1255)      1794.9  Rx         01C4  8  03 39 25 08 34 00 3E A8 
  1256)      1795.3  Rx         0260  8  09 01 3A 00 00 0D 59 14 
  1257)      1796.9  Rx         00AA  8  1A 6F 1A 6F 1A 6F 1A 6F 
  1258)      1797.1  Rx         03B7  8  00 00 00 00 00 00 00 00 
  1259)      1802.9  Rx         0020  7  00 00 07 00 00 00 2E 
  1260)      1803.2  Rx         00B4  8  00 00 00 00 04 00 00 C0 
  1261)      1803.4  Rx         0024  8  02 02 01 F9 62 09 80 15 
  1262)      1803.7  Rx         0223  8  00 00 00 00 00 00 00 2D 
  1263)      1803.9  Rx         0025  8  00 54 0F FE 32 64 78 9C 
  1264)      1809.0  Rx         00AA  8  1A 6F 1A 6F 1A 6F 1A 6F 
  1265)      1815.0  Rx         0020  7  00 00 07 00 00 00 2E 
  1266)      1815.2  Rx         0224  8  00 00 00 00 00 00 00 08 
  1267)      1815.5  Rx         0260  8  09 01 42 00 00 0D 3A FD 
  1268)      1815.7  Rx         0024  8  02 02 01 FA 62 09 80 16 
  1269)      1816.0  Rx         0025  8  00 56 0F FE 1E 50 78 76 
  1270)      1818.5  Rx         01C4  8  03 39 25 08 34 00 3E A8 
  1271)      1820.5  Rx         02C1  8  08 03 17 02 81 D8 00 48 
  1272)      1821.0  Rx         00AA  8  1A 6F 1A 6F 1A 6F 1A 6F 
  1273)      1821.2  Rx         01AA  6  00 00 00 00 00 B1 
  1274)      1825.6  Rx         0351  4  00 00 00 00 
  1275)      1827.0  Rx         0020  7  00 00 07 00 00 00 2E 
  1276)      1827.3  Rx         00B4  8  00 00 00 00 04 00 00 C0 
  1277)      1827.5  Rx         0223  8  00 00 00 00 00 00 00 2D 
  1278)      1827.8  Rx         0025  8  00 59 0F FE 0A 64 78 79 
  1279)      1828.0  Rx         0024  8  02 02 01 FD 62 06 80 16 
  1280)      1833.1  Rx         00AA  8  1A 6F 1A 6F 1A 6F 1A 6F 
  1281)      1835.6  Rx         0260  8  09 01 43 00 00 0D 6B 2F 
  1282)      1837.9  Rx         0361  8  00 1B 00 00 00 00 00 00 
  1283)      1839.1  Rx         0020  7  00 00 07 00 00 00 2E 
  1284)      1839.3  Rx         0224  8  00 00 00 00 00 00 00 08 
  1285)      1839.8  Rx         0025  8  00 5B 0F FE 1E 50 78 7B 
  1286)      1840.1  Rx         0024  8  02 02 01 FC 62 06 80 15 
  1287)      1841.7  Rx         063B  8  16 00 59 CE 00 00 04 24 
  1288)      1842.0  Rx         01C4  8  03 3A 25 08 34 00 3E A9 
  1289)      1844.9  Rx         0423  1  00 
  1290)      1845.1  Rx         00AA  8  1A 6F 1A 6F 1A 6F 1A 6F 
  1291)      1851.1  Rx         0020  7  00 00 07 00 00 00 2E 
  1292)      1851.4  Rx         00B4  8  00 00 00 00 04 00 00 C0 
  1293)      1851.6  Rx         0223  8  00 00 00 00 00 00 00 2D 
  1294)      1851.9  Rx         0025  8  00 5E 0F FE 0A 6E 78 88 
  1295)      1852.2  Rx         02C1  8  08 03 0E 02 7E D8 00 3C 
  1296)      1852.5  Rx         0024  8  02 02 01 FA 62 09 80 16 
  1297)      1856.0  Rx         0260  8  09 01 46 00 00 0E 08 D0 
  1298)      1856.6  Rx         03A0  8  11 A2 00 00 00 00 00 2A 
  1299)      1857.2  Rx         00AA  8  1A 6F 1A 6F 1A 6F 1A 6F 
  1300)      1861.5  Rx         0440  8  42 02 00 00 00 00 00 00 
  1301)      1863.2  Rx         0020  7  00 00 07 00 00 00 2E 
  1302)      1863.5  Rx         0224  8  00 00 00 00 00 00 00 08 
  1303)      1863.7  Rx         0024  8  02 02 01 FB 62 08 80 16 
  1304)      1863.9  Rx         0025  8  00 60 0F FE 28 50 78 8A 
  1305)      1865.6  Rx         01C4  8  03 39 25 08 34 00 3E A8 
  1306)      1869.3  Rx         00AA  8  1A 6F 1A 6F 1A 6F 1A 6F 
  1307)      1869.5  Rx         01AA  6  00 00 00 00 00 B1 
  1308)      1875.2  Rx         0020  7  00 00 07 00 00 00 2E 
  1309)      1875.5  Rx         00B4  8  00 00 00 00 04 00 00 C0 
  1310)      1875.8  Rx         0223  8  00 00 00 00 00 00 00 2D 
  1311)      1876.0  Rx         0024  8  02 02 01 FC 62 06 80 15 
  1312)      1876.2  Rx         0025  8  00 63 0F FE 0A 6E 82 97 
  1313)      1876.5  Rx         0260  8  09 01 47 00 00 0D 79 41 
  1314)      1881.3  Rx         00AA  8  1A 6F 1A 6F 1A 6F 1A 6F 
  1315)      1884.0  Rx         02C1  8  08 02 CE 02 87 D6 00 02 
  1316)      1884.2  Rx         03B1  8  00 00 01 01 00 08 00 00 
  1317)      1886.1  Rx         0351  4  00 00 00 00 
  1318)      1887.3  Rx         0020  7  00 00 07 00 00 00 2E 
  1319)      1887.6  Rx         0224  8  00 00 00 00 00 00 00 08 
  1320)      1888.0  Rx         0025  8  00 66 0F FE 14 78 78 A4 
  1321)      1888.3  Rx         0024  8  02 02 01 FB 62 07 80 15 
  1322)      1889.1  Rx         01C4  8  03 3A 25 08 34 00 3E A9 
  1323)      1893.5  Rx         00AA  8  1A 6F 1A 6F 1A 6F 1A 6F 
  1324)      1896.3  Rx         0260  8  09 01 51 00 00 0D EA BC 
  1325)      1899.5  Rx         0020  7  00 00 07 00 00 00 2E 
  1326)      1899.8  Rx         00B4  8  00 00 00 00 04 00 00 C0 
  1327)      1900.0  Rx         0223  8  00 00 00 00 00 00 00 2D 
  1328)      1900.5  Rx         0024  8  02 02 01 FA 62 09 80 16 
  1329)      1900.7  Rx         0025  8  00 68 0F FE 28 5A 78 9C 
  1330)      1902.4  Rx         0361  8  00 1B 00 00 00 00 00 00 
  1331)      1905.5  Rx         00AA  8  1A 6F 1A 6F 1A 6F 1A 6F 
  1332)      1911.6  Rx         0020  7  00 00 07 00 00 00 2E 
  1333)      1911.8  Rx         0224  8  00 00 00 00 00 00 00 08 
  1334)      1912.6  Rx         0025  8  00 6B 0F FE 14 6E 78 9F 
  1335)      1912.8  Rx         0024  8  02 02 01 FB 62 07 80 15 
  1336)      1913.1  Rx         01C4  8  03 3B 25 08 34 00 3E AA 
  1337)      1915.7  Rx         02C1  8  08 02 C4 02 87 D6 00 F8 
  1338)      1916.7  Rx         0260  8  09 01 51 00 00 0E 19 EC 
  1339)      1917.6  Rx         00AA  8  1A 6F 1A 6F 1A 6F 1A 6F 
  1340)      1917.8  Rx         01AA  6  00 00 00 00 00 B1 
  1341)      1923.6  Rx         0020  7  00 00 07 00 00 00 2E 
  1342)      1923.9  Rx         00B4  8  00 00 00 00 04 00 00 C0 
  1343)      1924.1  Rx         0024  8  02 02 01 FC 62 06 80 15 
  1344)      1924.4  Rx         0223  8  00 00 00 00 00 00 00 2D 
  1345)      1924.6  Rx         0025  8  00 6D 0F FE 28 5A 78 A1 
  1346)      1929.7  Rx         00AA  8  1A 6F 1A 6F 1A 6F 1A 6F 
  1347)      1935.7  Rx         0020  7  00 00 07 00 00 00 2E 
  1348)      1935.9  Rx         0224  8  00 00 00 00 00 00 00 08 
  1349)      1936.2  Rx         01C4  8  03 3A 25 08 34 00 3E A9 
  1350)      1936.4  Rx         0024  8  02 02 01 FA 62 07 80 14 
  1351)      1936.7  Rx         0025  8  00 70 0F FE 0A 64 78 90 
  1352)      1936.9  Rx         0260  8  09 01 44 00 00 0D BF 84 
  1353)      1941.7  Rx         00AA  8  1A 6F 1A 6F 1A 6F 1A 6F 
  1354)      1946.8  Rx         0351  4  00 00 00 00 
  1355)      1947.5  Rx         02C1  8  08 02 90 02 8C D4 00 C7 
  1356)      1947.7  Rx         0020  7  00 00 07 00 00 00 2E 
  1357)      1948.0  Rx         00B4  8  00 00 00 00 04 00 00 C0 
  1358)      1948.2  Rx         0223  8  00 00 00 00 00 00 00 2D 
  1359)      1948.6  Rx         0025  8  00 73 0F FE 1E 78 78 BB 
  1360)      1948.8  Rx         0024  8  02 02 01 F9 62 0A 80 16 
  1361)      1953.7  Rx         00AA  8  1A 6F 1A 6F 1A 6F 1A 6F 
  1362)      1956.8  Rx         03A0  8  11 A2 00 00 00 00 00 2A 
  1363)      1957.0  Rx         0260  8  09 01 4A 00 00 0D D2 9D 
  1364)      1959.7  Rx         0020  7  00 00 07 00 00 00 2E 
  1365)      1960.0  Rx         01C4  8  03 3C 25 08 34 00 3E AB 
  1366)      1960.2  Rx         0224  8  00 00 00 00 00 00 00 08 
  1367)      1960.6  Rx         0025  8  00 75 0F FE 28 5A 78 A9 
  1368)      1960.9  Rx         0024  8  02 02 01 FC 62 08 80 17 
  1369)      1961.6  Rx         0442  8  40 02 00 00 00 00 00 00 
  1370)      1965.8  Rx         00AA  8  1A 6F 1A 6F 1A 6F 1A 6F 
  1371)      1966.0  Rx         01AA  6  00 00 00 00 00 B1 
  1372)      1966.9  Rx         0361  8  00 1B 00 00 00 00 00 00 
  1373)      1970.9  Rx         0610  8  20 00 00 56 00 00 00 00 
  1374)      1971.8  Rx         0020  7  00 00 07 00 00 00 2E 
  1375)      1972.1  Rx         00B4  8  00 00 00 00 04 00 00 C0 
  1376)      1972.3  Rx         0024  8  02 02 01 FC 62 06 80 15 
  1377)      1972.6  Rx         0223  8  00 00 00 00 00 00 00 2D 
  1378)      1972.8  Rx         0025  8  00 78 0F FE 0A 6E 78 A2 
  1379)      1972.9  Rx         0394  1  00 
  1380)      1977.3  Rx         0260  8  09 01 51 00 00 0E 3C 0F 
  1381)      1977.8  Rx         00AA  8  1A 6F 1A 6F 1A 6F 1A 6F 
  1382)      1979.2  Rx         02C1  8  08 02 87 02 86 D4 00 B8 
  1383)      1983.3  Rx         01C4  8  03 40 25 08 34 00 3E AF 
  1384)      1983.9  Rx         0020  7  00 00 07 00 00 00 2E 
  1385)      1984.1  Rx         0224  8  00 00 00 00 00 00 00 08 
  1386)      1984.5  Rx         0024  8  02 02 01 FA 62 09 80 16 
  1387)      1984.7  Rx         0025  8  00 7B 0F FE 1E 78 78 C3 
  1388)      1989.9  Rx         00AA  8  1A 6F 1A 6F 1A 6F 1A 6F 
  1389)      1992.2  Rx         04DD  8  1E 00 00 02 00 00 00 00 
  1390)      1995.9  Rx         0020  7  00 00 07 00 00 00 2E 
  1391)      1996.2  Rx         00B4  8  00 00 00 00 04 00 00 C0 
  1392)      1996.4  Rx         0223  8  00 00 00 00 00 00 00 2D 
  1393)      1996.7  Rx         0025  8  00 7D 0F FE 28 5A 78 B1 
  1394)      1996.9  Rx         0024  8  02 02 01 FA 62 0A 80 17 
  1395)      1997.5  Rx         0260  8  09 01 4C 00 00 0D FD CA 
  1396)      2002.0  Rx         00AA  8  1A 6F 1A 6F 1A 6F 1A 6F 
  1397)      2006.8  Rx         01C4  8  03 41 25 08 34 00 3E B0 
  1398)      2007.5  Rx         0351  4  00 00 00 00 
  1399)      2007.9  Rx         0020  7  00 00 07 00 00 00 2E 
  1400)      2008.2  Rx         0224  8  00 00 00 00 00 00 00 08 
  1401)      2008.7  Rx         0025  8  00 80 0F FE 0A 64 78 A0 
  1402)      2009.0  Rx         0024  8  02 02 01 FD 62 06 80 16 
  1403)      2011.0  Rx         02C1  8  08 02 83 02 89 D4 00 B7 
  1404)      2014.0  Rx         00AA  8  1A 6F 1A 6F 1A 6F 1A 6F 
  1405)      2014.2  Rx         01AA  6  00 00 00 00 00 B1 
  1406)      2017.8  Rx         0260  8  09 01 5A 00 00 0E 6A 46 
  1407)      2020.0  Rx         0020  7  00 00 07 00 00 00 2E 
  1408)      2020.3  Rx         00B4  8  00 00 00 00 04 00 00 C0 
  1409)      2020.5  Rx         0024  8  02 02 01 FD 62 05 80 15 
  1410)      2020.7  Rx         0025  8  00 83 0F FE 1E 6E 78 C1 
  1411)      2021.0  Rx         0223  8  00 00 00 00 00 00 00 2D 
  1412)      2026.0  Rx         00AA  8  1A 6F 1A 6F 1A 6F 1A 6F 
  1413)      2027.7  Rx         04C8  8  09 00 00 00 00 00 00 00 
  1414)      2028.3  Rx         03F9  8  57 38 03 01 00 00 00 97 
  1415)      2030.4  Rx         01C4  8  03 41 25 08 34 00 3E B0 
  1416)      2031.4  Rx         0361  8  00 1B 00 00 00 00 00 00 
  1417)      2032.1  Rx         0020  7  00 00 07 00 00 00 2E 
  1418)      2032.3  Rx         0224  8  00 00 00 00 00 00 00 08 
  1419)      2032.6  Rx         0024  8  02 02 01 FA 62 08 80 15 
  1420)      2032.8  Rx         0025  8  00 86 0F FE 28 78 78 D8 
  1421)      2038.0  Rx         0260  8  09 01 53 00 00 0E 63 38 
  1422)      2038.2  Rx         00AA  8  1A 6F 1A 6F 1A 6F 1A 6F 
  1423)      2042.7  Rx         02C1  8  08 02 4E 02 83 D2 00 7A 
  1424)      2044.1  Rx         0020  7  00 00 07 00 00 00 2E 
  1425)      2044.3  Rx         00B4  8  00 00 00 00 04 00 00 C0 
  1426)      2044.6  Rx         0223  8  00 00 00 00 00 00 00 2D 
  1427)      2044.9  Rx         0025  8  00 88 0F FE 28 50 78 B2 
  1428)      2045.1  Rx         0024  8  02 02 01 F9 62 0A 80 16 
  1429)      2050.2  Rx         00AA  8  1A 6F 1A 6F 1A 6F 1A 6F 
  1430)      2053.9  Rx         01C4  8  03 40 25 08 34 00 3E AF 
  1431)      2056.2  Rx         0020  7  00 00 07 00 00 00 2E 
  1432)      2056.5  Rx         0224  8  00 00 00 00 00 00 00 08 
  1433)      2056.8  Rx         0620  8  10 00 00 00 30 60 00 50 
  1434)      2057.0  Rx         0025  8  00 8C 0F FE 0A 82 82 D4 
  1435)      2057.3  Rx         0024  8  02 02 01 FC 62 07 80 16 
  1436)      2058.1  Rx         03A0  8  11 A2 00 00 00 00 00 2A 
  1437)      2058.4  Rx         0260  8  09 01 3D 00 00 0E 4A 09 
  1438)      2061.6  Rx         0440  8  42 02 00 00 00 00 00 00 
  1439)      2062.2  Rx         00AA  8  1A 6F 1A 6F 1A 6F 1A 6F 
  1440)      2062.4  Rx         01AA  6  00 00 00 00 00 B1 
  1441)      2068.1  Rx         0351  4  00 00 00 00 
  1442)      2068.3  Rx         0020  7  00 00 07 00 00 00 2E 
  1443)      2068.6  Rx         00B4  8  00 00 00 00 04 00 00 C0 
  1444)      2068.8  Rx         0223  8  00 00 00 00 00 00 00 2D 
  1445)      2069.1  Rx         0025  8  00 8E 0F FE 32 5A 78 CC 
  1446)      2069.4  Rx         0024  8  02 02 01 FC 62 06 80 15 
  1447)      2074.3  Rx         00AA  8  1A 6F 1A 6F 1A 6F 1A 6F 
  1448)      2074.5  Rx         02C1  8  08 02 48 02 7E D2 00 6F 
  1449)      2077.5  Rx         01C4  8  03 40 25 08 34 00 3E AF 
  1450)      2078.4  Rx         0260  8  09 01 2B 00 00 0D E0 8C 
  1451)      2080.3  Rx         0020  7  00 00 07 00 00 00 2E 
  1452)      2080.5  Rx         0224  8  00 00 00 00 00 00 00 08 
  1453)      2080.7  Rx         0024  8  02 02 01 FB 62 08 80 16 
  1454)      2081.0  Rx         0025  8  00 91 0F FE 0A 64 78 B1 
  1455)      2086.3  Rx         00AA  8  1A 6F 1A 6F 1A 6F 1A 6F 
  1456)      2092.4  Rx         0020  7  00 00 07 00 00 00 2E 
  1457)      2092.6  Rx         00B4  8  00 00 00 00 04 00 00 C0 
  1458)      2092.8  Rx         0223  8  00 00 00 00 00 00 00 2D 
  1459)      2093.1  Rx         0024  8  02 02 01 FC 62 08 80 17 
  1460)      2093.3  Rx         0025  8  00 94 0F FE 14 6E 78 C8 
  1461)      2095.9  Rx         0361  8  00 1B 00 00 00 00 00 00 
  1462)      2098.5  Rx         00AA  8  1A 6F 1A 6F 1A 6F 1A 6F 
  1463)      2098.8  Rx         0260  8  09 01 4C 00 00 0D E8 B5 
  1464)      2099.0  Rx         03B7  8  00 00 00 00 00 00 00 00 
  1465)      2101.0  Rx         01C4  8  03 3F 25 08 34 00 3E AE 
  1466)      2104.5  Rx         0020  7  00 00 07 00 00 00 2E 
  1467)      2104.8  Rx         0224  8  00 00 00 00 00 00 00 08 
  1468)      2105.3  Rx         0024  8  02 02 01 FD 62 05 80 15 
  1469)      2105.5  Rx         0025  8  00 96 0F FE 28 50 78 C0 
  1470)      2106.1  Rx         02C1  8  08 02 48 02 7E D2 00 6F 
  1471)      2110.5  Rx         00AA  8  1A 6F 1A 6F 1A 6F 1A 6F 
  1472)      2110.8  Rx         01AA  6  00 00 00 00 00 B1 
  1473)      2116.6  Rx         0020  7  00 00 07 00 00 00 2E 
  1474)      2116.8  Rx         00B4  8  00 00 00 00 04 00 00 C0 
  1475)      2117.1  Rx         0223  8  00 00 00 00 00 00 00 2D 
  1476)      2117.5  Rx         0025  8  00 99 0F FE 0A 64 78 B9 
  1477)      2117.8  Rx         0024  8  02 02 01 FB 62 07 7F 14 
  1478)      2118.9  Rx         0260  8  09 01 66 00 00 0E B4 9C 
  1479)      2122.6  Rx         00AA  8  1A 6F 1A 6F 1A 6F 1A 6F 
  1480)      2124.5  Rx         01C4  8  03 3D 25 08 34 00 3E AC 
  1481)      2128.6  Rx         0020  7  00 00 07 00 00 00 2E 
  1482)      2128.9  Rx         0224  8  00 00 00 00 00 00 00 08 
  1483)      2129.1  Rx         0351  4  00 00 00 00 
  1484)      2129.5  Rx         0025  8  00 9C 0F FE 14 6E 78 D0 
  1485)      2129.8  Rx         0024  8  02 02 01 F9 62 09 80 15 
  1486)      2134.7  Rx         00AA  8  1A 6F 1A 6F 1A 6F 1A 6F 
  1487)      2137.9  Rx         02C1  8  08 02 49 02 7E D2 00 70 
  1488)      2139.1  Rx         0260  8  09 01 65 00 00 0E B8 9F 
  1489)      2140.7  Rx         0020  7  00 00 07 00 00 00 2E 
  1490)      2140.9  Rx         00B4  8  00 00 00 00 04 00 00 C0 
  1491)      2141.2  Rx         0223  8  00 00 00 00 00 00 00 2D 
  1492)      2141.4  Rx         0024  8  02 02 01 FB 62 08 80 16 
  1493)      2141.7  Rx         0025  8  00 9F 0F FE 1E 78 78 E7 
  1494)      2146.7  Rx         00AA  8  1A 6F 1A 6F 1A 6F 1A 6F 
  1495)      2148.1  Rx         01C4  8  03 41 25 08 34 00 3E B0 
  1496)      2152.8  Rx         0020  7  00 00 07 00 00 00 2E 
  1497)      2153.0  Rx         0224  8  00 00 00 00 00 00 00 08 
  1498)      2153.4  Rx         0024  8  02 02 01 FD 62 05 80 15 
  1499)      2153.6  Rx         0025  8  00 A2 0F FE 28 78 78 F4 
  1500)      2157.0  Rx         03A0  8  11 A2 00 00 00 00 00 2A 
  1501)      2158.7  Rx         00AA  8  1A 6F 1A 6F 1A 6F 1A 6F 
  1502)      2158.9  Rx         01AA  6  00 00 00 00 00 B1 
  1503)      2159.2  Rx         0260  8  09 01 4D 00 00 0E 5A 29 
  1504)      2160.4  Rx         0361  8  00 1B 00 00 00 00 00 00 
  1505)      2161.5  Rx         0442  8  40 02 00 00 00 00 00 00 
  1506)      2164.8  Rx         0020  7  00 00 07 00 00 00 2E 
  1507)      2165.0  Rx         00B4  8  00 00 00 00 04 00 00 C0 
  1508)      2165.3  Rx         0223  8  00 00 00 00 00 00 00 2D 
  1509)      2165.5  Rx         0025  8  00 A5 0F FE 28 78 78 F7 
  1510)      2165.8  Rx         0024  8  02 02 01 FA 62 07 80 14 
  1511)      2168.5  Rx         03D3  2  00 F2 
  1512)      2169.6  Rx         02C1  8  08 02 47 02 7C D2 00 6C 
  1513)      2170.8  Rx         00AA  8  1A 6F 1A 6F 1A 6F 1A 6F 
  1514)      2171.6  Rx         01C4  8  03 44 25 08 34 00 3E B3 
  1515)      2176.8  Rx         0020  7  00 00 07 00 00 00 2E 
  1516)      2177.0  Rx         0224  8  00 00 00 00 00 00 00 08 
  1517)      2177.3  Rx         04DC  8  1D 00 00 00 00 00 00 00 
  1518)      2177.7  Rx         0025  8  00 A8 0F FE 28 78 78 FA 
  1519)      2178.0  Rx         0024  8  02 02 01 F8 62 09 80 14 
  1520)      2179.6  Rx         0260  8  09 01 47 00 00 0E 34 FD 
  1521)      2182.8  Rx         00AA  8  1A 6F 1A 6F 1A 6F 1A 6F 
  1522)      2188.9  Rx         0020  7  00 00 07 00 00 00 2E 
  1523)      2189.1  Rx         00B4  8  00 00 00 00 04 00 00 C0 
  1524)      2189.4  Rx         0024  8  02 02 01 FB 62 08 80 16 
  1525)      2189.6  Rx         0223  8  00 00 00 00 00 00 00 2D 
  1526)      2189.8  Rx         0025  8  00 AB 0F FE 28 78 78 FD 
  1527)      2190.0  Rx         0351  4  00 00 00 00 
  1528)      2194.9  Rx         00AA  8  1A 6F 1A 6F 1A 6F 1A 6F 
  1529)      2195.2  Rx         01C4  8  03 3E 25 08 34 00 3E AD 
  1530)      2199.7  Rx         0260  8  09 01 3F 00 00 0D FA BA 
  1531)      2200.9  Rx         0020  7  00 00 07 00 00 00 2E 
  1532)      2201.2  Rx         0224  8  00 00 00 00 00 00 00 08 
  1533)      2201.4  Rx         02C1  8  08 02 43 02 75 D2 00 61 
